Time Stamp,ID,Extended,Dir,Bus,LEN,D1,D2,D3,D4,D5,D6,D7,D8
0,00431403,true,Rx,0,8,07,AA,02,01,00,A0,2C,87,
0,00831403,true,Rx,0,8,07,20,09,00,01,4B,14,03,
0,00C31403,true,Rx,0,6,05,01,50,87,D5,FD,00,00,
0,00431406,true,Rx,0,8,07,AA,02,01,00,A0,2C,88,
0,00831406,true,Rx,0,8,07,20,09,00,01,4B,14,06,
0,00C31406,true,Rx,0,6,05,01,50,88,A5,21,00,00,
0,10614001,true,Rx,0,8,5E,8C,1A,BF,42,77,1B,C9,
0,00461403,true,Rx,0,8,07,AA,02,17,00,89,2C,89,
0,00861403,true,Rx,0,8,07,20,09,00,01,4B,14,03,
0,00C61403,true,Rx,0,8,07,03,30,89,8A,76,89,89,
0,01061403,true,Rx,0,8,07,89,89,89,89,89,89,89,
0,01461403,true,Rx,0,8,07,89,89,89,89,89,89,89,
0,01861403,true,Rx,0,7,06,89,89,89,89,88,3E,00,
0,00461406,true,Rx,0,8,07,AA,02,17,00,89,2C,8A,
0,00861406,true,Rx,0,8,07,20,09,00,01,4B,14,06,
0,00C61406,true,Rx,0,8,07,03,30,8A,89,75,8A,8A,
0,01061406,true,Rx,0,8,07,8A,8A,8A,8A,8A,8A,8A,
0,01461406,true,Rx,0,8,07,8A,8A,8A,8A,8A,8A,8A,
0,01861406,true,Rx,0,7,06,8A,8A,8A,8A,58,E2,00,
0,10014001,true,Rx,0,8,AA,03,17,00,E2,2C,1E,E5,
0,10114001,true,Rx,0,8,03,00,01,4B,14,06,01,01,
0,10114001,true,Rx,0,8,03,30,1E,1D,E1,1E,1E,1E,
0,10114001,true,Rx,0,8,1E,1E,1E,1E,1E,1E,1E,1E,
0,10114001,true,Rx,0,8,1E,1E,1E,1E,1E,1E,1E,1E,
0,10214001,true,Rx,0,3,1E,22,A2,00,00,00,00,00,
0,10614001,true,Rx,0,8,5E,8C,1A,BF,42,77,1B,C9,
0,00431403,true,Rx,0,8,07,AA,02,01,00,A0,2C,8B,
0,00831403,true,Rx,0,8,07,20,09,00,01,4B,14,03,
0,00C31403,true,Rx,0,6,05,01,50,8B,EA,A8,00,00,
0,00431406,true,Rx,0,8,07,AA,02,01,00,A0,2C,8C,
0,00831406,true,Rx,0,8,07,20,09,00,01,4B,14,06,
0,00C31406,true,Rx,0,6,05,01,50,8C,B1,D2,00,00,
0,00431406,true,Rx,0,8,07,AA,02,02,00,9F,2C,8D,
0,00831406,true,Rx,0,8,07,20,09,00,01,4B,14,06,
0,00C31406,true,Rx,0,7,06,03,10,8F,89,51,43,00,
0,00441406,true,Rx,0,8,07,AA,02,05,00,F4,2C,8E,
0,00841406,true,Rx,0,8,07,20,09,00,01,4B,14,06,
0,00C41406,true,Rx,0,8,07,03,13,71,8E,8E,8E,8E,
0,01041406,true,Rx,0,3,02,64,C4,00,00,00,00,00,
0,004D1403,true,Rx,0,8,07,AA,02,45,00,AF,2D,8F,
0,008D1403,true,Rx,0,8,07,20,09,00,01,4B,14,03,
0,00CD1403,true,Rx,0,8,07,03,2F,8E,CA,8F,C7,D8,
0,010D1403,true,Rx,0,8,07,BA,BE,D5,C4,C7,BB,DC,
0,014D1403,true,Rx,0,8,07,C9,BA,DF,BF,B7,BA,BC,
0,018D1403,true,Rx,0,8,07,C4,8F,8E,8F,8E,88,8C,
0,01CD1403,true,Rx,0,8,07,8F,8A,8D,8E,8F,8A,8F,
0,020D1403,true,Rx,0,8,07,8F,8F,8F,8F,8F,8C,8F,
0,024D1403,true,Rx,0,8,07,8F,6B,83,70,70,70,70,
0,028D1403,true,Rx,0,8,07,80,8A,8F,8F,8F,8F,D7,
0,02CD1403,true,Rx,0,8,07,8D,8F,8F,8F,8F,8F,8F,
0,030D1403,true,Rx,0,8,07,8F,8F,8F,8F,8F,8F,8F,
0,034D1403,true,Rx,0,4,03,8F,CA,EC,00,00,00,00,
0,004D1406,true,Rx,0,8,07,AA,02,45,00,AF,2D,90,
0,008D1406,true,Rx,0,8,07,20,09,00,01,4B,14,06,
0,00CD1406,true,Rx,0,8,07,03,2F,91,D5,90,D8,C7,
0,010D1406,true,Rx,0,8,07,A5,A1,CA,DB,D8,A4,C3,
0,014D1406,true,Rx,0,8,07,D6,A5,C0,A0,A8,A5,A3,
0,018D1406,true,Rx,0,8,07,DB,90,91,90,91,97,93,
0,01CD1406,true,Rx,0,8,07,90,95,92,91,90,95,90,
0,020D1406,true,Rx,0,8,07,90,90,90,90,90,93,90,
0,024D1406,true,Rx,0,8,07,90,74,9C,6F,6F,6F,6F,
0,028D1406,true,Rx,0,8,07,9F,95,90,90,90,90,C8,
0,02CD1406,true,Rx,0,8,07,92,90,90,90,90,90,90,
0,030D1406,true,Rx,0,8,07,90,90,90,90,90,90,90,
0,034D1406,true,Rx,0,4,03,90,91,3C,00,00,00,00,
0,10014001,true,Rx,0,8,AA,03,45,00,C4,2D,1F,E5,
0,10114001,true,Rx,0,8,03,00,01,4B,14,03,01,01,
0,10114001,true,Rx,0,8,03,2F,1E,5A,1F,57,48,2A,
0,10114001,true,Rx,0,8,2E,45,54,57,2B,4C,59,2A,
0,10114001,true,Rx,0,8,4F,2F,27,2A,2C,54,1F,1E,
0,10114001,true,Rx,0,8,1F,1E,18,1C,1F,1A,1D,1E,
0,10114001,true,Rx,0,8,1F,1A,1F,1F,1F,1F,1F,1F,
0,10114001,true,Rx,0,8,1C,1F,1F,FB,13,E0,E0,E0,
0,10114001,true,Rx,0,8,E0,10,1A,1F,1F,1F,1F,47,
0,10114001,true,Rx,0,8,1D,1F,1F,1F,1F,1F,1F,1F,
0,10114001,true,Rx,0,8,1F,1F,1F,1F,1F,1F,1F,10,
0,10214001,true,Rx,0,1,9A,00,00,00,00,00,00,00,
0,10014001,true,Rx,0,8,AA,03,00,00,DE,2D,20,E5,
0,10114001,true,Rx,0,8,03,00,01,4B,14,03,01,00,
0,10214001,true,Rx,0,4,01,05,C9,F7,00,00,00,00,
0,10614001,true,Rx,0,8,5E,8C,1A,BF,42,77,1B,C9,
0,00451406,true,Rx,0,8,07,AA,02,0C,00,49,2C,91,
0,00851406,true,Rx,0,8,07,20,09,00,01,4B,14,06,
0,00C51406,true,Rx,0,8,07,03,23,81,B6,91,91,91,
0,01051406,true,Rx,0,8,07,F5,85,90,90,91,91,91,
0,01451406,true,Rx,0,3,02,D3,2B,00,00,00,00,00,
0,00431406,true,Rx,0,8,07,AA,02,01,00,A0,2C,92,
0,00831406,true,Rx,0,8,07,20,09,00,01,4B,14,06,
0,00C31406,true,Rx,0,6,05,03,27,93,16,02,00,00,
0,00431403,true,Rx,0,8,07,AA,02,01,00,A0,2C,93,
0,00831403,true,Rx,0,8,07,20,09,00,01,4B,14,03,
0,00C31403,true,Rx,0,6,05,01,50,93,94,02,00,00,
0,00431406,true,Rx,0,8,07,AA,02,01,00,A0,2C,94,
0,00831406,true,Rx,0,8,07,20,09,00,01,4B,14,06,
0,00C31406,true,Rx,0,6,05,01,50,94,CF,78,00,00,
0,10614001,true,Rx,0,8,5E,8C,1A,BF,42,77,1B,C9,
0,00461403,true,Rx,0,8,07,AA,02,17,00,89,2C,95,
0,00861403,true,Rx,0,8,07,20,09,00,01,4B,14,03,
0,00C61403,true,Rx,0,8,07,03,30,95,96,6A,95,95,
0,01061403,true,Rx,0,8,07,95,95,95,95,95,95,95,
0,01461403,true,Rx,0,8,07,95,95,95,95,95,95,95,
0,01861403,true,Rx,0,7,06,95,95,95,95,0D,36,00,
0,00461406,true,Rx,0,8,07,AA,02,17,00,89,2C,96,
0,00861406,true,Rx,0,8,07,20,09,00,01,4B,14,06,
0,00C61406,true,Rx,0,8,07,03,30,96,95,69,96,96,
0,01061406,true,Rx,0,8,07,96,96,96,96,96,96,96,
0,01461406,true,Rx,0,8,07,96,96,96,96,96,96,96,
0,01861406,true,Rx,0,7,06,96,96,96,96,DD,EA,00,
0,10014001,true,Rx,0,8,AA,03,17,00,E2,2C,21,E5,
0,10114001,true,Rx,0,8,03,00,01,4B,14,06,01,01,
0,10114001,true,Rx,0,8,03,30,21,22,DE,21,21,21,
0,10114001,true,Rx,0,8,21,21,21,21,21,21,21,21,
0,10114001,true,Rx,0,8,21,21,21,21,21,21,21,21,
0,10214001,true,Rx,0,3,21,F7,4E,00,00,00,00,00,
0,00431403,true,Rx,0,8,07,AA,02,01,00,A0,2C,97,
0,00831403,true,Rx,0,8,07,20,09,00,01,4B,14,03,
0,00C31403,true,Rx,0,6,05,01,50,97,80,F1,00,00,
0,00431406,true,Rx,0,8,07,AA,02,01,00,A0,2C,98,
0,00831406,true,Rx,0,8,07,20,09,00,01,4B,14,06,
0,00C31406,true,Rx,0,6,05,01,50,98,F0,2D,00,00,
0,00441406,true,Rx,0,8,07,AA,02,05,00,F4,2C,99,
0,00841406,true,Rx,0,8,07,20,09,00,01,4B,14,06,
0,00C41406,true,Rx,0,8,07,03,13,66,99,99,99,99,
0,01041406,true,Rx,0,3,02,BD,87,00,00,00,00,00,
0,10614001,true,Rx,0,8,5E,8C,1A,BF,42,77,1B,C9,
0,00431406,true,Rx,0,8,07,AA,02,02,00,9F,2C,9A,
0,00831406,true,Rx,0,8,07,20,09,00,01,4B,14,06,
0,00C31406,true,Rx,0,7,06,03,10,98,9E,2A,89,00,
0,00431403,true,Rx,0,8,07,AA,02,01,00,A0,2C,9B,
0,00831403,true,Rx,0,8,07,20,09,00,01,4B,14,03,
0,00C31403,true,Rx,0,6,05,01,50,9B,BF,A4,00,00,
0,00431406,true,Rx,0,8,07,AA,02,01,00,A0,2C,9C,
0,00831406,true,Rx,0,8,07,20,09,00,01,4B,14,06,
0,00C31406,true,Rx,0,6,05,01,50,9C,E4,DE,00,00,
0,10614001,true,Rx,0,8,5E,8C,1A,BF,42,77,1B,C9,
0,00431403,true,Rx,0,8,07,AA,02,01,00,A0,2C,9D,
0,00831403,true,Rx,0,8,07,20,09,00,01,4B,14,03,
0,00C31403,true,Rx,0,6,05,01,50,9D,21,2E,00,00,
0,00431406,true,Rx,0,8,07,AA,02,01,00,A0,2C,9E,
0,00831406,true,Rx,0,8,07,20,09,00,01,4B,14,06,
0,00C31406,true,Rx,0,6,05,01,50,9E,6E,A7,00,00,
0,00461403,true,Rx,0,8,07,AA,02,17,00,89,2C,9F,
0,00861403,true,Rx,0,8,07,20,09,00,01,4B,14,03,
0,00C61403,true,Rx,0,8,07,03,30,9F,9C,60,9F,9F,
0,01061403,true,Rx,0,8,07,9F,9F,9F,9F,9F,9F,9F,
0,01461403,true,Rx,0,8,07,9F,9F,9F,9F,9F,9F,9F,
0,01861403,true,Rx,0,7,06,9F,9F,9F,9F,A3,7C,00,
0,00461406,true,Rx,0,8,07,AA,02,17,00,89,2C,A0,
0,00861406,true,Rx,0,8,07,20,09,00,01,4B,14,06,
0,00C61406,true,Rx,0,8,07,03,30,A0,A3,5F,A0,A0,
0,01061406,true,Rx,0,8,07,A0,A0,A0,A0,A0,A0,A0,
0,01461406,true,Rx,0,8,07,A0,A0,A0,A0,A0,A0,A0,
0,01861406,true,Rx,0,7,06,A0,A0,A0,A0,94,5F,00,
0,10014001,true,Rx,0,8,AA,03,17,00,E2,2C,22,E5,
0,10114001,true,Rx,0,8,03,00,01,4B,14,06,01,01,
0,10114001,true,Rx,0,8,03,30,22,21,DD,22,22,22,
0,10114001,true,Rx,0,8,22,22,22,22,22,22,22,22,
0,10114001,true,Rx,0,8,22,22,22,22,22,22,22,22,
0,10214001,true,Rx,0,3,22,F9,52,00,00,00,00,00,
0,10614001,true,Rx,0,8,5E,8C,1A,BF,42,77,1B,C9,
0,004D1403,true,Rx,0,8,07,AA,02,45,00,AF,2D,A1,
0,008D1403,true,Rx,0,8,07,20,09,00,01,4B,14,03,
0,00CD1403,true,Rx,0,8,07,03,2F,A0,E4,A1,E9,F6,
0,010D1403,true,Rx,0,8,07,94,90,FB,EA,E9,95,F2,
0,014D1403,true,Rx,0,8,07,E7,94,F1,91,99,94,92,
0,018D1403,true,Rx,0,8,07,EA,A1,A0,A1,A0,A6,A2,
0,01CD1403,true,Rx,0,8,07,A1,A4,A3,A0,A1,A4,A1,
0,020D1403,true,Rx,0,8,07,A1,A1,A1,A1,A1,A2,A1,
0,024D1403,true,Rx,0,8,07,A1,45,AD,5E,5E,5E,5E,
0,028D1403,true,Rx,0,8,07,AE,A4,A1,A1,A1,A1,F9,
0,02CD1403,true,Rx,0,8,07,A3,A1,A1,A1,A1,A1,A1,
0,030D1403,true,Rx,0,8,07,A1,A1,A1,A1,A1,A1,A1,
0,034D1403,true,Rx,0,4,03,A1,FF,3B,00,00,00,00,
0,004D1406,true,Rx,0,8,07,AA,02,45,00,AF,2D,A2,
0,008D1406,true,Rx,0,8,07,20,09,00,01,4B,14,06,
0,00CD1406,true,Rx,0,8,07,03,2F,A3,E7,A2,EA,F5,
0,010D1406,true,Rx,0,8,07,97,93,F8,E9,EA,96,F1,
0,014D1406,true,Rx,0,8,07,E4,97,F2,92,9A,97,91,
0,018D1406,true,Rx,0,8,07,E9,A2,A3,A2,A3,A5,A1,
0,01CD1406,true,Rx,0,8,07,A2,A7,A0,A3,A2,A7,A2,
0,020D1406,true,Rx,0,8,07,A2,A2,A2,A2,A2,A1,A2,
0,024D1406,true,Rx,0,8,07,A2,46,AE,5D,5D,5D,5D,
0,028D1406,true,Rx,0,8,07,AD,A7,A2,A2,A2,A2,FA,
0,02CD1406,true,Rx,0,8,07,A0,A2,A2,A2,A2,A2,A2,
0,030D1406,true,Rx,0,8,07,A2,A2,A2,A2,A2,A2,A2,
0,034D1406,true,Rx,0,4,03,A2,B3,A5,00,00,00,00,
0,10014001,true,Rx,0,8,AA,03,45,00,C4,2D,23,E5,
0,10114001,true,Rx,0,8,03,00,01,4B,14,03,01,01,
0,10114001,true,Rx,0,8,03,2F,22,66,23,6B,74,16,
0,10114001,true,Rx,0,8,12,79,68,6B,17,70,65,16,
0,10114001,true,Rx,0,8,73,13,1B,16,10,68,23,22,
0,10114001,true,Rx,0,8,23,22,24,20,23,26,21,22,
0,10114001,true,Rx,0,8,23,26,23,23,23,23,23,23,
0,10114001,true,Rx,0,8,20,23,23,C7,2F,DC,DC,DC,
0,10114001,true,Rx,0,8,DC,2C,26,23,23,23,23,7B,
0,10114001,true,Rx,0,8,21,23,23,23,23,23,23,23,
0,10114001,true,Rx,0,8,23,23,23,23,23,23,23,9F,
0,10214001,true,Rx,0,1,3E,00,00,00,00,00,00,00,
0,00441406,true,Rx,0,8,07,AA,02,05,00,F4,2C,A3,
0,00841406,true,Rx,0,8,07,20,09,00,01,4B,14,06,
0,00C41406,true,Rx,0,8,07,03,13,5C,A3,A3,A3,A3,
0,01041406,true,Rx,0,3,02,61,F7,00,00,00,00,00,
0,00431403,true,Rx,0,8,07,AA,02,01,00,A0,2C,A4,
0,00831403,true,Rx,0,8,07,20,09,00,01,4B,14,03,
0,00C31403,true,Rx,0,6,05,01,50,A4,30,A0,00,00,
0,00431406,true,Rx,0,8,07,AA,02,01,00,A0,2C,A5,
0,00831406,true,Rx,0,8,07,20,09,00,01,4B,14,06,
0,00C31406,true,Rx,0,6,05,01,50,A5,F5,50,00,00,
0,10614001,true,Rx,0,8,5E,8C,1A,BF,42,77,1B,C9,
0,00451406,true,Rx,0,8,07,AA,02,0C,00,49,2C,A6,
0,00851406,true,Rx,0,8,07,20,09,00,01,4B,14,06,
0,00C51406,true,Rx,0,8,07,03,23,B6,81,A6,A6,A6,
0,01051406,true,Rx,0,8,07,C2,B2,A7,A7,A6,A6,A6,
0,01451406,true,Rx,0,3,02,58,DF,00,00,00,00,00,
0,00431406,true,Rx,0,8,07,AA,02,01,00,A0,2C,A7,
0,00831406,true,Rx,0,8,07,20,09,00,01,4B,14,06,
0,00C31406,true,Rx,0,6,05,03,27,A6,38,D9,00,00,
0,00431406,true,Rx,0,8,07,AA,02,02,00,9F,2C,A8,
0,00831406,true,Rx,0,8,07,20,09,00,01,4B,14,06,
0,00C31406,true,Rx,0,7,06,03,10,AA,AC,07,BB,00,
0,00431403,true,Rx,0,8,07,AA,02,01,00,A0,2C,A9,
0,00831403,true,Rx,0,8,07,20,09,00,01,4B,14,03,
0,00C31403,true,Rx,0,6,05,01,50,A9,CA,C9,00,00,
0,00431406,true,Rx,0,8,07,AA,02,01,00,A0,2C,AA,
0,00831406,true,Rx,0,8,07,20,09,00,01,4B,14,06,
0,00C31406,true,Rx,0,6,05,01,50,AA,85,40,00,00,
0,10614001,true,Rx,0,8,5E,8C,1A,BF,42,77,1B,C9,
0,00461403,true,Rx,0,8,07,AA,02,17,00,89,2C,AB,
0,00861403,true,Rx,0,8,07,20,09,00,01,4B,14,03,
0,00C61403,true,Rx,0,8,07,03,30,AB,A8,54,AB,AB,
0,01061403,true,Rx,0,8,07,AB,AB,AB,AB,AB,AB,AB,
0,01461403,true,Rx,0,8,07,AB,AB,AB,AB,AB,AB,AB,
0,01861403,true,Rx,0,7,06,AB,AB,AB,AB,9D,1E,00,
0,00461406,true,Rx,0,8,07,AA,02,17,00,89,2C,AC,
0,00861406,true,Rx,0,8,07,20,09,00,01,4B,14,06,
0,00C61406,true,Rx,0,8,07,03,30,AC,AF,53,AC,AC,
0,01061406,true,Rx,0,8,07,AC,AC,AC,AC,AC,AC,AC,
0,01461406,true,Rx,0,8,07,AC,AC,AC,AC,AC,AC,AC,
0,01861406,true,Rx,0,7,06,AC,AC,AC,AC,A0,2C,00,
0,10014001,true,Rx,0,8,AA,03,17,00,E2,2C,24,E5,
0,10114001,true,Rx,0,8,03,00,01,4B,14,06,01,01,
0,10114001,true,Rx,0,8,03,30,24,27,DB,24,24,24,
0,10114001,true,Rx,0,8,24,24,24,24,24,24,24,24,
0,10114001,true,Rx,0,8,24,24,24,24,24,24,24,24,
0,10214001,true,Rx,0,3,24,E5,6A,00,00,00,00,00,
0,00431403,true,Rx,0,8,07,AA,02,01,00,A0,2C,AD,
0,00831403,true,Rx,0,8,07,20,09,00,01,4B,14,03,
0,00C31403,true,Rx,0,6,05,01,50,AD,DE,3A,00,00,
0,00431406,true,Rx,0,8,07,AA,02,01,00,A0,2C,AE,
0,00831406,true,Rx,0,8,07,20,09,00,01,4B,14,06,
0,00C31406,true,Rx,0,6,05,01,50,AE,91,B3,00,00,
0,00441406,true,Rx,0,8,07,AA,02,05,00,F4,2C,AF,
0,00841406,true,Rx,0,8,07,20,09,00,01,4B,14,06,
0,00C41406,true,Rx,0,8,07,03,13,50,AF,AF,AF,AF,
0,01041406,true,Rx,0,3,02,BB,A5,00,00,00,00,00,
0,10614001,true,Rx,0,8,5E,8C,1A,BF,42,77,1B,C9,
0,00431403,true,Rx,0,8,07,AA,02,01,00,A0,2C,B0,
0,00831403,true,Rx,0,8,07,20,09,00,01,4B,14,03,
0,00C31403,true,Rx,0,6,05,01,50,B0,71,5F,00,00,
0,00431406,true,Rx,0,8,07,AA,02,01,00,A0,2C,B1,
0,00831406,true,Rx,0,8,07,20,09,00,01,4B,14,06,
0,00C31406,true,Rx,0,6,05,01,50,B1,B4,AF,00,00,
0,10614001,true,Rx,0,8,5E,8C,1A,BF,42,77,1B,C9,
0,00431406,true,Rx,0,8,07,AA,02,02,00,9F,2C,B2,
0,00831406,true,Rx,0,8,07,20,09,00,01,4B,14,06,
0,00C31406,true,Rx,0,7,06,03,10,B0,B6,54,F7,00,
0,00431403,true,Rx,0,8,07,AA,02,01,00,A0,2C,B3,
0,00831403,true,Rx,0,8,07,20,09,00,01,4B,14,03,
0,00C31403,true,Rx,0,6,05,01,50,B3,3E,1A,00,00,
0,00431406,true,Rx,0,8,07,AA,02,01,00,A0,2C,B4,
0,00831406,true,Rx,0,8,07,20,09,00,01,4B,14,06,
0,00C31406,true,Rx,0,6,05,01,50,B4,65,60,00,00,
0,00461403,true,Rx,0,8,07,AA,02,17,00,89,2C,B5,
0,00861403,true,Rx,0,8,07,20,09,00,01,4B,14,03,
0,00C61403,true,Rx,0,8,07,03,30,B5,B6,4A,B5,B5,
0,01061403,true,Rx,0,8,07,B5,B5,B5,B5,B5,B5,B5,
0,01461403,true,Rx,0,8,07,B5,B5,B5,B5,B5,B5,B5,
0,01861403,true,Rx,0,7,06,B5,B5,B5,B5,6F,C1,00,
0,00461406,true,Rx,0,8,07,AA,02,17,00,89,2C,B6,
0,00861406,true,Rx,0,8,07,20,09,00,01,4B,14,06,
0,00C61406,true,Rx,0,8,07,03,30,B6,B5,49,B6,B6,
0,01061406,true,Rx,0,8,07,B6,B6,B6,B6,B6,B6,B6,
0,01461406,true,Rx,0,8,07,B6,B6,B6,B6,B6,B6,B6,
0,01861406,true,Rx,0,7,06,B6,B6,B6,B6,BF,1D,00,
0,10014001,true,Rx,0,8,AA,03,17,00,E2,2C,25,E5,
0,10114001,true,Rx,0,8,03,00,01,4B,14,06,01,01,
0,10114001,true,Rx,0,8,03,30,25,26,DA,25,25,25,
0,10114001,true,Rx,0,8,25,25,25,25,25,25,25,25,
0,10114001,true,Rx,0,8,25,25,25,25,25,25,25,25,
0,10214001,true,Rx,0,3,25,1E,A1,00,00,00,00,00,
0,10614001,true,Rx,0,8,5E,8C,1A,BF,42,77,1B,C9,
0,004D1403,true,Rx,0,8,07,AA,02,45,00,AF,2D,B7,
0,008D1403,true,Rx,0,8,07,20,09,00,01,4B,14,03,
0,00CD1403,true,Rx,0,8,07,03,2F,B6,F2,B7,FF,E0,
0,010D1403,true,Rx,0,8,07,82,86,ED,FC,FF,83,E4,
0,014D1403,true,Rx,0,8,07,F1,82,E7,87,8F,82,84,
0,018D1403,true,Rx,0,8,07,FC,B7,B6,B7,B6,B0,B4,
0,01CD1403,true,Rx,0,8,07,B7,B2,B5,B6,B7,B2,B7,
0,020D1403,true,Rx,0,8,07,B7,B7,B7,B7,B7,B4,B7,
0,024D1403,true,Rx,0,8,07,B7,53,BB,48,48,48,48,
0,028D1403,true,Rx,0,8,07,B8,B2,B7,B7,B7,B7,EF,
0,02CD1403,true,Rx,0,8,07,B5,B7,B7,B7,B7,B7,B7,
0,030D1403,true,Rx,0,8,07,B7,B7,B7,B7,B7,B7,B7,
0,034D1403,true,Rx,0,4,03,B7,E4,70,00,00,00,00,
0,004D1406,true,Rx,0,8,07,AA,02,45,00,AF,2D,B8,
0,008D1406,true,Rx,0,8,07,20,09,00,01,4B,14,06,
0,00CD1406,true,Rx,0,8,07,03,2F,B9,FD,B8,F0,EF,
0,010D1406,true,Rx,0,8,07,8D,89,E2,F3,F0,8C,EB,
0,014D1406,true,Rx,0,8,07,FE,8D,E8,88,80,8D,8B,
0,018D1406,true,Rx,0,8,07,F3,B8,B9,B8,B9,BF,BB,
0,01CD1406,true,Rx,0,8,07,B8,BD,BA,B9,B8,BD,B8,
0,020D1406,true,Rx,0,8,07,B8,B8,B8,B8,B8,BB,B8,
0,024D1406,true,Rx,0,8,07,B8,5C,B4,47,47,47,47,
0,028D1406,true,Rx,0,8,07,B7,BD,B8,B8,B8,B8,E0,
0,02CD1406,true,Rx,0,8,07,BA,B8,B8,B8,B8,B8,B8,
0,030D1406,true,Rx,0,8,07,B8,B8,B8,B8,B8,B8,B8,
0,034D1406,true,Rx,0,4,03,B8,A1,28,00,00,00,00,
0,10014001,true,Rx,0,8,AA,03,45,00,C4,2D,26,E5,
0,10114001,true,Rx,0,8,03,00,01,4B,14,03,01,01,
0,10114001,true,Rx,0,8,03,2F,27,63,26,6E,71,13,
0,10114001,true,Rx,0,8,17,7C,6D,6E,12,75,60,13,
0,10114001,true,Rx,0,8,76,16,1E,13,15,6D,26,27,
0,10114001,true,Rx,0,8,26,27,21,25,26,23,24,27,
0,10114001,true,Rx,0,8,26,23,26,26,26,26,26,26,
0,10114001,true,Rx,0,8,25,26,26,C2,2A,D9,D9,D9,
0,10114001,true,Rx,0,8,D9,29,23,26,26,26,26,7E,
0,10114001,true,Rx,0,8,24,26,26,26,26,26,26,26,
0,10114001,true,Rx,0,8,26,26,26,26,26,26,26,7E,
0,10214001,true,Rx,0,1,16,00,00,00,00,00,00,00,
0,00431403,true,Rx,0,8,07,AA,02,00,00,B5,2D,B9,
0,00831403,true,Rx,0,8,07,20,09,00,01,4B,14,03,
0,00C31403,true,Rx,0,5,04,01,05,BD,AF,00,00,00,
0,00441406,true,Rx,0,8,07,AA,02,05,00,F4,2C,BA,
0,00841406,true,Rx,0,8,07,20,09,00,01,4B,14,06,
0,00C41406,true,Rx,0,8,07,03,13,45,BA,BA,BA,BA,
0,01041406,true,Rx,0,3,02,B9,FE,00,00,00,00,00,
0,00431403,true,Rx,0,8,07,AA,02,01,00,A0,2C,BB,
0,00831403,true,Rx,0,8,07,20,09,00,01,4B,14,03,
0,00C31403,true,Rx,0,6,05,01,50,BB,15,BC,00,00,
0,00431406,true,Rx,0,8,07,AA,02,01,00,A0,2C,BC,
0,00831406,true,Rx,0,8,07,20,09,00,01,4B,14,06,
0,00C31406,true,Rx,0,6,05,01,50,BC,4E,C6,00,00,
0,10614001,true,Rx,0,8,5E,8C,1A,BF,42,77,1B,C9,
0,00451406,true,Rx,0,8,07,AA,02,0C,00,49,2C,BD,
0,00851406,true,Rx,0,8,07,20,09,00,01,4B,14,06,
0,00C51406,true,Rx,0,8,07,03,23,AD,9A,BD,BD,BD,
0,01051406,true,Rx,0,8,07,D9,A9,BC,BC,BD,BD,BD,
0,01451406,true,Rx,0,3,02,98,6E,00,00,00,00,00,
0,00431406,true,Rx,0,8,07,AA,02,01,00,A0,2C,BE,
0,00831406,true,Rx,0,8,07,20,09,00,01,4B,14,06,
0,00C31406,true,Rx,0,6,05,03,27,BF,83,4F,00,00,
0,00431403,true,Rx,0,8,07,AA,02,01,00,A0,2C,BF,
0,00831403,true,Rx,0,8,07,20,09,00,01,4B,14,03,
0,00C31403,true,Rx,0,6,05,01,50,BF,01,4F,00,00,
0,00431406,true,Rx,0,8,07,AA,02,01,00,A0,2C,C0,
0,00831406,true,Rx,0,8,07,20,09,00,01,4B,14,06,
0,00C31406,true,Rx,0,6,05,01,50,C0,DA,B6,00,00,
0,10614001,true,Rx,0,8,5E,8C,1A,BF,42,77,1B,C9,
0,00461403,true,Rx,0,8,07,AA,02,17,00,89,2C,C1,
0,00861403,true,Rx,0,8,07,20,09,00,01,4B,14,03,
0,00C61403,true,Rx,0,8,07,03,30,C1,C2,3E,C1,C1,
0,01061403,true,Rx,0,8,07,C1,C1,C1,C1,C1,C1,C1,
0,01461403,true,Rx,0,8,07,C1,C1,C1,C1,C1,C1,C1,
0,01861403,true,Rx,0,7,06,C1,C1,C1,C1,96,0D,00,
0,00461406,true,Rx,0,8,07,AA,02,17,00,89,2C,C2,
0,00861406,true,Rx,0,8,07,20,09,00,01,4B,14,06,
0,00C61406,true,Rx,0,8,07,03,30,C2,C1,3D,C2,C2,
0,01061406,true,Rx,0,8,07,C2,C2,C2,C2,C2,C2,C2,
0,01461406,true,Rx,0,8,07,C2,C2,C2,C2,C2,C2,C2,
0,01861406,true,Rx,0,7,06,C2,C2,C2,C2,46,D1,00,
0,10014001,true,Rx,0,8,AA,03,17,00,E2,2C,27,E5,
0,10114001,true,Rx,0,8,03,00,01,4B,14,06,01,01,
0,10114001,true,Rx,0,8,03,30,27,24,D8,27,27,27,
0,10114001,true,Rx,0,8,27,27,27,27,27,27,27,27,
0,10114001,true,Rx,0,8,27,27,27,27,27,27,27,27,
0,10214001,true,Rx,0,3,27,EB,76,00,00,00,00,00,
0,00431406,true,Rx,0,8,07,AA,02,02,00,9F,2C,C3,
0,00831406,true,Rx,0,8,07,20,09,00,01,4B,14,06,
0,00C31406,true,Rx,0,7,06,03,10,C1,C7,0C,3F,00,
0,10614001,true,Rx,0,8,5E,8C,1A,BF,42,77,1B,C9,
0,00431403,true,Rx,0,8,07,AA,02,01,00,A0,2C,C4,
0,00831403,true,Rx,0,8,07,20,09,00,01,4B,14,03,
0,00C31403,true,Rx,0,6,05,01,50,C4,CE,89,00,00,
0,00431406,true,Rx,0,8,07,AA,02,01,00,A0,2C,C5,
0,00831406,true,Rx,0,8,07,20,09,00,01,4B,14,06,
0,00C31406,true,Rx,0,6,05,01,50,C5,0B,79,00,00,
0,00441406,true,Rx,0,8,07,AA,02,05,00,F4,2C,C6,
0,00841406,true,Rx,0,8,07,20,09,00,01,4B,14,06,
0,00C41406,true,Rx,0,8,07,03,13,39,C6,C6,C6,C6,
0,01041406,true,Rx,0,3,02,6D,7C,00,00,00,00,00,
0,10614001,true,Rx,0,8,5E,8C,1A,BF,42,77,1B,C9,
0,00431403,true,Rx,0,8,07,AA,02,01,00,A0,2C,C7,
0,00831403,true,Rx,0,8,07,20,09,00,01,4B,14,03,
0,00C31403,true,Rx,0,6,05,01,50,C7,81,CC,00,00,
0,00431406,true,Rx,0,8,07,AA,02,01,00,A0,2C,C8,
0,00831406,true,Rx,0,8,07,20,09,00,01,4B,14,06,
0,00C31406,true,Rx,0,6,05,01,50,C8,F1,10,00,00,
0,00461403,true,Rx,0,8,07,AA,02,17,00,89,2C,C9,
0,00861403,true,Rx,0,8,07,20,09,00,01,4B,14,03,
0,00C61403,true,Rx,0,8,07,03,30,C9,CA,36,C9,C9,
0,01061403,true,Rx,0,8,07,C9,C9,C9,C9,C9,C9,C9,
0,01461403,true,Rx,0,8,07,C9,C9,C9,C9,C9,C9,C9,
0,01861403,true,Rx,0,7,06,C9,C9,C9,C9,4F,90,00,
0,00461406,true,Rx,0,8,07,AA,02,17,00,89,2C,CA,
0,00861406,true,Rx,0,8,07,20,09,00,01,4B,14,06,
0,00C61406,true,Rx,0,8,07,03,30,CA,C9,35,CA,CA,
0,01061406,true,Rx,0,8,07,CA,CA,CA,CA,CA,CA,CA,
0,01461406,true,Rx,0,8,07,CA,CA,CA,CA,CA,CA,CA,
0,01861406,true,Rx,0,7,06,CA,CA,CA,CA,9F,4C,00,
0,10014001,true,Rx,0,8,AA,03,17,00,E2,2C,28,E5,
0,10114001,true,Rx,0,8,03,00,01,4B,14,06,01,01,
0,10114001,true,Rx,0,8,03,30,28,2B,D7,28,28,28,
0,10114001,true,Rx,0,8,28,28,28,28,28,28,28,28,
0,10114001,true,Rx,0,8,28,28,28,28,28,28,28,28,
0,10214001,true,Rx,0,3,28,DD,1A,00,00,00,00,00,
0,10614001,true,Rx,0,8,5E,8C,1A,BF,42,77,1B,C9,
0,00431403,true,Rx,0,8,07,AA,02,01,00,A0,2C,CB,
0,00831403,true,Rx,0,8,07,20,09,00,01,4B,14,03,
0,00C31403,true,Rx,0,6,05,01,50,CB,BE,99,00,00,
0,00431406,true,Rx,0,8,07,AA,02,01,00,A0,2C,CC,
0,00831406,true,Rx,0,8,07,20,09,00,01,4B,14,06,
0,00C31406,true,Rx,0,6,05,01,50,CC,E5,E3,00,00,
0,004D1403,true,Rx,0,8,07,AA,02,45,00,AF,2D,CD,
0,008D1403,true,Rx,0,8,07,20,09,00,01,4B,14,03,
0,00CD1403,true,Rx,0,8,07,03,2F,CC,88,CD,85,9A,
0,010D1403,true,Rx,0,8,07,F8,FC,97,86,85,F9,9E,
0,014D1403,true,Rx,0,8,07,8B,F8,9D,FD,F5,F8,FE,
0,018D1403,true,Rx,0,8,07,86,CD,CC,CD,CC,CA,CE,
0,01CD1403,true,Rx,0,8,07,CD,C8,CF,CC,CD,C8,CD,
0,020D1403,true,Rx,0,8,07,CD,CD,CD,CD,CD,CE,CD,
0,024D1403,true,Rx,0,8,07,CD,29,C1,32,32,32,32,
0,028D1403,true,Rx,0,8,07,C2,C8,CD,CD,CD,CD,95,
0,02CD1403,true,Rx,0,8,07,CF,CD,CD,CD,CD,CD,CD,
0,030D1403,true,Rx,0,8,07,CD,CD,CD,CD,CD,CD,CD,
0,034D1403,true,Rx,0,4,03,CD,B7,0D,00,00,00,00,
0,004D1406,true,Rx,0,8,07,AA,02,45,00,AF,2D,CE,
0,008D1406,true,Rx,0,8,07,20,09,00,01,4B,14,06,
0,00CD1406,true,Rx,0,8,07,03,2F,CF,8B,CE,86,99,
0,010D1406,true,Rx,0,8,07,FB,FF,94,85,86,FA,9D,
0,014D1406,true,Rx,0,8,07,88,FB,9E,FE,F6,FB,FD,
0,018D1406,true,Rx,0,8,07,85,CE,CF,CE,CF,C9,CD,
0,01CD1406,true,Rx,0,8,07,CE,CB,CC,CF,CE,CB,CE,
0,020D1406,true,Rx,0,8,07,CE,CE,CE,CE,CE,CD,CE,
0,024D1406,true,Rx,0,8,07,CE,2A,C2,31,31,31,31,
0,028D1406,true,Rx,0,8,07,C1,CB,CE,CE,CE,CE,96,
0,02CD1406,true,Rx,0,8,07,CC,CE,CE,CE,CE,CE,CE,
0,030D1406,true,Rx,0,8,07,CE,CE,CE,CE,CE,CE,CE,
0,034D1406,true,Rx,0,4,03,CE,FB,93,00,00,00,00,
0,10014001,true,Rx,0,8,AA,03,45,00,C4,2D,29,E5,
0,10114001,true,Rx,0,8,03,00,01,4B,14,03,01,01,
0,10114001,true,Rx,0,8,03,2F,28,6C,29,61,7E,1C,
0,10114001,true,Rx,0,8,18,73,62,61,1D,7A,6F,1C,
0,10114001,true,Rx,0,8,79,19,11,1C,1A,62,29,28,
0,10114001,true,Rx,0,8,29,28,2E,2A,29,2C,2B,28,
0,10114001,true,Rx,0,8,29,2C,29,29,29,29,29,29,
0,10114001,true,Rx,0,8,2A,29,29,CD,25,D6,D6,D6,
0,10114001,true,Rx,0,8,D6,26,2C,29,29,29,29,71,
0,10114001,true,Rx,0,8,2B,29,29,29,29,29,29,29,
0,10114001,true,Rx,0,8,29,29,29,29,29,29,29,5D,
0,10214001,true,Rx,0,1,6F,00,00,00,00,00,00,00,
0,00431406,true,Rx,0,8,07,AA,02,02,00,9F,2C,CF,
0,00831406,true,Rx,0,8,07,20,09,00,01,4B,14,06,
0,00C31406,true,Rx,0,7,06,03,10,CD,CB,19,2A,00,
0,00441406,true,Rx,0,8,07,AA,02,05,00,F4,2C,D0,
0,00841406,true,Rx,0,8,07,20,09,00,01,4B,14,06,
0,00C41406,true,Rx,0,8,07,03,13,2F,D0,D0,D0,D0,
0,01041406,true,Rx,0,3,02,D8,93,00,00,00,00,00,
0,10614001,true,Rx,0,8,5E,8C,1A,BF,42,77,1B,C9,
0,00451406,true,Rx,0,8,07,AA,02,0C,00,49,2C,D1,
0,00851406,true,Rx,0,8,07,20,09,00,01,4B,14,06,
0,00C51406,true,Rx,0,8,07,03,23,C1,F6,D1,D1,D1,
0,01051406,true,Rx,0,8,07,B5,C5,D0,D0,D1,D1,D1,
0,01451406,true,Rx,0,3,02,9E,29,00,00,00,00,00,
0,00431406,true,Rx,0,8,07,AA,02,01,00,A0,2C,D2,
0,00831406,true,Rx,0,8,07,20,09,00,01,4B,14,06,
0,00C31406,true,Rx,0,6,05,03,27,D3,42,33,00,00,
0,00431403,true,Rx,0,8,07,AA,02,01,00,A0,2C,D3,
0,00831403,true,Rx,0,8,07,20,09,00,01,4B,14,03,
0,00C31403,true,Rx,0,6,05,01,50,D3,C0,33,00,00,
0,00431406,true,Rx,0,8,07,AA,02,01,00,A0,2C,D4,
0,00831406,true,Rx,0,8,07,20,09,00,01,4B,14,06,
0,00C31406,true,Rx,0,6,05,01,50,D4,9B,49,00,00,
0,10614001,true,Rx,0,8,5E,8C,1A,BF,42,77,1B,C9,
0,00431403,true,Rx,0,8,07,AA,02,01,00,A0,2C,D5,
0,00831403,true,Rx,0,8,07,20,09,00,01,4B,14,03,
0,00C31403,true,Rx,0,6,05,01,50,D5,5E,B9,00,00,
0,00431406,true,Rx,0,8,07,AA,02,01,00,A0,2C,D6,
0,00831406,true,Rx,0,8,07,20,09,00,01,4B,14,06,
0,00C31406,true,Rx,0,6,05,01,50,D6,11,30,00,00,
0,00461403,true,Rx,0,8,07,AA,02,17,00,89,2C,D7,
0,00861403,true,Rx,0,8,07,20,09,00,01,4B,14,03,
0,00C61403,true,Rx,0,8,07,03,30,D7,D4,28,D7,D7,
0,01061403,true,Rx,0,8,07,D7,D7,D7,D7,D7,D7,D7,
0,01461403,true,Rx,0,8,07,D7,D7,D7,D7,D7,D7,D7,
0,01861403,true,Rx,0,7,06,D7,D7,D7,D7,BD,4F,00,
0,00461406,true,Rx,0,8,07,AA,02,17,00,89,2C,D8,
0,00861406,true,Rx,0,8,07,20,09,00,01,4B,14,06,
0,00C61406,true,Rx,0,8,07,03,30,D8,DB,27,D8,D8,
0,01061406,true,Rx,0,8,07,D8,D8,D8,D8,D8,D8,D8,
0,01461406,true,Rx,0,8,07,D8,D8,D8,D8,D8,D8,D8,
0,01861406,true,Rx,0,7,06,D8,D8,D8,D8,59,E0,00,
0,10014001,true,Rx,0,8,AA,03,17,00,E2,2C,2A,E5,
0,10114001,true,Rx,0,8,03,00,01,4B,14,06,01,01,
0,10114001,true,Rx,0,8,03,30,2A,29,D5,2A,2A,2A,
0,10114001,true,Rx,0,8,2A,2A,2A,2A,2A,2A,2A,2A,
0,10114001,true,Rx,0,8,2A,2A,2A,2A,2A,2A,2A,2A,
0,10214001,true,Rx,0,3,2A,28,CD,00,00,00,00,00,
0,10614001,true,Rx,0,8,5E,8C,1A,BF,42,77,1B,C9,
0,00441406,true,Rx,0,8,07,AA,02,05,00,F4,2C,D9,
0,00841406,true,Rx,0,8,07,20,09,00,01,4B,14,06,
0,00C41406,true,Rx,0,8,07,03,13,26,D9,D9,D9,D9,
0,01041406,true,Rx,0,3,02,D8,5C,00,00,00,00,00,
0,00431403,true,Rx,0,8,07,AA,02,01,00,A0,2C,DA,
0,00831403,true,Rx,0,8,07,20,09,00,01,4B,14,03,
0,00C31403,true,Rx,0,6,05,01,50,DA,2E,A9,00,00,
0,00431406,true,Rx,0,8,07,AA,02,01,00,A0,2C,DB,
0,00831406,true,Rx,0,8,07,20,09,00,01,4B,14,06,
0,00C31406,true,Rx,0,6,05,01,50,DB,EB,59,00,00,
0,00431406,true,Rx,0,8,07,AA,02,02,00,9F,2C,DC,
0,00831406,true,Rx,0,8,07,20,09,00,01,4B,14,06,
0,00C31406,true,Rx,0,7,06,03,10,DE,D8,90,2C,00,
0,10614001,true,Rx,0,8,5E,8C,1A,BF,42,77,1B,C9,
0,10014001,true,Rx,0,8,AA,13,5F,01,B4,2D,46,36,
0,10114001,true,Rx,0,8,00,00,02,4B,35,01,01,01,
0,10114001,true,Rx,0,8,14,04,4E,47,56,46,5E,47,
0,10114001,true,Rx,0,8,66,46,6E,46,76,46,7E,22,
0,10114001,true,Rx,0,8,06,46,0E,66,16,76,1E,47,
0,10114001,true,Rx,0,8,26,F4,52,2E,46,36,46,3E,
0,10114001,true,Rx,0,8,B9,B9,B9,B9,B9,B9,B9,B9,
0,10114001,true,Rx,0,8,B9,47,C6,47,41,CE,47,46,
0,10114001,true,Rx,0,8,D6,47,46,DE,47,46,E6,47,
0,10114001,true,Rx,0,8,46,EE,47,42,F6,47,B2,45,
0,10114001,true,Rx,0,8,FE,47,46,86,47,96,6E,8E,
0,10114001,true,Rx,0,8,47,46,96,47,B6,68,9E,47,
0,10114001,true,Rx,0,8,DD,69,A6,47,86,78,AE,47,
0,10114001,true,Rx,0,8,47,B6,47,47,BE,47,5D,C6,
0,10114001,true,Rx,0,8,44,FA,C9,44,CE,44,45,D6,
0,10114001,true,Rx,0,8,44,0D,DE,44,66,E6,44,D1,
0,10114001,true,Rx,0,8,B2,A4,5B,EE,44,47,86,44,
0,10114001,true,Rx,0,8,46,8E,44,46,96,44,86,97,
0,10114001,true,Rx,0,8,C4,BE,BC,B9,B9,B9,B9,47,
0,10114001,true,Rx,0,8,9E,44,47,A6,44,46,AE,44,
0,10114001,true,Rx,0,8,46,B6,44,46,BE,44,46,C6,
0,10114001,true,Rx,0,8,45,46,CE,45,46,D6,45,46,
0,10114001,true,Rx,0,8,E6,45,97,B9,B9,B9,B9,B9,
0,10114001,true,Rx,0,8,B9,B9,B9,47,EE,45,46,F6,
0,10114001,true,Rx,0,8,45,46,FE,45,46,86,45,47,
0,10114001,true,Rx,0,8,8E,45,46,96,45,44,9E,45,
0,10114001,true,Rx,0,8,44,A6,45,47,AE,45,47,B6,
0,10114001,true,Rx,0,8,45,B9,B9,45,BE,45,B9,B9,
0,10114001,true,Rx,0,8,45,CC,42,CA,47,56,47,5E,
0,10114001,true,Rx,0,8,44,6E,B4,C2,EA,56,76,5C,
0,10114001,true,Rx,0,8,7E,AA,DD,45,06,F1,4E,0E,
0,10114001,true,Rx,0,8,5C,16,47,1E,E6,DA,47,26,
0,10114001,true,Rx,0,8,B3,60,2E,A4,DD,47,36,F6,
0,10114001,true,Rx,0,8,C3,45,3E,25,C6,47,A4,5F,
0,10114001,true,Rx,0,8,CE,47,99,5F,D6,47,5C,DE,
0,10114001,true,Rx,0,8,47,51,E6,47,5B,EE,47,5B,
0,10114001,true,Rx,0,8,86,47,AA,DC,47,8B,47,0C,
0,10114001,true,Rx,0,8,3B,8A,07,AE,47,47,B6,47,
0,10114001,true,Rx,0,8,47,BE,47,47,C6,44,90,ED,
0,10114001,true,Rx,0,8,45,CE,44,EE,85,47,DE,44,
0,10114001,true,Rx,0,8,22,E6,44,4B,EE,44,5C,F6,
0,10114001,true,Rx,0,8,44,47,86,44,D9,40,8E,44,
0,10114001,true,Rx,0,8,F5,68,96,44,47,9B,44,FB,
0,10114001,true,Rx,0,8,78,8A,07,AE,44,47,B6,44,
0,10114001,true,Rx,0,8,47,BE,44,AC,D5,45,C6,45,
0,10114001,true,Rx,0,8,FC,E5,45,CE,45,52,DE,45,
0,10214001,true,Rx,0,3,22,6D,C7,00,00,00,00,00,
0,00431403,true,Rx,0,8,07,AA,02,01,00,A0,2C,DD,
0,00831403,true,Rx,0,8,07,20,09,00,01,4B,14,03,
0,00C31403,true,Rx,0,6,05,01,50,DD,75,1F,00,00,
0,00431406,true,Rx,0,8,07,AA,02,01,00,A0,2C,DE,
0,00831406,true,Rx,0,8,07,20,09,00,01,4B,14,06,
0,00C31406,true,Rx,0,6,05,01,50,DE,3A,96,00,00,
0,10614001,true,Rx,0,8,5E,8C,1A,BF,42,77,1B,C9,
0,00461403,true,Rx,0,8,07,AA,02,17,00,89,2C,DF,
0,00861403,true,Rx,0,8,07,20,09,00,01,4B,14,03,
0,00C61403,true,Rx,0,8,07,03,30,DF,DC,20,DF,DF,
0,01061403,true,Rx,0,8,07,DF,DF,DF,DF,DF,DF,DF,
0,01461403,true,Rx,0,8,07,DF,DF,DF,DF,DF,DF,DF,
0,01861403,true,Rx,0,7,06,DF,DF,DF,DF,64,D2,00,
0,00461406,true,Rx,0,8,07,AA,02,17,00,89,2C,E0,
0,00861406,true,Rx,0,8,07,20,09,00,01,4B,14,06,
0,00C61406,true,Rx,0,8,07,03,30,E0,E3,1F,E0,E0,
0,01061406,true,Rx,0,8,07,E0,E0,E0,E0,E0,E0,E0,
0,01461406,true,Rx,0,8,07,E0,E0,E0,E0,E0,E0,E0,
0,01861406,true,Rx,0,7,06,E0,E0,E0,E0,53,F1,00,
0,10014001,true,Rx,0,8,AA,03,17,00,E2,2C,2B,E5,
0,10114001,true,Rx,0,8,03,00,01,4B,14,06,01,01,
0,10114001,true,Rx,0,8,03,30,2B,28,D4,2B,2B,2B,
0,10114001,true,Rx,0,8,2B,2B,2B,2B,2B,2B,2B,2B,
0,10114001,true,Rx,0,8,2B,2B,2B,2B,2B,2B,2B,2B,
0,10214001,true,Rx,0,3,2B,D3,06,00,00,00,00,00,
0,10014001,true,Rx,0,8,AA,03,00,00,DE,2D,2C,E5,
0,10114001,true,Rx,0,8,03,00,01,4B,14,03,01,00,
0,10214001,true,Rx,0,4,01,05,D9,E7,00,00,00,00,
0,004D1403,true,Rx,0,8,07,AA,02,45,00,AF,2D,E1,
0,008D1403,true,Rx,0,8,07,20,09,00,01,4B,14,03,
0,00CD1403,true,Rx,0,8,07,03,2F,E0,A4,E1,A9,B6,
0,010D1403,true,Rx,0,8,07,D4,D0,BB,AA,A9,D5,B2,
0,014D1403,true,Rx,0,8,07,A7,D4,B1,D1,D9,D4,D2,
0,018D1403,true,Rx,0,8,07,AA,E1,E0,E1,E0,E6,E2,
0,01CD1403,true,Rx,0,8,07,E1,E4,E3,E0,E1,E4,E1,
0,020D1403,true,Rx,0,8,07,E1,E1,E1,E1,E1,E2,E1,
0,024D1403,true,Rx,0,8,07,E1,05,ED,1E,1E,1E,1E,
0,028D1403,true,Rx,0,8,07,EE,E4,E1,E1,E1,E1,B9,
0,02CD1403,true,Rx,0,8,07,E3,E1,E1,E1,E1,E1,E1,
0,030D1403,true,Rx,0,8,07,E1,E1,E1,E1,E1,E1,E1,
0,034D1403,true,Rx,0,4,03,E1,81,9B,00,00,00,00,
0,004D1406,true,Rx,0,8,07,AA,02,45,00,AF,2D,E2,
0,008D1406,true,Rx,0,8,07,20,09,00,01,4B,14,06,
0,00CD1406,true,Rx,0,8,07,03,2F,E3,A7,E2,AA,B5,
0,010D1406,true,Rx,0,8,07,D7,D3,B8,A9,AA,D6,B1,
0,014D1406,true,Rx,0,8,07,A4,D7,B2,D2,DA,D7,D1,
0,018D1406,true,Rx,0,8,07,A9,E2,E3,E2,E3,E5,E1,
0,01CD1406,true,Rx,0,8,07,E2,E7,E0,E3,E2,E7,E2,
0,020D1406,true,Rx,0,8,07,E2,E2,E2,E2,E2,E1,E2,
0,024D1406,true,Rx,0,8,07,E2,06,EE,1D,1D,1D,1D,
0,028D1406,true,Rx,0,8,07,ED,E7,E2,E2,E2,E2,BA,
0,02CD1406,true,Rx,0,8,07,E0,E2,E2,E2,E2,E2,E2,
0,030D1406,true,Rx,0,8,07,E2,E2,E2,E2,E2,E2,E2,
0,034D1406,true,Rx,0,4,03,E2,CD,05,00,00,00,00,
0,10014001,true,Rx,0,8,AA,03,45,00,C4,2D,2D,E5,
0,10114001,true,Rx,0,8,03,00,01,4B,14,03,01,01,
0,10114001,true,Rx,0,8,03,2F,2C,68,2D,65,7A,18,
0,10114001,true,Rx,0,8,1C,77,66,65,19,7E,6B,18,
0,10114001,true,Rx,0,8,7D,1D,15,18,1E,66,2D,2C,
0,10114001,true,Rx,0,8,2D,2C,2A,2E,2D,28,2F,2C,
0,10114001,true,Rx,0,8,2D,28,2D,2D,2D,2D,2D,2D,
0,10114001,true,Rx,0,8,2E,2D,2D,C9,21,D2,D2,D2,
0,10114001,true,Rx,0,8,D2,22,28,2D,2D,2D,2D,75,
0,10114001,true,Rx,0,8,2F,2D,2D,2D,2D,2D,2D,2D,
0,10114001,true,Rx,0,8,2D,2D,2D,2D,2D,2D,2D,88,
0,10214001,true,Rx,0,1,8F,00,00,00,00,00,00,00,
0,00431403,true,Rx,0,8,07,AA,02,01,00,A0,2C,E3,
0,00831403,true,Rx,0,8,07,20,09,00,01,4B,14,03,
0,00C31403,true,Rx,0,6,05,01,50,E3,3F,27,00,00,
0,00431406,true,Rx,0,8,07,AA,02,01,00,A0,2C,E4,
0,00831406,true,Rx,0,8,07,20,09,00,01,4B,14,06,
0,00C31406,true,Rx,0,6,05,01,50,E4,64,5D,00,00,
0,10014001,true,Rx,0,8,AA,13,B8,01,9C,2D,47,36,
0,10114001,true,Rx,0,8,00,00,02,4B,35,01,01,01,
0,10114001,true,Rx,0,8,14,01,4F,47,57,47,5F,47,
0,10114001,true,Rx,0,8,67,47,6F,47,77,47,7F,47,
0,10114001,true,Rx,0,8,07,47,0F,47,17,47,1F,43,
0,10114001,true,Rx,0,8,27,43,2F,42,37,41,3F,46,
0,10114001,true,Rx,0,8,C7,46,B4,45,CF,46,E1,5A,
0,10114001,true,Rx,0,8,D7,46,47,DF,46,47,E7,46,
0,10114001,true,Rx,0,8,99,45,EF,46,B4,45,F7,46,
0,10114001,true,Rx,0,8,8F,5A,FF,46,47,87,46,47,
0,10114001,true,Rx,0,8,8F,46,B5,45,97,46,CA,43,
0,10114001,true,Rx,0,8,9F,46,AB,43,A7,46,47,AF,
0,10114001,true,Rx,0,8,46,47,B7,46,C3,45,BF,46,
0,10114001,true,Rx,0,8,47,C7,45,47,CF,45,B4,46,
0,10114001,true,Rx,0,8,D7,45,99,45,DF,45,94,67,
0,10114001,true,Rx,0,8,E7,45,E5,54,EF,45,7E,F7,
0,10114001,true,Rx,0,8,45,47,FF,45,47,87,45,B4,
0,10114001,true,Rx,0,8,44,97,45,47,9F,45,57,A7,
0,10114001,true,Rx,0,8,45,47,AF,45,47,B7,45,85,
0,10114001,true,Rx,0,8,C9,46,BF,45,47,C7,44,F5,
0,10114001,true,Rx,0,8,53,CF,44,47,D7,44,47,DF,
0,10114001,true,Rx,0,8,44,53,E7,44,23,EF,44,46,
0,10114001,true,Rx,0,8,F7,44,47,FF,44,47,87,44,
0,10114001,true,Rx,0,8,F5,45,8F,44,45,97,44,87,
0,10114001,true,Rx,0,8,79,9F,44,A8,69,A7,44,A8,
0,10114001,true,Rx,0,8,69,AF,44,46,B7,44,47,BF,
0,10114001,true,Rx,0,8,44,F5,53,C7,43,47,CF,43,
0,10114001,true,Rx,0,8,47,D7,43,F5,53,DF,43,F5,
0,10114001,true,Rx,0,8,53,E7,43,40,EF,43,47,F7,
0,10114001,true,Rx,0,8,43,47,FF,43,47,87,43,67,
0,10114001,true,Rx,0,8,8F,43,77,97,43,47,9F,43,
0,10114001,true,Rx,0,8,47,A7,43,43,AF,43,47,B7,
0,10114001,true,Rx,0,8,43,47,BF,43,87,79,C7,42,
0,10114001,true,Rx,0,8,47,CF,42,47,D7,42,47,DF,
0,10114001,true,Rx,0,8,42,96,B8,B8,B8,B8,B8,B8,
0,10114001,true,Rx,0,8,B8,B8,46,E7,42,47,EF,42,
0,10114001,true,Rx,0,8,B3,44,F7,42,97,6F,FF,42,
0,10114001,true,Rx,0,8,B7,69,D7,41,DC,68,DF,41,
0,10114001,true,Rx,0,8,87,79,E7,41,46,EF,41,5C,
0,10114001,true,Rx,0,8,F7,41,D0,B3,A5,5A,FF,41,
0,10114001,true,Rx,0,8,46,87,41,8F,97,9F,D8,44,
0,10114001,true,Rx,0,8,8F,41,C3,FE,84,D1,4B,97,
0,10114001,true,Rx,0,8,41,87,96,C5,BF,BD,B8,B8,
0,10114001,true,Rx,0,8,B8,B8,46,9F,41,46,A7,41,
0,10114001,true,Rx,0,8,47,AF,41,47,B7,41,47,DF,
0,10114001,true,Rx,0,8,40,0C,E7,40,67,87,40,97,
0,10114001,true,Rx,0,8,6F,8F,40,47,9F,40,B6,1E,
0,10114001,true,Rx,0,8,A7,40,41,AF,40,44,B2,40,
0,10114001,true,Rx,0,8,5F,E8,5B,0E,F7,4F,6F,87,
0,10114001,true,Rx,0,8,4F,93,B8,B8,B8,B8,B8,B8,
0,10114001,true,Rx,0,8,B8,B8,46,8F,4F,47,9F,4F,
0,10114001,true,Rx,0,8,47,A7,4F,47,AF,4F,5E,B7,
0,10114001,true,Rx,0,8,4F,47,BF,4F,46,C7,4E,47,
0,10114001,true,Rx,0,8,CF,4E,47,D7,4E,47,DF,4E,
0,10114001,true,Rx,0,8,47,E7,4E,47,EF,4E,47,F7,
0,10114001,true,Rx,0,8,4E,47,87,4E,4D,8F,4E,D4,
0,10114001,true,Rx,0,8,80,97,F9,41,97,4E,47,9F,
0,10214001,true,Rx,0,4,4E,47,D8,F5,00,00,00,00,
0,00441406,true,Rx,0,8,07,AA,02,05,00,F4,2C,E5,
0,00841406,true,Rx,0,8,07,20,09,00,01,4B,14,06,
0,00C41406,true,Rx,0,8,07,03,13,1A,E5,E5,E5,E5,
0,01041406,true,Rx,0,3,02,69,05,00,00,00,00,00,
0,10614001,true,Rx,0,8,5E,8C,1A,BF,42,77,1B,C9,
0,00451406,true,Rx,0,8,07,AA,02,0C,00,49,2C,E6,
0,00851406,true,Rx,0,8,07,20,09,00,01,4B,14,06,
0,00C51406,true,Rx,0,8,07,03,23,F6,C1,E6,E6,E6,
0,01051406,true,Rx,0,8,07,82,F2,E7,E7,E6,E6,E6,
0,01451406,true,Rx,0,3,02,15,DD,00,00,00,00,00,
0,00431406,true,Rx,0,8,07,AA,02,01,00,A0,2C,E7,
0,00831406,true,Rx,0,8,07,20,09,00,01,4B,14,06,
0,00C31406,true,Rx,0,6,05,03,27,E6,6C,E8,00,00,
0,00431406,true,Rx,0,8,07,AA,02,02,00,9F,2C,E8,
0,00831406,true,Rx,0,8,07,20,09,00,01,4B,14,06,
0,00C31406,true,Rx,0,7,06,03,10,EA,EC,36,B4,00,
0,00431403,true,Rx,0,8,07,AA,02,01,00,A0,2C,E9,
0,00831403,true,Rx,0,8,07,20,09,00,01,4B,14,03,
0,00C31403,true,Rx,0,6,05,01,50,E9,9E,F8,00,00,
0,00431406,true,Rx,0,8,07,AA,02,01,00,A0,2C,EA,
0,00831406,true,Rx,0,8,07,20,09,00,01,4B,14,06,
0,00C31406,true,Rx,0,6,05,01,50,EA,D1,71,00,00,
0,10614001,true,Rx,0,8,5E,8C,1A,BF,42,77,1B,C9,
0,00461403,true,Rx,0,8,07,AA,02,17,00,89,2C,EB,
0,00861403,true,Rx,0,8,07,20,09,00,01,4B,14,03,
0,00C61403,true,Rx,0,8,07,03,30,EB,E8,14,EB,EB,
0,01061403,true,Rx,0,8,07,EB,EB,EB,EB,EB,EB,EB,
0,01461403,true,Rx,0,8,07,EB,EB,EB,EB,EB,EB,EB,
0,01861403,true,Rx,0,7,06,EB,EB,EB,EB,5A,B0,00,
0,00461406,true,Rx,0,8,07,AA,02,17,00,89,2C,EC,
0,00861406,true,Rx,0,8,07,20,09,00,01,4B,14,06,
0,00C61406,true,Rx,0,8,07,03,30,EC,EF,13,EC,EC,
0,01061406,true,Rx,0,8,07,EC,EC,EC,EC,EC,EC,EC,
0,01461406,true,Rx,0,8,07,EC,EC,EC,EC,EC,EC,EC,
0,01861406,true,Rx,0,7,06,EC,EC,EC,EC,67,82,00,
0,10014001,true,Rx,0,8,AA,03,17,00,E2,2C,2E,E5,
0,10114001,true,Rx,0,8,03,00,01,4B,14,06,01,01,
0,10114001,true,Rx,0,8,03,30,2E,2D,D1,2E,2E,2E,
0,10114001,true,Rx,0,8,2E,2E,2E,2E,2E,2E,2E,2E,
0,10114001,true,Rx,0,8,2E,2E,2E,2E,2E,2E,2E,2E,
0,10214001,true,Rx,0,3,2E,C1,22,00,00,00,00,00,
0,00431403,true,Rx,0,8,07,AA,02,01,00,A0,2C,ED,
0,00831403,true,Rx,0,8,07,20,09,00,01,4B,14,03,
0,00C31403,true,Rx,0,6,05,01,50,ED,8A,0B,00,00,
0,00431406,true,Rx,0,8,07,AA,02,01,00,A0,2C,EE,
0,00831406,true,Rx,0,8,07,20,09,00,01,4B,14,06,
0,00C31406,true,Rx,0,6,05,01,50,EE,C5,82,00,00,
0,10614001,true,Rx,0,8,5E,8C,1A,BF,42,77,1B,C9,
0,00441406,true,Rx,0,8,07,AA,02,05,00,F4,2C,EF,
0,00841406,true,Rx,0,8,07,20,09,00,01,4B,14,06,
0,00C41406,true,Rx,0,8,07,03,13,10,EF,EF,EF,EF,
0,01041406,true,Rx,0,3,02,DE,7E,00,00,00,00,00,
0,00431403,true,Rx,0,8,07,AA,02,01,00,A0,2C,F0,
0,00831403,true,Rx,0,8,07,20,09,00,01,4B,14,03,
0,00C31403,true,Rx,0,6,05,01,50,F0,25,6E,00,00,
0,00431406,true,Rx,0,8,07,AA,02,01,00,A0,2C,F1,
0,00831406,true,Rx,0,8,07,20,09,00,01,4B,14,06,
0,00C31406,true,Rx,0,6,05,01,50,F1,E0,9E,00,00,
0,10614001,true,Rx,0,8,5E,8C,1A,BF,42,77,1B,C9,
0,00431406,true,Rx,0,8,07,AA,02,02,00,9F,2C,F2,
0,00831406,true,Rx,0,8,07,20,09,00,01,4B,14,06,
0,00C31406,true,Rx,0,7,06,03,10,F0,F6,65,F8,00,
0,00431403,true,Rx,0,8,07,AA,02,01,00,A0,2C,F3,
0,00831403,true,Rx,0,8,07,20,09,00,01,4B,14,03,
0,00C31403,true,Rx,0,6,05,01,50,F3,6A,2B,00,00,
0,00431406,true,Rx,0,8,07,AA,02,01,00,A0,2C,F4,
0,00831406,true,Rx,0,8,07,20,09,00,01,4B,14,06,
0,00C31406,true,Rx,0,6,05,01,50,F4,31,51,00,00,
0,10614001,true,Rx,0,8,5E,8C,1A,BF,42,77,1B,C9,
0,00461403,true,Rx,0,8,07,AA,02,17,00,89,2C,F5,
0,00861403,true,Rx,0,8,07,20,09,00,01,4B,14,03,
0,00C61403,true,Rx,0,8,07,03,30,F5,F6,0A,F5,F5,
0,01061403,true,Rx,0,8,07,F5,F5,F5,F5,F5,F5,F5,
0,01461403,true,Rx,0,8,07,F5,F5,F5,F5,F5,F5,F5,
0,01861403,true,Rx,0,7,06,F5,F5,F5,F5,A8,6F,00,
0,00461406,true,Rx,0,8,07,AA,02,17,00,89,2C,F6,
0,00861406,true,Rx,0,8,07,20,09,00,01,4B,14,06,
0,00C61406,true,Rx,0,8,07,03,30,F6,F5,09,F6,F6,
0,01061406,true,Rx,0,8,07,F6,F6,F6,F6,F6,F6,F6,
0,01461406,true,Rx,0,8,07,F6,F6,F6,F6,F6,F6,F6,
0,01861406,true,Rx,0,7,06,F6,F6,F6,F6,78,B3,00,
0,10014001,true,Rx,0,8,AA,03,17,00,E2,2C,2F,E5,
0,10114001,true,Rx,0,8,03,00,01,4B,14,06,01,01,
0,10114001,true,Rx,0,8,03,30,2F,2C,D0,2F,2F,2F,
0,10114001,true,Rx,0,8,2F,2F,2F,2F,2F,2F,2F,2F,
0,10114001,true,Rx,0,8,2F,2F,2F,2F,2F,2F,2F,2F,
0,10214001,true,Rx,0,3,2F,3A,E9,00,00,00,00,00,
0,004D1403,true,Rx,0,8,07,AA,02,45,00,AF,2D,F7,
0,008D1403,true,Rx,0,8,07,20,09,00,01,4B,14,03,
0,00CD1403,true,Rx,0,8,07,03,2F,F6,B2,F7,BF,A0,
0,010D1403,true,Rx,0,8,07,C2,C6,AD,BC,BF,C3,A4,
0,014D1403,true,Rx,0,8,07,B1,C2,A7,C7,CF,C2,C4,
0,018D1403,true,Rx,0,8,07,BC,F7,F6,F7,F6,F0,F4,
0,01CD1403,true,Rx,0,8,07,F7,F2,F5,F6,F7,F2,F7,
0,020D1403,true,Rx,0,8,07,F7,F7,F7,F7,F7,F4,F7,
0,024D1403,true,Rx,0,8,07,F7,13,FB,08,08,08,08,
0,028D1403,true,Rx,0,8,07,F8,F2,F7,F7,F7,F7,AF,
0,02CD1403,true,Rx,0,8,07,F5,F7,F7,F7,F7,F7,F7,
0,030D1403,true,Rx,0,8,07,F7,F7,F7,F7,F7,F7,F7,
0,034D1403,true,Rx,0,4,03,F7,9A,D0,00,00,00,00,
0,004D1406,true,Rx,0,8,07,AA,02,45,00,AF,2D,F8,
0,008D1406,true,Rx,0,8,07,20,09,00,01,4B,14,06,
0,00CD1406,true,Rx,0,8,07,03,2F,F9,BD,F8,B0,AF,
0,010D1406,true,Rx,0,8,07,CD,C9,A2,B3,B0,CC,AB,
0,014D1406,true,Rx,0,8,07,BE,CD,A8,C8,C0,CD,CB,
0,018D1406,true,Rx,0,8,07,B3,F8,F9,F8,F9,FF,FB,
0,01CD1406,true,Rx,0,8,07,F8,FD,FA,F9,F8,FD,F8,
0,020D1406,true,Rx,0,8,07,F8,F8,F8,F8,F8,FB,F8,
0,024D1406,true,Rx,0,8,07,F8,1C,F4,07,07,07,07,
0,028D1406,true,Rx,0,8,07,F7,FD,F8,F8,F8,F8,A0,
0,02CD1406,true,Rx,0,8,07,FA,F8,F8,F8,F8,F8,F8,
0,030D1406,true,Rx,0,8,07,F8,F8,F8,F8,F8,F8,F8,
0,034D1406,true,Rx,0,4,03,F8,DF,88,00,00,00,00,
0,10014001,true,Rx,0,8,AA,03,45,00,C4,2D,30,E5,
0,10114001,true,Rx,0,8,03,00,01,4B,14,03,01,01,
0,10114001,true,Rx,0,8,03,2F,31,75,30,78,67,05,
0,10114001,true,Rx,0,8,01,6A,7B,78,04,63,76,05,
0,10114001,true,Rx,0,8,60,00,08,05,03,7B,30,31,
0,10114001,true,Rx,0,8,30,31,37,33,30,35,32,31,
0,10114001,true,Rx,0,8,30,35,30,30,30,30,30,30,
0,10114001,true,Rx,0,8,33,30,30,D4,3C,CF,CF,CF,
0,10114001,true,Rx,0,8,CF,3F,35,30,30,30,30,68,
0,10114001,true,Rx,0,8,32,30,30,30,30,30,30,30,
0,10114001,true,Rx,0,8,30,30,30,30,30,30,30,91,
0,10214001,true,Rx,0,1,65,00,00,00,00,00,00,00,
0,00441406,true,Rx,0,8,07,AA,02,05,00,F4,2C,F9,
0,00841406,true,Rx,0,8,07,20,09,00,01,4B,14,06,
0,00C41406,true,Rx,0,8,07,03,13,06,F9,F9,F9,F9,
0,01041406,true,Rx,0,3,02,6B,91,00,00,00,00,00,
0,00431403,true,Rx,0,8,07,AA,02,01,00,A0,2C,FA,
0,00831403,true,Rx,0,8,07,20,09,00,01,4B,14,03,
0,00C31403,true,Rx,0,6,05,01,50,FA,84,B1,00,00,
0,00431406,true,Rx,0,8,07,AA,02,01,00,A0,2C,FB,
0,00831406,true,Rx,0,8,07,20,09,00,01,4B,14,06,
0,00C31406,true,Rx,0,6,05,01,50,FB,41,41,00,00,
0,10614001,true,Rx,0,8,5E,8C,1A,BF,42,77,1B,C9,
0,00451406,true,Rx,0,8,07,AA,02,0C,00,49,2C,FC,
0,00851406,true,Rx,0,8,07,20,09,00,01,4B,14,06,
0,00C51406,true,Rx,0,8,07,03,23,EC,DB,FC,FC,FC,
0,01051406,true,Rx,0,8,07,98,E8,FD,FD,FC,FC,FC,
0,01451406,true,Rx,0,3,02,DD,BB,00,00,00,00,00,
0,00431406,true,Rx,0,8,07,AA,02,01,00,A0,2C,FD,
0,00831406,true,Rx,0,8,07,20,09,00,01,4B,14,06,
0,00C31406,true,Rx,0,6,05,03,27,FC,98,3B,00,00,
0,10614001,true,Rx,0,8,5E,8C,1A,BF,42,77,1B,C9,
0,00431403,true,Rx,0,8,07,AA,02,01,00,A0,2C,FE,
0,00831403,true,Rx,0,8,07,20,09,00,01,4B,14,03,
0,00C31403,true,Rx,0,6,05,01,50,FE,90,42,00,00,
0,00431406,true,Rx,0,8,07,AA,02,01,00,A0,2C,FF,
0,00831406,true,Rx,0,8,07,20,09,00,01,4B,14,06,
0,00C31406,true,Rx,0,6,05,01,50,FF,55,B2,00,00,
0,00431406,true,Rx,0,8,07,AA,02,02,00,9F,2C,00,
0,00831406,true,Rx,0,8,07,21,09,00,01,4B,14,06,
0,00C31406,true,Rx,0,7,06,03,10,02,04,1F,27,00,
0,00461403,true,Rx,0,8,07,AA,02,17,00,89,2C,01,
0,00861403,true,Rx,0,8,07,21,09,00,01,4B,14,03,
0,00C61403,true,Rx,0,8,07,03,30,01,02,FE,01,01,
0,01061403,true,Rx,0,8,07,01,01,01,01,01,01,01,
0,01461403,true,Rx,0,8,07,01,01,01,01,01,01,01,
0,01861403,true,Rx,0,7,06,01,01,01,01,DD,12,00,
0,00461406,true,Rx,0,8,07,AA,02,17,00,89,2C,02,
0,00861406,true,Rx,0,8,07,21,09,00,01,4B,14,06,
0,00C61406,true,Rx,0,8,07,03,30,02,01,FD,02,02,
0,01061406,true,Rx,0,8,07,02,02,02,02,02,02,02,
0,01461406,true,Rx,0,8,07,02,02,02,02,02,02,02,
0,01861406,true,Rx,0,7,06,02,02,02,02,0D,CE,00,
0,10014001,true,Rx,0,8,AA,03,17,00,E2,2C,31,E5,
0,10114001,true,Rx,0,8,03,00,01,4B,14,06,01,01,
0,10114001,true,Rx,0,8,03,30,31,32,CE,31,31,31,
0,10114001,true,Rx,0,8,31,31,31,31,31,31,31,31,
0,10114001,true,Rx,0,8,31,31,31,31,31,31,31,31,
0,10214001,true,Rx,0,3,31,56,31,00,00,00,00,00,
0,10614001,true,Rx,0,8,5E,8C,1A,BF,42,77,1B,C9,
0,00431403,true,Rx,0,8,07,AA,02,01,00,A0,2C,03,
0,00831403,true,Rx,0,8,07,21,09,00,01,4B,14,03,
0,00C31403,true,Rx,0,6,05,01,50,03,38,A9,00,00,
0,00431406,true,Rx,0,8,07,AA,02,01,00,A0,2C,04,
0,00831406,true,Rx,0,8,07,21,09,00,01,4B,14,06,
0,00C31406,true,Rx,0,6,05,01,50,04,63,D3,00,00,
0,00441406,true,Rx,0,8,07,AA,02,05,00,F4,2C,05,
0,00841406,true,Rx,0,8,07,21,09,00,01,4B,14,06,
0,00C41406,true,Rx,0,8,07,03,13,FA,05,05,05,05,
0,01041406,true,Rx,0,3,02,76,24,00,00,00,00,00,
0,10614001,true,Rx,0,8,5E,8C,1A,BF,42,77,1B,C9,
0,00431403,true,Rx,0,8,07,AA,02,01,00,A0,2C,06,
0,00831403,true,Rx,0,8,07,21,09,00,01,4B,14,03,
0,00C31403,true,Rx,0,6,05,01,50,06,E9,66,00,00,
0,00431406,true,Rx,0,8,07,AA,02,01,00,A0,2C,07,
0,00831406,true,Rx,0,8,07,21,09,00,01,4B,14,06,
0,00C31406,true,Rx,0,6,05,01,50,07,2C,96,00,00,
0,10614001,true,Rx,0,8,5E,8C,1A,BF,42,77,1B,C9,
0,00431403,true,Rx,0,8,07,AA,02,00,00,B5,2D,08,
0,00831403,true,Rx,0,8,07,21,09,00,01,4B,14,03,
0,00C31403,true,Rx,0,5,04,01,05,E6,ED,00,00,00,
0,00431403,true,Rx,0,8,07,AA,02,01,00,A0,2C,09,
0,00831403,true,Rx,0,8,07,21,09,00,01,4B,14,03,
0,00C31403,true,Rx,0,6,05,01,50,09,99,76,00,00,
0,00431406,true,Rx,0,8,07,AA,02,01,00,A0,2C,0A,
0,00831406,true,Rx,0,8,07,21,09,00,01,4B,14,06,
0,00C31406,true,Rx,0,6,05,01,50,0A,D6,FF,00,00,
0,00461403,true,Rx,0,8,07,AA,02,17,00,89,2C,0B,
0,00861403,true,Rx,0,8,07,21,09,00,01,4B,14,03,
0,00C61403,true,Rx,0,8,07,03,30,0B,08,F4,0B,0B,
0,01061403,true,Rx,0,8,07,0B,0B,0B,0B,0B,0B,0B,
0,01461403,true,Rx,0,8,07,0B,0B,0B,0B,0B,0B,0B,
0,01861403,true,Rx,0,7,06,0B,0B,0B,0B,73,58,00,
0,00461406,true,Rx,0,8,07,AA,02,17,00,89,2C,0C,
0,00861406,true,Rx,0,8,07,21,09,00,01,4B,14,06,
0,00C61406,true,Rx,0,8,07,03,30,0C,0F,F3,0C,0C,
0,01061406,true,Rx,0,8,07,0C,0C,0C,0C,0C,0C,0C,
0,01461406,true,Rx,0,8,07,0C,0C,0C,0C,0C,0C,0C,
0,01861406,true,Rx,0,7,06,0C,0C,0C,0C,4E,6A,00,
0,10014001,true,Rx,0,8,AA,03,17,00,E2,2C,32,E5,
0,10114001,true,Rx,0,8,03,00,01,4B,14,06,01,01,
0,10114001,true,Rx,0,8,03,30,32,31,CD,32,32,32,
0,10114001,true,Rx,0,8,32,32,32,32,32,32,32,32,
0,10114001,true,Rx,0,8,32,32,32,32,32,32,32,32,
0,10214001,true,Rx,0,3,32,58,2D,00,00,00,00,00,
0,004D1403,true,Rx,0,8,07,AA,02,45,00,AF,2D,0D,
0,008D1403,true,Rx,0,8,07,21,09,00,01,4B,14,03,
0,00CD1403,true,Rx,0,8,07,03,2F,0C,48,0D,45,5A,
0,010D1403,true,Rx,0,8,07,38,3C,57,46,45,39,5E,
0,014D1403,true,Rx,0,8,07,4B,38,5D,3D,35,38,3E,
0,018D1403,true,Rx,0,8,07,46,0D,0C,0D,0C,0A,0E,
0,01CD1403,true,Rx,0,8,07,0D,08,0F,0C,0D,08,0D,
0,020D1403,true,Rx,0,8,07,0D,0D,0D,0D,0D,0E,0D,
0,024D1403,true,Rx,0,8,07,0D,E9,01,F2,F2,F2,F2,
0,028D1403,true,Rx,0,8,07,02,08,0D,0D,0D,0D,55,
0,02CD1403,true,Rx,0,8,07,0F,0D,0D,0D,0D,0D,0D,
0,030D1403,true,Rx,0,8,07,0D,0D,0D,0D,0D,0D,0D,
0,034D1403,true,Rx,0,4,03,0D,B6,5D,00,00,00,00,
0,004D1406,true,Rx,0,8,07,AA,02,45,00,AF,2D,0E,
0,008D1406,true,Rx,0,8,07,21,09,00,01,4B,14,06,
0,00CD1406,true,Rx,0,8,07,03,2F,0F,4B,0E,46,59,
0,010D1406,true,Rx,0,8,07,3B,3F,54,45,46,3A,5D,
0,014D1406,true,Rx,0,8,07,48,3B,5E,3E,36,3B,3D,
0,018D1406,true,Rx,0,8,07,45,0E,0F,0E,0F,09,0D,
0,01CD1406,true,Rx,0,8,07,0E,0B,0C,0F,0E,0B,0E,
0,020D1406,true,Rx,0,8,07,0E,0E,0E,0E,0E,0D,0E,
0,024D1406,true,Rx,0,8,07,0E,EA,02,F1,F1,F1,F1,
0,028D1406,true,Rx,0,8,07,01,0B,0E,0E,0E,0E,56,
0,02CD1406,true,Rx,0,8,07,0C,0E,0E,0E,0E,0E,0E,
0,030D1406,true,Rx,0,8,07,0E,0E,0E,0E,0E,0E,0E,
0,034D1406,true,Rx,0,4,03,0E,FA,C3,00,00,00,00,
0,10014001,true,Rx,0,8,AA,03,45,00,C4,2D,33,E5,
0,10114001,true,Rx,0,8,03,00,01,4B,14,03,01,01,
0,10114001,true,Rx,0,8,03,2F,32,76,33,7B,64,06,
0,10114001,true,Rx,0,8,02,69,78,7B,07,60,75,06,
0,10114001,true,Rx,0,8,63,03,0B,06,00,78,33,32,
0,10114001,true,Rx,0,8,33,32,34,30,33,36,31,32,
0,10114001,true,Rx,0,8,33,36,33,33,33,33,33,33,
0,10114001,true,Rx,0,8,30,33,33,D7,3F,CC,CC,CC,
0,10114001,true,Rx,0,8,CC,3C,36,33,33,33,33,6B,
0,10114001,true,Rx,0,8,31,33,33,33,33,33,33,33,
0,10114001,true,Rx,0,8,33,33,33,33,33,33,33,CE,
0,10214001,true,Rx,0,1,7D,00,00,00,00,00,00,00,
0,00431406,true,Rx,0,8,07,AA,02,02,00,9F,2C,0F,
0,00831406,true,Rx,0,8,07,21,09,00,01,4B,14,06,
0,00C31406,true,Rx,0,7,06,03,10,0D,0B,4E,C7,00,
0,10614001,true,Rx,0,8,5E,8C,1A,BF,42,77,1B,C9,
0,00441406,true,Rx,0,8,07,AA,02,05,00,F4,2C,10,
0,00841406,true,Rx,0,8,07,21,09,00,01,4B,14,06,
0,00C41406,true,Rx,0,8,07,03,13,EF,10,10,10,10,
0,01041406,true,Rx,0,3,02,74,7F,00,00,00,00,00,
0,00451406,true,Rx,0,8,07,AA,02,0C,00,49,2C,11,
0,00851406,true,Rx,0,8,07,21,09,00,01,4B,14,06,
0,00C51406,true,Rx,0,8,07,03,23,01,36,11,11,11,
0,01051406,true,Rx,0,8,07,75,05,10,10,11,11,11,
0,01451406,true,Rx,0,3,02,59,FE,00,00,00,00,00,
0,00431406,true,Rx,0,8,07,AA,02,01,00,A0,2C,12,
0,00831406,true,Rx,0,8,07,21,09,00,01,4B,14,06,
0,00C31406,true,Rx,0,6,05,03,27,13,EF,A5,00,00,
0,00431403,true,Rx,0,8,07,AA,02,01,00,A0,2C,13,
0,00831403,true,Rx,0,8,07,21,09,00,01,4B,14,03,
0,00C31403,true,Rx,0,6,05,01,50,13,6D,A5,00,00,
0,00431406,true,Rx,0,8,07,AA,02,01,00,A0,2C,14,
0,00831406,true,Rx,0,8,07,21,09,00,01,4B,14,06,
0,00C31406,true,Rx,0,6,05,01,50,14,36,DF,00,00,
0,10614001,true,Rx,0,8,5E,8C,1A,BF,42,77,1B,C9,
0,00431403,true,Rx,0,8,07,AA,02,01,00,A0,2C,15,
0,00831403,true,Rx,0,8,07,21,09,00,01,4B,14,03,
0,00C31403,true,Rx,0,6,05,01,50,15,F3,2F,00,00,
0,00431406,true,Rx,0,8,07,AA,02,01,00,A0,2C,16,
0,00831406,true,Rx,0,8,07,21,09,00,01,4B,14,06,
0,00C31406,true,Rx,0,6,05,01,50,16,BC,A6,00,00,
0,00461403,true,Rx,0,8,07,AA,02,17,00,89,2C,17,
0,00861403,true,Rx,0,8,07,21,09,00,01,4B,14,03,
0,00C61403,true,Rx,0,8,07,03,30,17,14,E8,17,17,
0,01061403,true,Rx,0,8,07,17,17,17,17,17,17,17,
0,01461403,true,Rx,0,8,07,17,17,17,17,17,17,17,
0,01861403,true,Rx,0,7,06,17,17,17,17,F6,50,00,
0,00461406,true,Rx,0,8,07,AA,02,17,00,89,2C,18,
0,00861406,true,Rx,0,8,07,21,09,00,01,4B,14,06,
0,00C61406,true,Rx,0,8,07,03,30,18,1B,E7,18,18,
0,01061406,true,Rx,0,8,07,18,18,18,18,18,18,18,
0,01461406,true,Rx,0,8,07,18,18,18,18,18,18,18,
0,01861406,true,Rx,0,7,06,18,18,18,18,12,FF,00,
0,10014001,true,Rx,0,8,AA,03,17,00,E2,2C,34,E5,
0,10114001,true,Rx,0,8,03,00,01,4B,14,06,01,01,
0,10114001,true,Rx,0,8,03,30,34,37,CB,34,34,34,
0,10114001,true,Rx,0,8,34,34,34,34,34,34,34,34,
0,10114001,true,Rx,0,8,34,34,34,34,34,34,34,34,
0,10214001,true,Rx,0,3,34,44,15,00,00,00,00,00,
0,10614001,true,Rx,0,8,5E,8C,1A,BF,42,77,1B,C9,
0,00431403,true,Rx,0,8,07,AA,02,01,00,A0,2C,19,
0,00831403,true,Rx,0,8,07,21,09,00,01,4B,14,03,
0,00C31403,true,Rx,0,6,05,01,50,19,CC,7A,00,00,
0,00431406,true,Rx,0,8,07,AA,02,01,00,A0,2C,1A,
0,00831406,true,Rx,0,8,07,21,09,00,01,4B,14,06,
0,00C31406,true,Rx,0,6,05,01,50,1A,83,F3,00,00,
0,00441406,true,Rx,0,8,07,AA,02,05,00,F4,2C,1B,
0,00841406,true,Rx,0,8,07,21,09,00,01,4B,14,06,
0,00C41406,true,Rx,0,8,07,03,13,E4,1B,1B,1B,1B,
0,01041406,true,Rx,0,3,02,AF,A8,00,00,00,00,00,
0,00431406,true,Rx,0,8,07,AA,02,02,00,9F,2C,1C,
0,00831406,true,Rx,0,8,07,21,09,00,01,4B,14,06,
0,00C31406,true,Rx,0,7,06,03,10,1E,18,C7,C1,00,
0,10614001,true,Rx,0,8,5E,8C,1A,BF,42,77,1B,C9,
0,00431403,true,Rx,0,8,07,AA,02,01,00,A0,2C,1D,
0,00831403,true,Rx,0,8,07,21,09,00,01,4B,14,03,
0,00C31403,true,Rx,0,6,05,01,50,1D,D8,89,00,00,
0,00431406,true,Rx,0,8,07,AA,02,01,00,A0,2C,1E,
0,00831406,true,Rx,0,8,07,21,09,00,01,4B,14,06,
0,00C31406,true,Rx,0,6,05,01,50,1E,97,00,00,00,
0,10614001,true,Rx,0,8,5E,8C,1A,BF,42,77,1B,C9,
0,004D1403,true,Rx,0,8,07,AA,02,45,00,AF,2D,1F,
0,008D1403,true,Rx,0,8,07,21,09,00,01,4B,14,03,
0,00CD1403,true,Rx,0,8,07,03,2F,1E,5A,1F,57,48,
0,010D1403,true,Rx,0,8,07,2A,2E,45,54,57,2B,4C,
0,014D1403,true,Rx,0,8,07,59,2A,4F,2F,27,2A,2C,
0,018D1403,true,Rx,0,8,07,54,1F,1E,1F,1E,18,1C,
0,01CD1403,true,Rx,0,8,07,1F,1A,1D,1E,1F,1A,1F,
0,020D1403,true,Rx,0,8,07,1F,1F,1F,1F,1F,1C,1F,
0,024D1403,true,Rx,0,8,07,1F,FB,13,E0,E0,E0,E0,
0,028D1403,true,Rx,0,8,07,10,1A,1F,1F,1F,1F,47,
0,02CD1403,true,Rx,0,8,07,1D,1F,1F,1F,1F,1F,1F,
0,030D1403,true,Rx,0,8,07,1F,1F,1F,1F,1F,1F,1F,
0,034D1403,true,Rx,0,4,03,1F,AB,94,00,00,00,00,
0,004D1406,true,Rx,0,8,07,AA,02,45,00,AF,2D,20,
0,008D1406,true,Rx,0,8,07,21,09,00,01,4B,14,06,
0,00CD1406,true,Rx,0,8,07,03,2F,21,65,20,68,77,
0,010D1406,true,Rx,0,8,07,15,11,7A,6B,68,14,73,
0,014D1406,true,Rx,0,8,07,66,15,70,10,18,15,13,
0,018D1406,true,Rx,0,8,07,6B,20,21,20,21,27,23,
0,01CD1406,true,Rx,0,8,07,20,25,22,21,20,25,20,
0,020D1406,true,Rx,0,8,07,20,20,20,20,20,23,20,
0,024D1406,true,Rx,0,8,07,20,C4,2C,DF,DF,DF,DF,
0,028D1406,true,Rx,0,8,07,2F,25,20,20,20,20,78,
0,02CD1406,true,Rx,0,8,07,22,20,20,20,20,20,20,
0,030D1406,true,Rx,0,8,07,20,20,20,20,20,20,20,
0,034D1406,true,Rx,0,4,03,20,CF,14,00,00,00,00,
0,10014001,true,Rx,0,8,AA,03,45,00,C4,2D,35,E5,
0,10114001,true,Rx,0,8,03,00,01,4B,14,03,01,01,
0,10114001,true,Rx,0,8,03,2F,34,70,35,7D,62,00,
0,10114001,true,Rx,0,8,04,6F,7E,7D,01,66,73,00,
0,10114001,true,Rx,0,8,65,05,0D,00,06,7E,35,34,
0,10114001,true,Rx,0,8,35,34,32,36,35,30,37,34,
0,10114001,true,Rx,0,8,35,30,35,35,35,35,35,35,
0,10114001,true,Rx,0,8,36,35,35,D1,39,CA,CA,CA,
0,10114001,true,Rx,0,8,CA,3A,30,35,35,35,35,6D,
0,10114001,true,Rx,0,8,37,35,35,35,35,35,35,35,
0,10114001,true,Rx,0,8,35,35,35,35,35,35,35,70,
0,10214001,true,Rx,0,1,4D,00,00,00,00,00,00,00,
0,00461403,true,Rx,0,8,07,AA,02,17,00,89,2C,21,
0,00861403,true,Rx,0,8,07,21,09,00,01,4B,14,03,
0,00C61403,true,Rx,0,8,07,03,30,21,22,DE,21,21,
0,01061403,true,Rx,0,8,07,21,21,21,21,21,21,21,
0,01461403,true,Rx,0,8,07,21,21,21,21,21,21,21,
0,01861403,true,Rx,0,7,06,21,21,21,21,BF,E5,00,
0,00461406,true,Rx,0,8,07,AA,02,17,00,89,2C,22,
0,00861406,true,Rx,0,8,07,21,09,00,01,4B,14,06,
0,00C61406,true,Rx,0,8,07,03,30,22,21,DD,22,22,
0,01061406,true,Rx,0,8,07,22,22,22,22,22,22,22,
0,01461406,true,Rx,0,8,07,22,22,22,22,22,22,22,
0,01861406,true,Rx,0,7,06,22,22,22,22,6F,39,00,
0,10014001,true,Rx,0,8,AA,03,17,00,E2,2C,36,E5,
0,10114001,true,Rx,0,8,03,00,01,4B,14,06,01,01,
0,10114001,true,Rx,0,8,03,30,36,35,C9,36,36,36,
0,10114001,true,Rx,0,8,36,36,36,36,36,36,36,36,
0,10114001,true,Rx,0,8,36,36,36,36,36,36,36,36,
0,10214001,true,Rx,0,3,36,B1,C2,00,00,00,00,00,
0,00431403,true,Rx,0,8,07,AA,02,01,00,A0,2C,23,
0,00831403,true,Rx,0,8,07,21,09,00,01,4B,14,03,
0,00C31403,true,Rx,0,6,05,01,50,23,92,B1,00,00,
0,00431406,true,Rx,0,8,07,AA,02,01,00,A0,2C,24,
0,00831406,true,Rx,0,8,07,21,09,00,01,4B,14,06,
0,00C31406,true,Rx,0,6,05,01,50,24,C9,CB,00,00,
0,10614001,true,Rx,0,8,5E,8C,1A,BF,42,77,1B,C9,
0,00441406,true,Rx,0,8,07,AA,02,05,00,F4,2C,25,
0,00841406,true,Rx,0,8,07,21,09,00,01,4B,14,06,
0,00C41406,true,Rx,0,8,07,03,13,DA,25,25,25,25,
0,01041406,true,Rx,0,3,02,C5,E9,00,00,00,00,00,
0,00451406,true,Rx,0,8,07,AA,02,0C,00,49,2C,26,
0,00851406,true,Rx,0,8,07,21,09,00,01,4B,14,06,
0,00C51406,true,Rx,0,8,07,03,23,36,01,26,26,26,
0,01051406,true,Rx,0,8,07,42,32,27,27,26,26,26,
0,01451406,true,Rx,0,3,02,D2,0A,00,00,00,00,00,
0,00431406,true,Rx,0,8,07,AA,02,01,00,A0,2C,27,
0,00831406,true,Rx,0,8,07,21,09,00,01,4B,14,06,
0,00C31406,true,Rx,0,6,05,03,27,26,C1,7E,00,00,
0,00431403,true,Rx,0,8,07,AA,02,01,00,A0,2C,28,
0,00831403,true,Rx,0,8,07,21,09,00,01,4B,14,03,
0,00C31403,true,Rx,0,6,05,01,50,28,F6,52,00,00,
0,00431406,true,Rx,0,8,07,AA,02,01,00,A0,2C,29,
0,00831406,true,Rx,0,8,07,21,09,00,01,4B,14,06,
0,00C31406,true,Rx,0,6,05,01,50,29,33,A2,00,00,
0,00431406,true,Rx,0,8,07,AA,02,02,00,9F,2C,2A,
0,00831406,true,Rx,0,8,07,21,09,00,01,4B,14,06,
0,00C31406,true,Rx,0,7,06,03,10,28,2E,18,3F,00,
0,10614001,true,Rx,0,8,5E,8C,1A,BF,42,77,1B,C9,
0,00431403,true,Rx,0,8,07,AA,02,01,00,A0,2C,2B,
0,00831403,true,Rx,0,8,07,21,09,00,01,4B,14,03,
0,00C31403,true,Rx,0,6,05,01,50,2B,B9,17,00,00,
0,00431406,true,Rx,0,8,07,AA,02,01,00,A0,2C,2C,
0,00831406,true,Rx,0,8,07,21,09,00,01,4B,14,06,
0,00C31406,true,Rx,0,6,05,01,50,2C,E2,6D,00,00,
0,10614001,true,Rx,0,8,5E,8C,1A,BF,42,77,1B,C9,
0,00461403,true,Rx,0,8,07,AA,02,17,00,89,2C,2D,
0,00861403,true,Rx,0,8,07,21,09,00,01,4B,14,03,
0,00C61403,true,Rx,0,8,07,03,30,2D,2E,D2,2D,2D,
0,01061403,true,Rx,0,8,07,2D,2D,2D,2D,2D,2D,2D,
0,01461403,true,Rx,0,8,07,2D,2D,2D,2D,2D,2D,2D,
0,01861403,true,Rx,0,7,06,2D,2D,2D,2D,8B,96,00,
0,00461406,true,Rx,0,8,07,AA,02,17,00,89,2C,2E,
0,00861406,true,Rx,0,8,07,21,09,00,01,4B,14,06,
0,00C61406,true,Rx,0,8,07,03,30,2E,2D,D1,2E,2E,
0,01061406,true,Rx,0,8,07,2E,2E,2E,2E,2E,2E,2E,
0,01461406,true,Rx,0,8,07,2E,2E,2E,2E,2E,2E,2E,
0,01861406,true,Rx,0,7,06,2E,2E,2E,2E,5B,4A,00,
0,10014001,true,Rx,0,8,AA,03,17,00,E2,2C,37,E5,
0,10114001,true,Rx,0,8,03,00,01,4B,14,06,01,01,
0,10114001,true,Rx,0,8,03,30,37,34,C8,37,37,37,
0,10114001,true,Rx,0,8,37,37,37,37,37,37,37,37,
0,10114001,true,Rx,0,8,37,37,37,37,37,37,37,37,
0,10214001,true,Rx,0,3,37,4A,09,00,00,00,00,00,
0,00441406,true,Rx,0,8,07,AA,02,05,00,F4,2C,2F,
0,00841406,true,Rx,0,8,07,21,09,00,01,4B,14,06,
0,00C41406,true,Rx,0,8,07,03,13,D0,2F,2F,2F,2F,
0,01041406,true,Rx,0,3,02,72,92,00,00,00,00,00,
0,10614001,true,Rx,0,8,5E,8C,1A,BF,42,77,1B,C9,
0,00431403,true,Rx,0,8,07,AA,02,01,00,A0,2C,30,
0,00831403,true,Rx,0,8,07,21,09,00,01,4B,14,03,
0,00C31403,true,Rx,0,6,05,01,50,30,88,F8,00,00,
0,00431406,true,Rx,0,8,07,AA,02,01,00,A0,2C,31,
0,00831406,true,Rx,0,8,07,21,09,00,01,4B,14,06,
0,00C31406,true,Rx,0,6,05,01,50,31,4D,08,00,00,
0,00431406,true,Rx,0,8,07,AA,02,02,00,9F,2C,32,
0,00831406,true,Rx,0,8,07,21,09,00,01,4B,14,06,
0,00C31406,true,Rx,0,7,06,03,10,30,36,32,15,00,
0,10614001,true,Rx,0,8,5E,8C,1A,BF,42,77,1B,C9,
0,10014001,true,Rx,0,8,AA,03,00,00,DE,2D,38,E5,
0,10114001,true,Rx,0,8,03,00,01,4B,14,03,01,00,
0,10214001,true,Rx,0,4,01,05,E9,D7,00,00,00,00,
0,00431403,true,Rx,0,8,07,AA,02,01,00,A0,2C,33,
0,00831403,true,Rx,0,8,07,21,09,00,01,4B,14,03,
0,00C31403,true,Rx,0,6,05,01,50,33,C7,BD,00,00,
0,00431406,true,Rx,0,8,07,AA,02,01,00,A0,2C,34,
0,00831406,true,Rx,0,8,07,21,09,00,01,4B,14,06,
0,00C31406,true,Rx,0,6,05,01,50,34,9C,C7,00,00,
0,004D1403,true,Rx,0,8,07,AA,02,45,00,AF,2D,35,
0,008D1403,true,Rx,0,8,07,21,09,00,01,4B,14,03,
0,00CD1403,true,Rx,0,8,07,03,2F,34,70,35,7D,62,
0,010D1403,true,Rx,0,8,07,00,04,6F,7E,7D,01,66,
0,014D1403,true,Rx,0,8,07,73,00,65,05,0D,00,06,
0,018D1403,true,Rx,0,8,07,7E,35,34,35,34,32,36,
0,01CD1403,true,Rx,0,8,07,35,30,37,34,35,30,35,
0,020D1403,true,Rx,0,8,07,35,35,35,35,35,36,35,
0,024D1403,true,Rx,0,8,07,35,D1,39,CA,CA,CA,CA,
0,028D1403,true,Rx,0,8,07,3A,30,35,35,35,35,6D,
0,02CD1403,true,Rx,0,8,07,37,35,35,35,35,35,35,
0,030D1403,true,Rx,0,8,07,35,35,35,35,35,35,35,
0,034D1403,true,Rx,0,4,03,35,98,C1,00,00,00,00,
0,004D1406,true,Rx,0,8,07,AA,02,45,00,AF,2D,36,
0,008D1406,true,Rx,0,8,07,21,09,00,01,4B,14,06,
0,00CD1406,true,Rx,0,8,07,03,2F,37,73,36,7E,61,
0,010D1406,true,Rx,0,8,07,03,07,6C,7D,7E,02,65,
0,014D1406,true,Rx,0,8,07,70,03,66,06,0E,03,05,
0,018D1406,true,Rx,0,8,07,7D,36,37,36,37,31,35,
0,01CD1406,true,Rx,0,8,07,36,33,34,37,36,33,36,
0,020D1406,true,Rx,0,8,07,36,36,36,36,36,35,36,
0,024D1406,true,Rx,0,8,07,36,D2,3A,C9,C9,C9,C9,
0,028D1406,true,Rx,0,8,07,39,33,36,36,36,36,6E,
0,02CD1406,true,Rx,0,8,07,34,36,36,36,36,36,36,
0,030D1406,true,Rx,0,8,07,36,36,36,36,36,36,36,
0,034D1406,true,Rx,0,4,03,36,D4,5F,00,00,00,00,
0,10014001,true,Rx,0,8,AA,03,45,00,C4,2D,39,E5,
0,10114001,true,Rx,0,8,03,00,01,4B,14,03,01,01,
0,10114001,true,Rx,0,8,03,2F,38,7C,39,71,6E,0C,
0,10114001,true,Rx,0,8,08,63,72,71,0D,6A,7F,0C,
0,10114001,true,Rx,0,8,69,09,01,0C,0A,72,39,38,
0,10114001,true,Rx,0,8,39,38,3E,3A,39,3C,3B,38,
0,10114001,true,Rx,0,8,39,3C,39,39,39,39,39,39,
0,10114001,true,Rx,0,8,3A,39,39,DD,35,C6,C6,C6,
0,10114001,true,Rx,0,8,C6,36,3C,39,39,39,39,61,
0,10114001,true,Rx,0,8,3B,39,39,39,39,39,39,39,
0,10114001,true,Rx,0,8,39,39,39,39,39,39,39,0C,
0,10214001,true,Rx,0,1,2C,00,00,00,00,00,00,00,
0,00461403,true,Rx,0,8,07,AA,02,17,00,89,2C,37,
0,00861403,true,Rx,0,8,07,21,09,00,01,4B,14,03,
0,00C61403,true,Rx,0,8,07,03,30,37,34,C8,37,37,
0,01061403,true,Rx,0,8,07,37,37,37,37,37,37,37,
0,01461403,true,Rx,0,8,07,37,37,37,37,37,37,37,
0,01861403,true,Rx,0,7,06,37,37,37,37,94,A7,00,
0,00461406,true,Rx,0,8,07,AA,02,17,00,89,2C,38,
0,00861406,true,Rx,0,8,07,21,09,00,01,4B,14,06,
0,00C61406,true,Rx,0,8,07,03,30,38,3B,C7,38,38,
0,01061406,true,Rx,0,8,07,38,38,38,38,38,38,38,
0,01461406,true,Rx,0,8,07,38,38,38,38,38,38,38,
0,01861406,true,Rx,0,7,06,38,38,38,38,70,08,00,
0,10014001,true,Rx,0,8,AA,03,17,00,E2,2C,3A,E5,
0,10114001,true,Rx,0,8,03,00,01,4B,14,06,01,01,
0,10114001,true,Rx,0,8,03,30,3A,39,C5,3A,3A,3A,
0,10114001,true,Rx,0,8,3A,3A,3A,3A,3A,3A,3A,3A,
0,10114001,true,Rx,0,8,3A,3A,3A,3A,3A,3A,3A,3A,
0,10214001,true,Rx,0,3,3A,89,B2,00,00,00,00,00,
0,10614001,true,Rx,0,8,5E,8C,1A,BF,42,77,1B,C9,
0,00431403,true,Rx,0,8,07,AA,02,01,00,A0,2C,39,
0,00831403,true,Rx,0,8,07,21,09,00,01,4B,14,03,
0,00C31403,true,Rx,0,6,05,01,50,39,66,62,00,00,
0,00431406,true,Rx,0,8,07,AA,02,01,00,A0,2C,3A,
0,00831406,true,Rx,0,8,07,21,09,00,01,4B,14,06,
0,00C31406,true,Rx,0,6,05,01,50,3A,29,EB,00,00,
0,00441406,true,Rx,0,8,07,AA,02,05,00,F4,2C,3B,
0,00841406,true,Rx,0,8,07,21,09,00,01,4B,14,06,
0,00C41406,true,Rx,0,8,07,03,13,C4,3B,3B,3B,3B,
0,01041406,true,Rx,0,3,02,1C,65,00,00,00,00,00,
0,00451406,true,Rx,0,8,07,AA,02,0C,00,49,2C,3C,
0,00851406,true,Rx,0,8,07,21,09,00,01,4B,14,06,
0,00C51406,true,Rx,0,8,07,03,23,2C,1B,3C,3C,3C,
0,01051406,true,Rx,0,8,07,58,28,3D,3D,3C,3C,3C,
0,01451406,true,Rx,0,3,02,1A,6C,00,00,00,00,00,
0,00431406,true,Rx,0,8,07,AA,02,01,00,A0,2C,3D,
0,00831406,true,Rx,0,8,07,21,09,00,01,4B,14,06,
0,00C31406,true,Rx,0,6,05,03,27,3C,35,AD,00,00,
0,10614001,true,Rx,0,8,5E,8C,1A,BF,42,77,1B,C9,
0,00431403,true,Rx,0,8,07,AA,02,01,00,A0,2C,3E,
0,00831403,true,Rx,0,8,07,21,09,00,01,4B,14,03,
0,00C31403,true,Rx,0,6,05,01,50,3E,3D,D4,00,00,
0,00431406,true,Rx,0,8,07,AA,02,01,00,A0,2C,3F,
0,00831406,true,Rx,0,8,07,21,09,00,01,4B,14,06,
0,00C31406,true,Rx,0,6,05,01,50,3F,F8,24,00,00,
0,10614001,true,Rx,0,8,5E,8C,1A,BF,42,77,1B,C9,
0,00431406,true,Rx,0,8,07,AA,02,02,00,9F,2C,40,
0,00831406,true,Rx,0,8,07,21,09,00,01,4B,14,06,
0,00C31406,true,Rx,0,7,06,03,10,42,44,2E,28,00,
0,00461403,true,Rx,0,8,07,AA,02,17,00,89,2C,41,
0,00861403,true,Rx,0,8,07,21,09,00,01,4B,14,03,
0,00C61403,true,Rx,0,8,07,03,30,41,42,BE,41,41,
0,01061403,true,Rx,0,8,07,41,41,41,41,41,41,41,
0,01461403,true,Rx,0,8,07,41,41,41,41,41,41,41,
0,01861403,true,Rx,0,7,06,41,41,41,41,1A,BC,00,
0,00461406,true,Rx,0,8,07,AA,02,17,00,89,2C,42,
0,00861406,true,Rx,0,8,07,21,09,00,01,4B,14,06,
0,00C61406,true,Rx,0,8,07,03,30,42,41,BD,42,42,
0,01061406,true,Rx,0,8,07,42,42,42,42,42,42,42,
0,01461406,true,Rx,0,8,07,42,42,42,42,42,42,42,
0,01861406,true,Rx,0,7,06,42,42,42,42,CA,60,00,
0,10014001,true,Rx,0,8,AA,03,17,00,E2,2C,3B,E5,
0,10114001,true,Rx,0,8,03,00,01,4B,14,06,01,01,
0,10114001,true,Rx,0,8,03,30,3B,38,C4,3B,3B,3B,
0,10114001,true,Rx,0,8,3B,3B,3B,3B,3B,3B,3B,3B,
0,10114001,true,Rx,0,8,3B,3B,3B,3B,3B,3B,3B,3B,
0,10214001,true,Rx,0,3,3B,72,79,00,00,00,00,00,
0,00431403,true,Rx,0,8,07,AA,02,01,00,A0,2C,43,
0,00831403,true,Rx,0,8,07,21,09,00,01,4B,14,03,
0,00C31403,true,Rx,0,6,05,01,50,43,6C,98,00,00,
0,00431406,true,Rx,0,8,07,AA,02,01,00,A0,2C,44,
0,00831406,true,Rx,0,8,07,21,09,00,01,4B,14,06,
0,00C31406,true,Rx,0,6,05,01,50,44,37,E2,00,00,
0,00441406,true,Rx,0,8,07,AA,02,05,00,F4,2C,45,
0,00841406,true,Rx,0,8,07,21,09,00,01,4B,14,06,
0,00C41406,true,Rx,0,8,07,03,13,BA,45,45,45,45,
0,01041406,true,Rx,0,3,02,13,FF,00,00,00,00,00,
0,10614001,true,Rx,0,8,5E,8C,1A,BF,42,77,1B,C9,
0,00431403,true,Rx,0,8,07,AA,02,01,00,A0,2C,46,
0,00831403,true,Rx,0,8,07,21,09,00,01,4B,14,03,
0,00C31403,true,Rx,0,6,05,01,50,46,BD,57,00,00,
0,00431406,true,Rx,0,8,07,AA,02,01,00,A0,2C,47,
0,00831406,true,Rx,0,8,07,21,09,00,01,4B,14,06,
0,00C31406,true,Rx,0,6,05,01,50,47,78,A7,00,00,
0,10614001,true,Rx,0,8,5E,8C,1A,BF,42,77,1B,C9,
0,004D1403,true,Rx,0,8,07,AA,02,45,00,AF,2D,48,
0,008D1403,true,Rx,0,8,07,21,09,00,01,4B,14,03,
0,00CD1403,true,Rx,0,8,07,03,2F,49,0D,48,00,1F,
0,010D1403,true,Rx,0,8,07,7D,79,12,03,00,7C,1B,
0,014D1403,true,Rx,0,8,07,0E,7D,18,78,70,7D,7B,
0,018D1403,true,Rx,0,8,07,03,48,49,48,49,4F,4B,
0,01CD1403,true,Rx,0,8,07,48,4D,4A,49,48,4D,48,
0,020D1403,true,Rx,0,8,07,48,48,48,48,48,4B,48,
0,024D1403,true,Rx,0,8,07,48,AC,44,B7,B7,B7,B7,
0,028D1403,true,Rx,0,8,07,47,4D,48,48,48,48,10,
0,02CD1403,true,Rx,0,8,07,4A,48,48,48,48,48,48,
0,030D1403,true,Rx,0,8,07,48,48,48,48,48,48,48,
0,034D1403,true,Rx,0,4,03,48,4E,FF,00,00,00,00,
0,004D1406,true,Rx,0,8,07,AA,02,45,00,AF,2D,49,
0,008D1406,true,Rx,0,8,07,21,09,00,01,4B,14,06,
0,00CD1406,true,Rx,0,8,07,03,2F,48,0C,49,01,1E,
0,010D1406,true,Rx,0,8,07,7C,78,13,02,01,7D,1A,
0,014D1406,true,Rx,0,8,07,0F,7C,19,79,71,7C,7A,
0,018D1406,true,Rx,0,8,07,02,49,48,49,48,4E,4A,
0,01CD1406,true,Rx,0,8,07,49,4C,4B,48,49,4C,49,
0,020D1406,true,Rx,0,8,07,49,49,49,49,49,4A,49,
0,024D1406,true,Rx,0,8,07,49,AD,45,B6,B6,B6,B6,
0,028D1406,true,Rx,0,8,07,46,4C,49,49,49,49,11,
0,02CD1406,true,Rx,0,8,07,4B,49,49,49,49,49,49,
0,030D1406,true,Rx,0,8,07,49,49,49,49,49,49,49,
0,034D1406,true,Rx,0,4,03,49,01,20,00,00,00,00,
0,10014001,true,Rx,0,8,AA,03,45,00,C4,2D,3C,E5,
0,10114001,true,Rx,0,8,03,00,01,4B,14,03,01,01,
0,10114001,true,Rx,0,8,03,2F,3D,79,3C,74,6B,09,
0,10114001,true,Rx,0,8,0D,66,77,74,08,6F,7A,09,
0,10114001,true,Rx,0,8,6C,0C,04,09,0F,77,3C,3D,
0,10114001,true,Rx,0,8,3C,3D,3B,3F,3C,39,3E,3D,
0,10114001,true,Rx,0,8,3C,39,3C,3C,3C,3C,3C,3C,
0,10114001,true,Rx,0,8,3F,3C,3C,D8,30,C3,C3,C3,
0,10114001,true,Rx,0,8,C3,33,39,3C,3C,3C,3C,64,
0,10114001,true,Rx,0,8,3E,3C,3C,3C,3C,3C,3C,3C,
0,10114001,true,Rx,0,8,3C,3C,3C,3C,3C,3C,3C,ED,
0,10214001,true,Rx,0,1,04,00,00,00,00,00,00,00,
0,00431403,true,Rx,0,8,07,AA,02,01,00,A0,2C,4A,
0,00831403,true,Rx,0,8,07,21,09,00,01,4B,14,03,
0,00C31403,true,Rx,0,6,05,01,50,4A,82,02,00,00,
0,00431406,true,Rx,0,8,07,AA,02,01,00,A0,2C,4B,
0,00831406,true,Rx,0,8,07,21,09,00,01,4B,14,06,
0,00C31406,true,Rx,0,6,05,01,50,4B,47,F2,00,00,
0,00461403,true,Rx,0,8,07,AA,02,17,00,89,2C,4C,
0,00861403,true,Rx,0,8,07,21,09,00,01,4B,14,03,
0,00C61403,true,Rx,0,8,07,03,30,4C,4F,B3,4C,4C,
0,01061403,true,Rx,0,8,07,4C,4C,4C,4C,4C,4C,4C,
0,01461403,true,Rx,0,8,07,4C,4C,4C,4C,4C,4C,4C,
0,01861403,true,Rx,0,7,06,4C,4C,4C,4C,94,04,00,
0,00461406,true,Rx,0,8,07,AA,02,17,00,89,2C,4D,
0,00861406,true,Rx,0,8,07,21,09,00,01,4B,14,06,
0,00C61406,true,Rx,0,8,07,03,30,4D,4E,B2,4D,4D,
0,01061406,true,Rx,0,8,07,4D,4D,4D,4D,4D,4D,4D,
0,01461406,true,Rx,0,8,07,4D,4D,4D,4D,4D,4D,4D,
0,01861406,true,Rx,0,7,06,4D,4D,4D,4D,33,0F,00,
0,10014001,true,Rx,0,8,AA,03,17,00,E2,2C,3D,E5,
0,10114001,true,Rx,0,8,03,00,01,4B,14,06,01,01,
0,10114001,true,Rx,0,8,03,30,3D,3E,C2,3D,3D,3D,
0,10114001,true,Rx,0,8,3D,3D,3D,3D,3D,3D,3D,3D,
0,10114001,true,Rx,0,8,3D,3D,3D,3D,3D,3D,3D,3D,
0,10214001,true,Rx,0,3,3D,6E,41,00,00,00,00,00,
0,10614001,true,Rx,0,8,5E,8C,1A,BF,42,77,1B,C9,
0,00431406,true,Rx,0,8,07,AA,02,02,00,9F,2C,4E,
0,00831406,true,Rx,0,8,07,21,09,00,01,4B,14,06,
0,00C31406,true,Rx,0,7,06,03,10,4C,4A,42,5B,00,
0,00451406,true,Rx,0,8,07,AA,02,0C,00,49,2C,4F,
0,00851406,true,Rx,0,8,07,21,09,00,01,4B,14,06,
0,00C51406,true,Rx,0,8,07,03,23,5F,68,4F,4F,4F,
0,01051406,true,Rx,0,8,07,2B,5B,4E,4E,4F,4F,4F,
0,01451406,true,Rx,0,3,02,F9,06,00,00,00,00,00,
0,00441406,true,Rx,0,8,07,AA,02,05,00,F4,2C,50,
0,00841406,true,Rx,0,8,07,21,09,00,01,4B,14,06,
0,00C41406,true,Rx,0,8,07,03,13,AF,50,50,50,50,
0,01041406,true,Rx,0,3,02,11,A4,00,00,00,00,00,
0,00431406,true,Rx,0,8,07,AA,02,01,00,A0,2C,51,
0,00831406,true,Rx,0,8,07,21,09,00,01,4B,14,06,
0,00C31406,true,Rx,0,6,05,03,27,50,F4,D1,00,00,
0,00431403,true,Rx,0,8,07,AA,02,01,00,A0,2C,52,
0,00831403,true,Rx,0,8,07,21,09,00,01,4B,14,03,
0,00C31403,true,Rx,0,6,05,01,50,52,FC,A8,00,00,
0,00431406,true,Rx,0,8,07,AA,02,01,00,A0,2C,53,
0,00831406,true,Rx,0,8,07,21,09,00,01,4B,14,06,
0,00C31406,true,Rx,0,6,05,01,50,53,39,58,00,00,
0,10614001,true,Rx,0,8,5E,8C,1A,BF,42,77,1B,C9,
0,00431403,true,Rx,0,8,07,AA,02,01,00,A0,2C,54,
0,00831403,true,Rx,0,8,07,21,09,00,01,4B,14,03,
0,00C31403,true,Rx,0,6,05,01,50,54,62,22,00,00,
0,00431406,true,Rx,0,8,07,AA,02,01,00,A0,2C,55,
0,00831406,true,Rx,0,8,07,21,09,00,01,4B,14,06,
0,00C31406,true,Rx,0,6,05,01,50,55,A7,D2,00,00,
0,10614001,true,Rx,0,8,5E,8C,1A,BF,42,77,1B,C9,
0,00461403,true,Rx,0,8,07,AA,02,17,00,89,2C,56,
0,00861403,true,Rx,0,8,07,21,09,00,01,4B,14,03,
0,00C61403,true,Rx,0,8,07,03,30,56,55,A9,56,56,
0,01061403,true,Rx,0,8,07,56,56,56,56,56,56,56,
0,01461403,true,Rx,0,8,07,56,56,56,56,56,56,56,
0,01861403,true,Rx,0,7,06,56,56,56,56,8B,35,00,
0,00461406,true,Rx,0,8,07,AA,02,17,00,89,2C,57,
0,00861406,true,Rx,0,8,07,21,09,00,01,4B,14,06,
0,00C61406,true,Rx,0,8,07,03,30,57,54,A8,57,57,
0,01061406,true,Rx,0,8,07,57,57,57,57,57,57,57,
0,01461406,true,Rx,0,8,07,57,57,57,57,57,57,57,
0,01861406,true,Rx,0,7,06,57,57,57,57,2C,3E,00,
0,10014001,true,Rx,0,8,AA,03,17,00,E2,2C,3E,E5,
0,10114001,true,Rx,0,8,03,00,01,4B,14,06,01,01,
0,10114001,true,Rx,0,8,03,30,3E,3D,C1,3E,3E,3E,
0,10114001,true,Rx,0,8,3E,3E,3E,3E,3E,3E,3E,3E,
0,10114001,true,Rx,0,8,3E,3E,3E,3E,3E,3E,3E,3E,
0,10214001,true,Rx,0,3,3E,60,5D,00,00,00,00,00,
0,00431403,true,Rx,0,8,07,AA,02,01,00,A0,2C,58,
0,00831403,true,Rx,0,8,07,21,09,00,01,4B,14,03,
0,00C31403,true,Rx,0,6,05,01,50,58,5D,77,00,00,
0,00431406,true,Rx,0,8,07,AA,02,01,00,A0,2C,59,
0,00831406,true,Rx,0,8,07,21,09,00,01,4B,14,06,
0,00C31406,true,Rx,0,6,05,01,50,59,98,87,00,00,
0,10614001,true,Rx,0,8,5E,8C,1A,BF,42,77,1B,C9,
0,00441406,true,Rx,0,8,07,AA,02,05,00,F4,2C,5A,
0,00841406,true,Rx,0,8,07,21,09,00,01,4B,14,06,
0,00C41406,true,Rx,0,8,07,03,13,A5,5A,5A,5A,5A,
0,01041406,true,Rx,0,3,02,A6,DF,00,00,00,00,00,
0,00431406,true,Rx,0,8,07,AA,02,02,00,9F,2C,5B,
0,00831406,true,Rx,0,8,07,21,09,00,01,4B,14,06,
0,00C31406,true,Rx,0,7,06,03,10,59,5F,40,F7,00,
0,00431403,true,Rx,0,8,07,AA,02,01,00,A0,2C,5C,
0,00831403,true,Rx,0,8,07,21,09,00,01,4B,14,03,
0,00C31403,true,Rx,0,6,05,01,50,5C,49,84,00,00,
0,00431406,true,Rx,0,8,07,AA,02,01,00,A0,2C,5D,
0,00831406,true,Rx,0,8,07,21,09,00,01,4B,14,06,
0,00C31406,true,Rx,0,6,05,01,50,5D,8C,74,00,00,
0,00431403,true,Rx,0,8,07,AA,02,00,00,B5,2D,5E,
0,00831403,true,Rx,0,8,07,21,09,00,01,4B,14,03,
0,00C31403,true,Rx,0,5,04,01,05,05,B3,00,00,00,
0,10614001,true,Rx,0,8,5E,8C,1A,BF,42,77,1B,C9,
0,004D1403,true,Rx,0,8,07,AA,02,45,00,AF,2D,5F,
0,008D1403,true,Rx,0,8,07,21,09,00,01,4B,14,03,
0,00CD1403,true,Rx,0,8,07,03,2F,5E,1A,5F,17,08,
0,010D1403,true,Rx,0,8,07,6A,6E,05,14,17,6B,0C,
0,014D1403,true,Rx,0,8,07,19,6A,0F,6F,67,6A,6C,
0,018D1403,true,Rx,0,8,07,14,5F,5E,5F,5E,58,5C,
0,01CD1403,true,Rx,0,8,07,5F,5A,5D,5E,5F,5A,5F,
0,020D1403,true,Rx,0,8,07,5F,5F,5F,5F,5F,5C,5F,
0,024D1403,true,Rx,0,8,07,5F,BB,53,A0,A0,A0,A0,
0,028D1403,true,Rx,0,8,07,50,5A,5F,5F,5F,5F,07,
0,02CD1403,true,Rx,0,8,07,5D,5F,5F,5F,5F,5F,5F,
0,030D1403,true,Rx,0,8,07,5F,5F,5F,5F,5F,5F,5F,
0,034D1403,true,Rx,0,4,03,5F,D5,34,00,00,00,00,
0,004D1406,true,Rx,0,8,07,AA,02,45,00,AF,2D,60,
0,008D1406,true,Rx,0,8,07,21,09,00,01,4B,14,06,
0,00CD1406,true,Rx,0,8,07,03,2F,61,25,60,28,37,
0,010D1406,true,Rx,0,8,07,55,51,3A,2B,28,54,33,
0,014D1406,true,Rx,0,8,07,26,55,30,50,58,55,53,
0,018D1406,true,Rx,0,8,07,2B,60,61,60,61,67,63,
0,01CD1406,true,Rx,0,8,07,60,65,62,61,60,65,60,
0,020D1406,true,Rx,0,8,07,60,60,60,60,60,63,60,
0,024D1406,true,Rx,0,8,07,60,84,6C,9F,9F,9F,9F,
0,028D1406,true,Rx,0,8,07,6F,65,60,60,60,60,38,
0,02CD1406,true,Rx,0,8,07,62,60,60,60,60,60,60,
0,030D1406,true,Rx,0,8,07,60,60,60,60,60,60,60,
0,034D1406,true,Rx,0,4,03,60,B1,B4,00,00,00,00,
0,10014001,true,Rx,0,8,AA,03,45,00,C4,2D,3F,E5,
0,10114001,true,Rx,0,8,03,00,01,4B,14,03,01,01,
0,10114001,true,Rx,0,8,03,2F,3E,7A,3F,77,68,0A,
0,10114001,true,Rx,0,8,0E,65,74,77,0B,6C,79,0A,
0,10114001,true,Rx,0,8,6F,0F,07,0A,0C,74,3F,3E,
0,10114001,true,Rx,0,8,3F,3E,38,3C,3F,3A,3D,3E,
0,10114001,true,Rx,0,8,3F,3A,3F,3F,3F,3F,3F,3F,
0,10114001,true,Rx,0,8,3C,3F,3F,DB,33,C0,C0,C0,
0,10114001,true,Rx,0,8,C0,30,3A,3F,3F,3F,3F,67,
0,10114001,true,Rx,0,8,3D,3F,3F,3F,3F,3F,3F,3F,
0,10114001,true,Rx,0,8,3F,3F,3F,3F,3F,3F,3F,B2,
0,10214001,true,Rx,0,1,1C,00,00,00,00,00,00,00,
0,00461403,true,Rx,0,8,07,AA,02,17,00,89,2C,61,
0,00861403,true,Rx,0,8,07,21,09,00,01,4B,14,03,
0,00C61403,true,Rx,0,8,07,03,30,61,62,9E,61,61,
0,01061403,true,Rx,0,8,07,61,61,61,61,61,61,61,
0,01461403,true,Rx,0,8,07,61,61,61,61,61,61,61,
0,01861403,true,Rx,0,7,06,61,61,61,61,78,4B,00,
0,00461406,true,Rx,0,8,07,AA,02,17,00,89,2C,62,
0,00861406,true,Rx,0,8,07,21,09,00,01,4B,14,06,
0,00C61406,true,Rx,0,8,07,03,30,62,61,9D,62,62,
0,01061406,true,Rx,0,8,07,62,62,62,62,62,62,62,
0,01461406,true,Rx,0,8,07,62,62,62,62,62,62,62,
0,01861406,true,Rx,0,7,06,62,62,62,62,A8,97,00,
0,10014001,true,Rx,0,8,AA,03,17,00,E2,2C,40,E5,
0,10114001,true,Rx,0,8,03,00,01,4B,14,06,01,01,
0,10114001,true,Rx,0,8,03,30,40,43,BF,40,40,40,
0,10114001,true,Rx,0,8,40,40,40,40,40,40,40,40,
0,10114001,true,Rx,0,8,40,40,40,40,40,40,40,40,
0,10214001,true,Rx,0,3,40,C9,C4,00,00,00,00,00,
0,10614001,true,Rx,0,8,5E,8C,1A,BF,42,77,1B,C9,
0,00431403,true,Rx,0,8,07,AA,02,01,00,A0,2C,63,
0,00831403,true,Rx,0,8,07,21,09,00,01,4B,14,03,
0,00C31403,true,Rx,0,6,05,01,50,63,C6,80,00,00,
0,00431406,true,Rx,0,8,07,AA,02,01,00,A0,2C,64,
0,00831406,true,Rx,0,8,07,21,09,00,01,4B,14,06,
0,00C31406,true,Rx,0,6,05,01,50,64,9D,FA,00,00,
0,00451406,true,Rx,0,8,07,AA,02,0C,00,49,2C,65,
0,00851406,true,Rx,0,8,07,21,09,00,01,4B,14,06,
0,00C51406,true,Rx,0,8,07,03,23,75,42,65,65,65,
0,01051406,true,Rx,0,8,07,01,71,64,64,65,65,65,
0,01451406,true,Rx,0,3,02,84,31,00,00,00,00,00,
0,00431406,true,Rx,0,8,07,AA,02,01,00,A0,2C,66,
0,00831406,true,Rx,0,8,07,21,09,00,01,4B,14,06,
0,00C31406,true,Rx,0,6,05,03,27,67,50,73,00,00,
0,00441406,true,Rx,0,8,07,AA,02,05,00,F4,2C,67,
0,00841406,true,Rx,0,8,07,21,09,00,01,4B,14,06,
0,00C41406,true,Rx,0,8,07,03,13,98,67,67,67,67,
0,01041406,true,Rx,0,3,02,7B,2A,00,00,00,00,00,
0,10614001,true,Rx,0,8,5E,8C,1A,BF,42,77,1B,C9,
0,00431403,true,Rx,0,8,07,AA,02,01,00,A0,2C,68,
0,00831403,true,Rx,0,8,07,21,09,00,01,4B,14,03,
0,00C31403,true,Rx,0,6,05,01,50,68,A2,63,00,00,
0,00431406,true,Rx,0,8,07,AA,02,01,00,A0,2C,69,
0,00831406,true,Rx,0,8,07,21,09,00,01,4B,14,06,
0,00C31406,true,Rx,0,6,05,01,50,69,67,93,00,00,
0,00431406,true,Rx,0,8,07,AA,02,02,00,9F,2C,6A,
0,00831406,true,Rx,0,8,07,21,09,00,01,4B,14,06,
0,00C31406,true,Rx,0,7,06,03,10,68,6E,29,30,00,
0,10614001,true,Rx,0,8,5E,8C,1A,BF,42,77,1B,C9,
0,00431403,true,Rx,0,8,07,AA,02,01,00,A0,2C,6B,
0,00831403,true,Rx,0,8,07,21,09,00,01,4B,14,03,
0,00C31403,true,Rx,0,6,05,01,50,6B,ED,26,00,00,
0,00431406,true,Rx,0,8,07,AA,02,01,00,A0,2C,6C,
0,00831406,true,Rx,0,8,07,21,09,00,01,4B,14,06,
0,00C31406,true,Rx,0,6,05,01,50,6C,B6,5C,00,00,
0,00461403,true,Rx,0,8,07,AA,02,17,00,89,2C,6D,
0,00861403,true,Rx,0,8,07,21,09,00,01,4B,14,03,
0,00C61403,true,Rx,0,8,07,03,30,6D,6E,92,6D,6D,
0,01061403,true,Rx,0,8,07,6D,6D,6D,6D,6D,6D,6D,
0,01461403,true,Rx,0,8,07,6D,6D,6D,6D,6D,6D,6D,
0,01861403,true,Rx,0,7,06,6D,6D,6D,6D,4C,38,00,
0,00461406,true,Rx,0,8,07,AA,02,17,00,89,2C,6E,
0,00861406,true,Rx,0,8,07,21,09,00,01,4B,14,06,
0,00C61406,true,Rx,0,8,07,03,30,6E,6D,91,6E,6E,
0,01061406,true,Rx,0,8,07,6E,6E,6E,6E,6E,6E,6E,
0,01461406,true,Rx,0,8,07,6E,6E,6E,6E,6E,6E,6E,
0,01861406,true,Rx,0,7,06,6E,6E,6E,6E,9C,E4,00,
0,10014001,true,Rx,0,8,AA,03,17,00,E2,2C,41,E5,
0,10114001,true,Rx,0,8,03,00,01,4B,14,06,01,01,
0,10114001,true,Rx,0,8,03,30,41,42,BE,41,41,41,
0,10114001,true,Rx,0,8,41,41,41,41,41,41,41,41,
0,10114001,true,Rx,0,8,41,41,41,41,41,41,41,41,
0,10214001,true,Rx,0,3,41,32,0F,00,00,00,00,00,
0,10614001,true,Rx,0,8,5E,8C,1A,BF,42,77,1B,C9,
0,00441406,true,Rx,0,8,07,AA,02,05,00,F4,2C,6F,
0,00841406,true,Rx,0,8,07,21,09,00,01,4B,14,06,
0,00C41406,true,Rx,0,8,07,03,13,90,6F,6F,6F,6F,
0,01041406,true,Rx,0,3,02,17,49,00,00,00,00,00,
0,00431403,true,Rx,0,8,07,AA,02,01,00,A0,2C,70,
0,00831403,true,Rx,0,8,07,21,09,00,01,4B,14,03,
0,00C31403,true,Rx,0,6,05,01,50,70,DC,C9,00,00,
0,00431406,true,Rx,0,8,07,AA,02,01,00,A0,2C,71,
0,00831406,true,Rx,0,8,07,21,09,00,01,4B,14,06,
0,00C31406,true,Rx,0,6,05,01,50,71,19,39,00,00,
0,10614001,true,Rx,0,8,5E,8C,1A,BF,42,77,1B,C9,
0,00431406,true,Rx,0,8,07,AA,02,02,00,9F,2C,72,
0,00831406,true,Rx,0,8,07,21,09,00,01,4B,14,06,
0,00C31406,true,Rx,0,7,06,03,10,70,76,03,1A,00,
0,00431403,true,Rx,0,8,07,AA,02,01,00,A0,2C,73,
0,00831403,true,Rx,0,8,07,21,09,00,01,4B,14,03,
0,00C31403,true,Rx,0,6,05,01,50,73,93,8C,00,00,
0,00431406,true,Rx,0,8,07,AA,02,01,00,A0,2C,74,
0,00831406,true,Rx,0,8,07,21,09,00,01,4B,14,06,
0,00C31406,true,Rx,0,6,05,01,50,74,C8,F6,00,00,
0,004D1403,true,Rx,0,8,07,AA,02,45,00,AF,2D,75,
0,008D1403,true,Rx,0,8,07,21,09,00,01,4B,14,03,
0,00CD1403,true,Rx,0,8,07,03,2F,74,30,75,3D,22,
0,010D1403,true,Rx,0,8,07,40,44,2F,3E,3D,41,26,
0,014D1403,true,Rx,0,8,07,33,40,25,45,4D,40,46,
0,018D1403,true,Rx,0,8,07,3E,75,74,75,74,72,76,
0,01CD1403,true,Rx,0,8,07,75,70,77,74,75,70,75,
0,020D1403,true,Rx,0,8,07,75,75,75,75,75,76,75,
0,024D1403,true,Rx,0,8,07,75,91,79,8A,8A,8A,8A,
0,028D1403,true,Rx,0,8,07,7A,70,75,75,75,75,2D,
0,02CD1403,true,Rx,0,8,07,77,75,75,75,75,75,75,
0,030D1403,true,Rx,0,8,07,75,75,75,75,75,75,75,
0,034D1403,true,Rx,0,4,03,75,E6,61,00,00,00,00,
0,004D1406,true,Rx,0,8,07,AA,02,45,00,AF,2D,76,
0,008D1406,true,Rx,0,8,07,21,09,00,01,4B,14,06,
0,00CD1406,true,Rx,0,8,07,03,2F,77,33,76,3E,21,
0,010D1406,true,Rx,0,8,07,43,47,2C,3D,3E,42,25,
0,014D1406,true,Rx,0,8,07,30,43,26,46,4E,43,45,
0,018D1406,true,Rx,0,8,07,3D,76,77,76,77,71,75,
0,01CD1406,true,Rx,0,8,07,76,73,74,77,76,73,76,
0,020D1406,true,Rx,0,8,07,76,76,76,76,76,75,76,
0,024D1406,true,Rx,0,8,07,76,92,7A,89,89,89,89,
0,028D1406,true,Rx,0,8,07,79,73,76,76,76,76,2E,
0,02CD1406,true,Rx,0,8,07,74,76,76,76,76,76,76,
0,030D1406,true,Rx,0,8,07,76,76,76,76,76,76,76,
0,034D1406,true,Rx,0,4,03,76,AA,FF,00,00,00,00,
0,10014001,true,Rx,0,8,AA,03,45,00,C4,2D,42,E5,
0,10114001,true,Rx,0,8,03,00,01,4B,14,03,01,01,
0,10114001,true,Rx,0,8,03,2F,43,07,42,0A,15,77,
0,10114001,true,Rx,0,8,73,18,09,0A,76,11,04,77,
0,10114001,true,Rx,0,8,12,72,7A,77,71,09,42,43,
0,10114001,true,Rx,0,8,42,43,45,41,42,47,40,43,
0,10114001,true,Rx,0,8,42,47,42,42,42,42,42,42,
0,10114001,true,Rx,0,8,41,42,42,A6,4E,BD,BD,BD,
0,10114001,true,Rx,0,8,BD,4D,47,42,42,42,42,1A,
0,10114001,true,Rx,0,8,40,42,42,42,42,42,42,42,
0,10114001,true,Rx,0,8,42,42,42,42,42,42,42,4E,
0,10214001,true,Rx,0,1,3D,00,00,00,00,00,00,00,
0,10614001,true,Rx,0,8,5E,8C,1A,BF,42,77,1B,C9,
0,00461403,true,Rx,0,8,07,AA,02,17,00,89,2C,77,
0,00861403,true,Rx,0,8,07,21,09,00,01,4B,14,03,
0,00C61403,true,Rx,0,8,07,03,30,77,74,88,77,77,
0,01061403,true,Rx,0,8,07,77,77,77,77,77,77,77,
0,01461403,true,Rx,0,8,07,77,77,77,77,77,77,77,
0,01861403,true,Rx,0,7,06,77,77,77,77,53,09,00,
0,00461406,true,Rx,0,8,07,AA,02,17,00,89,2C,78,
0,00861406,true,Rx,0,8,07,21,09,00,01,4B,14,06,
0,00C61406,true,Rx,0,8,07,03,30,78,7B,87,78,78,
0,01061406,true,Rx,0,8,07,78,78,78,78,78,78,78,
0,01461406,true,Rx,0,8,07,78,78,78,78,78,78,78,
0,01861406,true,Rx,0,7,06,78,78,78,78,B7,A6,00,
0,10014001,true,Rx,0,8,AA,03,17,00,E2,2C,43,E5,
0,10114001,true,Rx,0,8,03,00,01,4B,14,06,01,01,
0,10114001,true,Rx,0,8,03,30,43,40,BC,43,43,43,
0,10114001,true,Rx,0,8,43,43,43,43,43,43,43,43,
0,10114001,true,Rx,0,8,43,43,43,43,43,43,43,43,
0,10214001,true,Rx,0,3,43,C7,D8,00,00,00,00,00,
0,00431403,true,Rx,0,8,07,AA,02,01,00,A0,2C,79,
0,00831403,true,Rx,0,8,07,21,09,00,01,4B,14,03,
0,00C31403,true,Rx,0,6,05,01,50,79,32,53,00,00,
0,00431406,true,Rx,0,8,07,AA,02,01,00,A0,2C,7A,
0,00831406,true,Rx,0,8,07,21,09,00,01,4B,14,06,
0,00C31406,true,Rx,0,6,05,01,50,7A,7D,DA,00,00,
0,00451406,true,Rx,0,8,07,AA,02,0C,00,49,2C,7B,
0,00851406,true,Rx,0,8,07,21,09,00,01,4B,14,06,
0,00C51406,true,Rx,0,8,07,03,23,6B,5C,7B,7B,7B,
0,01051406,true,Rx,0,8,07,1F,6F,7A,7A,7B,7B,7B,
0,01451406,true,Rx,0,3,02,69,CB,00,00,00,00,00,
0,00431406,true,Rx,0,8,07,AA,02,01,00,A0,2C,7C,
0,00831406,true,Rx,0,8,07,21,09,00,01,4B,14,06,
0,00C31406,true,Rx,0,6,05,03,27,7D,A4,A0,00,00,
0,00441406,true,Rx,0,8,07,AA,02,05,00,F4,2C,7D,
0,00841406,true,Rx,0,8,07,21,09,00,01,4B,14,06,
0,00C41406,true,Rx,0,8,07,03,13,82,7D,7D,7D,7D,
0,01041406,true,Rx,0,3,02,14,97,00,00,00,00,00,
0,10614001,true,Rx,0,8,5E,8C,1A,BF,42,77,1B,C9,
0,00431403,true,Rx,0,8,07,AA,02,01,00,A0,2C,7E,
0,00831403,true,Rx,0,8,07,21,09,00,01,4B,14,03,
0,00C31403,true,Rx,0,6,05,01,50,7E,69,E5,00,00,
0,00431406,true,Rx,0,8,07,AA,02,01,00,A0,2C,7F,
0,00831406,true,Rx,0,8,07,21,09,00,01,4B,14,06,
0,00C31406,true,Rx,0,6,05,01,50,7F,AC,15,00,00,
0,10614001,true,Rx,0,8,5E,8C,1A,BF,42,77,1B,C9,
0,00431406,true,Rx,0,8,07,AA,02,02,00,9F,2C,80,
0,00831406,true,Rx,0,8,07,21,09,00,01,4B,14,06,
0,00C31406,true,Rx,0,7,06,03,10,82,84,7D,39,00,
0,00431403,true,Rx,0,8,07,AA,02,01,00,A0,2C,81,
0,00831403,true,Rx,0,8,07,21,09,00,01,4B,14,03,
0,00C31403,true,Rx,0,6,05,01,50,81,1A,B2,00,00,
0,00431406,true,Rx,0,8,07,AA,02,01,00,A0,2C,82,
0,00831406,true,Rx,0,8,07,21,09,00,01,4B,14,06,
0,00C31406,true,Rx,0,6,05,01,50,82,55,3B,00,00,
0,00461403,true,Rx,0,8,07,AA,02,17,00,89,2C,83,
0,00861403,true,Rx,0,8,07,21,09,00,01,4B,14,03,
0,00C61403,true,Rx,0,8,07,03,30,83,80,7C,83,83,
0,01061403,true,Rx,0,8,07,83,83,83,83,83,83,83,
0,01461403,true,Rx,0,8,07,83,83,83,83,83,83,83,
0,01861403,true,Rx,0,7,06,83,83,83,83,27,D8,00,
0,00461406,true,Rx,0,8,07,AA,02,17,00,89,2C,84,
0,00861406,true,Rx,0,8,07,21,09,00,01,4B,14,06,
0,00C61406,true,Rx,0,8,07,03,30,84,87,7B,84,84,
0,01061406,true,Rx,0,8,07,84,84,84,84,84,84,84,
0,01461406,true,Rx,0,8,07,84,84,84,84,84,84,84,
0,01861406,true,Rx,0,7,06,84,84,84,84,1A,EA,00,
0,10014001,true,Rx,0,8,AA,03,17,00,E2,2C,44,E5,
0,10114001,true,Rx,0,8,03,00,01,4B,14,06,01,01,
0,10114001,true,Rx,0,8,03,30,44,47,BB,44,44,44,
0,10114001,true,Rx,0,8,44,44,44,44,44,44,44,44,
0,10114001,true,Rx,0,8,44,44,44,44,44,44,44,44,
0,10214001,true,Rx,0,3,44,20,2B,00,00,00,00,00,
0,10614001,true,Rx,0,8,5E,8C,1A,BF,42,77,1B,C9,
0,00441406,true,Rx,0,8,07,AA,02,05,00,F4,2C,85,
0,00841406,true,Rx,0,8,07,21,09,00,01,4B,14,06,
0,00C41406,true,Rx,0,8,07,03,13,7A,85,85,85,85,
0,01041406,true,Rx,0,3,02,BF,D2,00,00,00,00,00,
0,00431403,true,Rx,0,8,07,AA,02,01,00,A0,2C,86,
0,00831403,true,Rx,0,8,07,21,09,00,01,4B,14,03,
0,00C31403,true,Rx,0,6,05,01,50,86,41,04,00,00,
0,00431406,true,Rx,0,8,07,AA,02,01,00,A0,2C,87,
0,00831406,true,Rx,0,8,07,21,09,00,01,4B,14,06,
0,00C31406,true,Rx,0,6,05,01,50,87,84,F4,00,00,
0,10014001,true,Rx,0,8,AA,03,00,00,DE,2D,45,E5,
0,10114001,true,Rx,0,8,03,00,01,4B,14,03,01,00,
0,10214001,true,Rx,0,4,01,05,45,7B,00,00,00,00,
0,10614001,true,Rx,0,8,5E,8C,1A,BF,42,77,1B,C9,
0,004D1403,true,Rx,0,8,07,AA,02,45,00,AF,2D,88,
0,008D1403,true,Rx,0,8,07,21,09,00,01,4B,14,03,
0,00CD1403,true,Rx,0,8,07,03,2F,89,CD,88,C0,DF,
0,010D1403,true,Rx,0,8,07,BD,B9,D2,C3,C0,BC,DB,
0,014D1403,true,Rx,0,8,07,CE,BD,D8,B8,B0,BD,BB,
0,018D1403,true,Rx,0,8,07,C3,88,89,88,89,8F,8B,
0,01CD1403,true,Rx,0,8,07,88,8D,8A,89,88,8D,88,
0,020D1403,true,Rx,0,8,07,88,88,88,88,88,8B,88,
0,024D1403,true,Rx,0,8,07,88,6C,84,77,77,77,77,
0,028D1403,true,Rx,0,8,07,87,8D,88,88,88,88,D0,
0,02CD1403,true,Rx,0,8,07,8A,88,88,88,88,88,88,
0,030D1403,true,Rx,0,8,07,88,88,88,88,88,88,88,
0,034D1403,true,Rx,0,4,03,88,CF,5F,00,00,00,00,
0,004D1406,true,Rx,0,8,07,AA,02,45,00,AF,2D,89,
0,008D1406,true,Rx,0,8,07,21,09,00,01,4B,14,06,
0,00CD1406,true,Rx,0,8,07,03,2F,88,CC,89,C1,DE,
0,010D1406,true,Rx,0,8,07,BC,B8,D3,C2,C1,BD,DA,
0,014D1406,true,Rx,0,8,07,CF,BC,D9,B9,B1,BC,BA,
0,018D1406,true,Rx,0,8,07,C2,89,88,89,88,8E,8A,
0,01CD1406,true,Rx,0,8,07,89,8C,8B,88,89,8C,89,
0,020D1406,true,Rx,0,8,07,89,89,89,89,89,8A,89,
0,024D1406,true,Rx,0,8,07,89,6D,85,76,76,76,76,
0,028D1406,true,Rx,0,8,07,86,8C,89,89,89,89,D1,
0,02CD1406,true,Rx,0,8,07,8B,89,89,89,89,89,89,
0,030D1406,true,Rx,0,8,07,89,89,89,89,89,89,89,
0,034D1406,true,Rx,0,4,03,89,80,80,00,00,00,00,
0,10014001,true,Rx,0,8,AA,03,45,00,C4,2D,46,E5,
0,10114001,true,Rx,0,8,03,00,01,4B,14,03,01,01,
0,10114001,true,Rx,0,8,03,2F,47,03,46,0E,11,73,
0,10114001,true,Rx,0,8,77,1C,0D,0E,72,15,00,73,
0,10114001,true,Rx,0,8,16,76,7E,73,75,0D,46,47,
0,10114001,true,Rx,0,8,46,47,41,45,46,43,44,47,
0,10114001,true,Rx,0,8,46,43,46,46,46,46,46,46,
0,10114001,true,Rx,0,8,45,46,46,A2,4A,B9,B9,B9,
0,10114001,true,Rx,0,8,B9,49,43,46,46,46,46,1E,
0,10114001,true,Rx,0,8,44,46,46,46,46,46,46,46,
0,10114001,true,Rx,0,8,46,46,46,46,46,46,46,9B,
0,10214001,true,Rx,0,1,DD,00,00,00,00,00,00,00,
0,00431403,true,Rx,0,8,07,AA,02,01,00,A0,2C,8A,
0,00831403,true,Rx,0,8,07,21,09,00,01,4B,14,03,
0,00C31403,true,Rx,0,6,05,01,50,8A,7E,51,00,00,
0,00431406,true,Rx,0,8,07,AA,02,01,00,A0,2C,8B,
0,00831406,true,Rx,0,8,07,21,09,00,01,4B,14,06,
0,00C31406,true,Rx,0,6,05,01,50,8B,BB,A1,00,00,
0,10614001,true,Rx,0,8,5E,8C,1A,BF,42,77,1B,C9,
0,00461403,true,Rx,0,8,07,AA,02,17,00,89,2C,8C,
0,00861403,true,Rx,0,8,07,21,09,00,01,4B,14,03,
0,00C61403,true,Rx,0,8,07,03,30,8C,8F,73,8C,8C,
0,01061403,true,Rx,0,8,07,8C,8C,8C,8C,8C,8C,8C,
0,01461403,true,Rx,0,8,07,8C,8C,8C,8C,8C,8C,8C,
0,01861403,true,Rx,0,7,06,8C,8C,8C,8C,DE,B7,00,
0,00461406,true,Rx,0,8,07,AA,02,17,00,89,2C,8D,
0,00861406,true,Rx,0,8,07,21,09,00,01,4B,14,06,
0,00C61406,true,Rx,0,8,07,03,30,8D,8E,72,8D,8D,
0,01061406,true,Rx,0,8,07,8D,8D,8D,8D,8D,8D,8D,
0,01461406,true,Rx,0,8,07,8D,8D,8D,8D,8D,8D,8D,
0,01861406,true,Rx,0,7,06,8D,8D,8D,8D,79,BC,00,
0,10014001,true,Rx,0,8,AA,03,17,00,E2,2C,47,E5,
0,10114001,true,Rx,0,8,03,00,01,4B,14,06,01,01,
0,10114001,true,Rx,0,8,03,30,47,44,B8,47,47,47,
0,10114001,true,Rx,0,8,47,47,47,47,47,47,47,47,
0,10114001,true,Rx,0,8,47,47,47,47,47,47,47,47,
0,10214001,true,Rx,0,3,47,2E,37,00,00,00,00,00,
0,00431406,true,Rx,0,8,07,AA,02,02,00,9F,2C,8E,
0,00831406,true,Rx,0,8,07,21,09,00,01,4B,14,06,
0,00C31406,true,Rx,0,7,06,03,10,8C,8A,11,4A,00,
0,00451406,true,Rx,0,8,07,AA,02,0C,00,49,2C,8F,
0,00851406,true,Rx,0,8,07,21,09,00,01,4B,14,06,
0,00C51406,true,Rx,0,8,07,03,23,9F,A8,8F,8F,8F,
0,01051406,true,Rx,0,8,07,EB,9B,8E,8E,8F,8F,8F,
0,01451406,true,Rx,0,3,02,2E,00,00,00,00,00,00,
0,00431406,true,Rx,0,8,07,AA,02,01,00,A0,2C,90,
0,00831406,true,Rx,0,8,07,21,09,00,01,4B,14,06,
0,00C31406,true,Rx,0,6,05,03,27,91,CD,BE,00,00,
0,00431403,true,Rx,0,8,07,AA,02,01,00,A0,2C,91,
0,00831403,true,Rx,0,8,07,21,09,00,01,4B,14,03,
0,00C31403,true,Rx,0,6,05,01,50,91,4F,BE,00,00,
0,00431406,true,Rx,0,8,07,AA,02,01,00,A0,2C,92,
0,00831406,true,Rx,0,8,07,21,09,00,01,4B,14,06,
0,00C31406,true,Rx,0,6,05,01,50,92,00,37,00,00,
0,00441406,true,Rx,0,8,07,AA,02,05,00,F4,2C,93,
0,00841406,true,Rx,0,8,07,21,09,00,01,4B,14,06,
0,00C41406,true,Rx,0,8,07,03,13,6C,93,93,93,93,
0,01041406,true,Rx,0,3,02,0A,3D,00,00,00,00,00,
0,10614001,true,Rx,0,8,5E,8C,1A,BF,42,77,1B,C9,
0,10614001,true,Rx,0,8,5E,8C,1A,BF,42,77,1B,C9,
0,00431403,true,Rx,0,8,07,AA,02,01,00,A0,2C,94,
0,00831403,true,Rx,0,8,07,21,09,00,01,4B,14,03,
0,00C31403,true,Rx,0,6,05,01,50,94,9E,71,00,00,
0,00431406,true,Rx,0,8,07,AA,02,01,00,A0,2C,95,
0,00831406,true,Rx,0,8,07,21,09,00,01,4B,14,06,
0,00C31406,true,Rx,0,6,05,01,50,95,5B,81,00,00,
0,00461403,true,Rx,0,8,07,AA,02,17,00,89,2C,96,
0,00861403,true,Rx,0,8,07,21,09,00,01,4B,14,03,
0,00C61403,true,Rx,0,8,07,03,30,96,95,69,96,96,
0,01061403,true,Rx,0,8,07,96,96,96,96,96,96,96,
0,01461403,true,Rx,0,8,07,96,96,96,96,96,96,96,
0,01861403,true,Rx,0,7,06,96,96,96,96,C1,86,00,
0,00461406,true,Rx,0,8,07,AA,02,17,00,89,2C,97,
0,00861406,true,Rx,0,8,07,21,09,00,01,4B,14,06,
0,00C61406,true,Rx,0,8,07,03,30,97,94,68,97,97,
0,01061406,true,Rx,0,8,07,97,97,97,97,97,97,97,
0,01461406,true,Rx,0,8,07,97,97,97,97,97,97,97,
0,01861406,true,Rx,0,7,06,97,97,97,97,66,8D,00,
0,10014001,true,Rx,0,8,AA,03,17,00,E2,2C,48,E5,
0,10114001,true,Rx,0,8,03,00,01,4B,14,06,01,01,
0,10114001,true,Rx,0,8,03,30,48,4B,B7,48,48,48,
0,10114001,true,Rx,0,8,48,48,48,48,48,48,48,48,
0,10114001,true,Rx,0,8,48,48,48,48,48,48,48,48,
0,10214001,true,Rx,0,3,48,18,5B,00,00,00,00,00,
0,10614001,true,Rx,0,8,5E,8C,1A,BF,42,77,1B,C9,
0,00431403,true,Rx,0,8,07,AA,02,01,00,A0,2C,98,
0,00831403,true,Rx,0,8,07,21,09,00,01,4B,14,03,
0,00C31403,true,Rx,0,6,05,01,50,98,A1,24,00,00,
0,00431406,true,Rx,0,8,07,AA,02,01,00,A0,2C,99,
0,00831406,true,Rx,0,8,07,21,09,00,01,4B,14,06,
0,00C31406,true,Rx,0,6,05,01,50,99,64,D4,00,00,
0,00431406,true,Rx,0,8,07,AA,02,02,00,9F,2C,9A,
0,00831406,true,Rx,0,8,07,21,09,00,01,4B,14,06,
0,00C31406,true,Rx,0,7,06,03,10,98,9E,2E,75,00,
0,00441406,true,Rx,0,8,07,AA,02,05,00,F4,2C,9B,
0,00841406,true,Rx,0,8,07,21,09,00,01,4B,14,06,
0,00C41406,true,Rx,0,8,07,03,13,64,9B,9B,9B,9B,
0,01041406,true,Rx,0,3,02,66,5E,00,00,00,00,00,
0,10614001,true,Rx,0,8,5E,8C,1A,BF,42,77,1B,C9,
0,00431403,true,Rx,0,8,07,AA,02,01,00,A0,2C,9C,
0,00831403,true,Rx,0,8,07,21,09,00,01,4B,14,03,
0,00C31403,true,Rx,0,6,05,01,50,9C,B5,D7,00,00,
0,00431406,true,Rx,0,8,07,AA,02,01,00,A0,2C,9D,
0,00831406,true,Rx,0,8,07,21,09,00,01,4B,14,06,
0,00C31406,true,Rx,0,6,05,01,50,9D,70,27,00,00,
0,004D1403,true,Rx,0,8,07,AA,02,45,00,AF,2D,9E,
0,008D1403,true,Rx,0,8,07,21,09,00,01,4B,14,03,
0,00CD1403,true,Rx,0,8,07,03,2F,9F,DB,9E,D6,C9,
0,010D1403,true,Rx,0,8,07,AB,AF,C4,D5,D6,AA,CD,
0,014D1403,true,Rx,0,8,07,D8,AB,CE,AE,A6,AB,AD,
0,018D1403,true,Rx,0,8,07,D5,9E,9F,9E,9F,99,9D,
0,01CD1403,true,Rx,0,8,07,9E,9B,9C,9F,9E,9B,9E,
0,020D1403,true,Rx,0,8,07,9E,9E,9E,9E,9E,9D,9E,
0,024D1403,true,Rx,0,8,07,9E,7A,92,61,61,61,61,
0,028D1403,true,Rx,0,8,07,91,9B,9E,9E,9E,9E,C6,
0,02CD1403,true,Rx,0,8,07,9C,9E,9E,9E,9E,9E,9E,
0,030D1403,true,Rx,0,8,07,9E,9E,9E,9E,9E,9E,9E,
0,034D1403,true,Rx,0,4,03,9E,D4,14,00,00,00,00,
0,004D1406,true,Rx,0,8,07,AA,02,45,00,AF,2D,9F,
0,008D1406,true,Rx,0,8,07,21,09,00,01,4B,14,06,
0,00CD1406,true,Rx,0,8,07,03,2F,9E,DA,9F,D7,C8,
0,010D1406,true,Rx,0,8,07,AA,AE,C5,D4,D7,AB,CC,
0,014D1406,true,Rx,0,8,07,D9,AA,CF,AF,A7,AA,AC,
0,018D1406,true,Rx,0,8,07,D4,9F,9E,9F,9E,98,9C,
0,01CD1406,true,Rx,0,8,07,9F,9A,9D,9E,9F,9A,9F,
0,020D1406,true,Rx,0,8,07,9F,9F,9F,9F,9F,9C,9F,
0,024D1406,true,Rx,0,8,07,9F,7B,93,60,60,60,60,
0,028D1406,true,Rx,0,8,07,90,9A,9F,9F,9F,9F,C7,
0,02CD1406,true,Rx,0,8,07,9D,9F,9F,9F,9F,9F,9F,
0,030D1406,true,Rx,0,8,07,9F,9F,9F,9F,9F,9F,9F,
0,034D1406,true,Rx,0,4,03,9F,9B,CB,00,00,00,00,
0,10014001,true,Rx,0,8,AA,03,45,00,C4,2D,49,E5,
0,10114001,true,Rx,0,8,03,00,01,4B,14,03,01,01,
0,10114001,true,Rx,0,8,03,2F,48,0C,49,01,1E,7C,
0,10114001,true,Rx,0,8,78,13,02,01,7D,1A,0F,7C,
0,10114001,true,Rx,0,8,19,79,71,7C,7A,02,49,48,
0,10114001,true,Rx,0,8,49,48,4E,4A,49,4C,4B,48,
0,10114001,true,Rx,0,8,49,4C,49,49,49,49,49,49,
0,10114001,true,Rx,0,8,4A,49,49,AD,45,B6,B6,B6,
0,10114001,true,Rx,0,8,B6,46,4C,49,49,49,49,11,
0,10114001,true,Rx,0,8,4B,49,49,49,49,49,49,49,
0,10114001,true,Rx,0,8,49,49,49,49,49,49,49,B8,
0,10214001,true,Rx,0,1,A4,00,00,00,00,00,00,00,
0,10614001,true,Rx,0,8,5E,8C,1A,BF,42,77,1B,C9,
0,00431403,true,Rx,0,8,07,AA,02,01,00,A0,2C,A0,
0,00831403,true,Rx,0,8,07,21,09,00,01,4B,14,03,
0,00C31403,true,Rx,0,6,05,01,50,A0,75,96,00,00,
0,00431406,true,Rx,0,8,07,AA,02,01,00,A0,2C,A1,
0,00831406,true,Rx,0,8,07,21,09,00,01,4B,14,06,
0,00C31406,true,Rx,0,6,05,01,50,A1,B0,66,00,00,
0,00461403,true,Rx,0,8,07,AA,02,17,00,89,2C,A2,
0,00861403,true,Rx,0,8,07,21,09,00,01,4B,14,03,
0,00C61403,true,Rx,0,8,07,03,30,A2,A1,5D,A2,A2,
0,01061403,true,Rx,0,8,07,A2,A2,A2,A2,A2,A2,A2,
0,01461403,true,Rx,0,8,07,A2,A2,A2,A2,A2,A2,A2,
0,01861403,true,Rx,0,7,06,A2,A2,A2,A2,FF,E4,00,
0,00461406,true,Rx,0,8,07,AA,02,17,00,89,2C,A3,
0,00861406,true,Rx,0,8,07,21,09,00,01,4B,14,06,
0,00C61406,true,Rx,0,8,07,03,30,A3,A0,5C,A3,A3,
0,01061406,true,Rx,0,8,07,A3,A3,A3,A3,A3,A3,A3,
0,01461406,true,Rx,0,8,07,A3,A3,A3,A3,A3,A3,A3,
0,01861406,true,Rx,0,7,06,A3,A3,A3,A3,58,EF,00,
0,10014001,true,Rx,0,8,AA,03,17,00,E2,2C,4A,E5,
0,10114001,true,Rx,0,8,03,00,01,4B,14,06,01,01,
0,10114001,true,Rx,0,8,03,30,4A,49,B5,4A,4A,4A,
0,10114001,true,Rx,0,8,4A,4A,4A,4A,4A,4A,4A,4A,
0,10114001,true,Rx,0,8,4A,4A,4A,4A,4A,4A,4A,4A,
0,10214001,true,Rx,0,3,4A,ED,8C,00,00,00,00,00,
0,00451406,true,Rx,0,8,07,AA,02,0C,00,49,2C,A4,
0,00851406,true,Rx,0,8,07,21,09,00,01,4B,14,06,
0,00C51406,true,Rx,0,8,07,03,23,B4,83,A4,A4,A4,
0,01051406,true,Rx,0,8,07,C0,B0,A5,A5,A4,A4,A4,
0,01451406,true,Rx,0,3,02,5B,E0,00,00,00,00,00,
0,00431406,true,Rx,0,8,07,AA,02,01,00,A0,2C,A5,
0,00831406,true,Rx,0,8,07,21,09,00,01,4B,14,06,
0,00C31406,true,Rx,0,6,05,03,27,A4,E3,65,00,00,
0,10614001,true,Rx,0,8,5E,8C,1A,BF,42,77,1B,C9,
0,00441406,true,Rx,0,8,07,AA,02,05,00,F4,2C,A6,
0,00841406,true,Rx,0,8,07,21,09,00,01,4B,14,06,
0,00C41406,true,Rx,0,8,07,03,13,59,A6,A6,A6,A6,
0,01041406,true,Rx,0,3,02,BB,AB,00,00,00,00,00,
0,00431403,true,Rx,0,8,07,AA,02,01,00,A0,2C,A7,
0,00831403,true,Rx,0,8,07,21,09,00,01,4B,14,03,
0,00C31403,true,Rx,0,6,05,01,50,A7,2E,20,00,00,
0,00431406,true,Rx,0,8,07,AA,02,01,00,A0,2C,A8,
0,00831406,true,Rx,0,8,07,21,09,00,01,4B,14,06,
0,00C31406,true,Rx,0,6,05,01,50,A8,5E,FC,00,00,
0,00431406,true,Rx,0,8,07,AA,02,02,00,9F,2C,A9,
0,00831406,true,Rx,0,8,07,21,09,00,01,4B,14,06,
0,00C31406,true,Rx,0,7,06,03,10,AB,AD,3E,D4,00,
0,10614001,true,Rx,0,8,5E,8C,1A,BF,42,77,1B,C9,
0,00431403,true,Rx,0,8,07,AA,02,01,00,A0,2C,AA,
0,00831403,true,Rx,0,8,07,21,09,00,01,4B,14,03,
0,00C31403,true,Rx,0,6,05,01,50,AA,D4,49,00,00,
0,00431406,true,Rx,0,8,07,AA,02,01,00,A0,2C,AB,
0,00831406,true,Rx,0,8,07,21,09,00,01,4B,14,06,
0,00C31406,true,Rx,0,6,05,01,50,AB,11,B9,00,00,
0,10014001,true,Rx,0,8,AA,13,5F,01,B4,2D,48,36,
0,10114001,true,Rx,0,8,00,00,02,4B,35,01,01,01,
0,10114001,true,Rx,0,8,14,04,40,49,58,48,50,49,
0,10114001,true,Rx,0,8,68,48,60,48,78,48,70,2C,
0,10114001,true,Rx,0,8,08,48,00,68,18,78,10,49,
0,10114001,true,Rx,0,8,28,FA,5C,20,48,38,48,30,
0,10114001,true,Rx,0,8,B7,B7,B7,B7,B7,B7,B7,B7,
0,10114001,true,Rx,0,8,B7,49,C8,49,4F,C0,49,48,
0,10114001,true,Rx,0,8,D8,49,48,D0,49,48,E8,49,
0,10114001,true,Rx,0,8,48,E0,49,4C,F8,49,BC,4B,
0,10114001,true,Rx,0,8,F0,49,48,88,49,98,60,80,
0,10114001,true,Rx,0,8,49,48,98,49,B8,66,90,49,
0,10114001,true,Rx,0,8,D3,67,A8,49,88,76,A0,49,
0,10114001,true,Rx,0,8,49,B8,49,49,B0,49,53,C8,
0,10114001,true,Rx,0,8,4A,F4,C7,4A,C0,4A,4B,D8,
0,10114001,true,Rx,0,8,4A,03,D0,4A,68,E8,4A,DF,
0,10114001,true,Rx,0,8,BC,AA,55,E0,4A,49,88,4A,
0,10114001,true,Rx,0,8,48,80,4A,48,98,4A,88,99,
0,10114001,true,Rx,0,8,CA,B0,B2,B7,B7,B7,B7,49,
0,10114001,true,Rx,0,8,90,4A,49,A8,4A,48,A0,4A,
0,10114001,true,Rx,0,8,48,B8,4A,48,B0,4A,48,C8,
0,10114001,true,Rx,0,8,4B,48,C0,4B,48,D8,4B,48,
0,10114001,true,Rx,0,8,E8,4B,99,B7,B7,B7,B7,B7,
0,10114001,true,Rx,0,8,B7,B7,B7,49,E0,4B,48,F8,
0,10114001,true,Rx,0,8,4B,48,F0,4B,48,88,4B,49,
0,10114001,true,Rx,0,8,80,4B,48,98,4B,4A,90,4B,
0,10114001,true,Rx,0,8,4A,A8,4B,49,A0,4B,49,B8,
0,10114001,true,Rx,0,8,4B,B7,B7,4B,B0,4B,B7,B7,
0,10114001,true,Rx,0,8,4B,C2,4C,C4,49,58,49,50,
0,10114001,true,Rx,0,8,4A,60,BA,CC,E4,58,78,52,
0,10114001,true,Rx,0,8,70,A4,D3,4B,08,FF,40,00,
0,10114001,true,Rx,0,8,52,18,49,10,E8,D4,49,28,
0,10114001,true,Rx,0,8,BD,6E,20,AA,D3,49,38,F8,
0,10114001,true,Rx,0,8,CD,4B,30,2B,C8,49,AA,51,
0,10114001,true,Rx,0,8,C0,49,97,51,D8,49,52,D0,
0,10114001,true,Rx,0,8,49,5F,E8,49,55,E0,49,55,
0,10114001,true,Rx,0,8,88,49,A4,D2,49,85,49,02,
0,10114001,true,Rx,0,8,35,84,09,A0,49,49,B8,49,
0,10114001,true,Rx,0,8,49,B0,49,49,C8,4A,9E,E3,
0,10114001,true,Rx,0,8,4B,C0,4A,E0,8B,49,D0,4A,
0,10114001,true,Rx,0,8,2C,E8,4A,45,E0,4A,52,F8,
0,10114001,true,Rx,0,8,4A,49,88,4A,D7,4E,80,4A,
0,10114001,true,Rx,0,8,FB,66,98,4A,49,95,4A,F5,
0,10114001,true,Rx,0,8,76,84,09,A0,4A,49,B8,4A,
0,10114001,true,Rx,0,8,49,B0,4A,A2,DB,4B,C8,4B,
0,10114001,true,Rx,0,8,F2,EB,4B,C0,4B,5C,D0,4B,
0,10214001,true,Rx,0,3,2C,CD,3E,00,00,00,00,00,
0,00461403,true,Rx,0,8,07,AA,02,17,00,89,2C,AC,
0,00861403,true,Rx,0,8,07,21,09,00,01,4B,14,03,
0,00C61403,true,Rx,0,8,07,03,30,AC,AF,53,AC,AC,
0,01061403,true,Rx,0,8,07,AC,AC,AC,AC,AC,AC,AC,
0,01461403,true,Rx,0,8,07,AC,AC,AC,AC,AC,AC,AC,
0,01861403,true,Rx,0,7,06,AC,AC,AC,AC,BC,40,00,
0,00461406,true,Rx,0,8,07,AA,02,17,00,89,2C,AD,
0,00861406,true,Rx,0,8,07,21,09,00,01,4B,14,06,
0,00C61406,true,Rx,0,8,07,03,30,AD,AE,52,AD,AD,
0,01061406,true,Rx,0,8,07,AD,AD,AD,AD,AD,AD,AD,
0,01461406,true,Rx,0,8,07,AD,AD,AD,AD,AD,AD,AD,
0,01861406,true,Rx,0,7,06,AD,AD,AD,AD,1B,4B,00,
0,10014001,true,Rx,0,8,AA,03,17,00,E2,2C,4B,E5,
0,10114001,true,Rx,0,8,03,00,01,4B,14,06,01,01,
0,10114001,true,Rx,0,8,03,30,4B,48,B4,4B,4B,4B,
0,10114001,true,Rx,0,8,4B,4B,4B,4B,4B,4B,4B,4B,
0,10114001,true,Rx,0,8,4B,4B,4B,4B,4B,4B,4B,4B,
0,10214001,true,Rx,0,3,4B,16,47,00,00,00,00,00,
0,10614001,true,Rx,0,8,5E,8C,1A,BF,42,77,1B,C9,
0,00431403,true,Rx,0,8,07,AA,02,01,00,A0,2C,AE,
0,00831403,true,Rx,0,8,07,21,09,00,01,4B,14,03,
0,00C31403,true,Rx,0,6,05,01,50,AE,C0,BA,00,00,
0,00431406,true,Rx,0,8,07,AA,02,01,00,A0,2C,AF,
0,00831406,true,Rx,0,8,07,21,09,00,01,4B,14,06,
0,00C31406,true,Rx,0,6,05,01,50,AF,05,4A,00,00,
0,00441406,true,Rx,0,8,07,AA,02,05,00,F4,2C,B0,
0,00841406,true,Rx,0,8,07,21,09,00,01,4B,14,06,
0,00C41406,true,Rx,0,8,07,03,13,4F,B0,B0,B0,B0,
0,01041406,true,Rx,0,3,02,0E,44,00,00,00,00,00,
0,00431403,true,Rx,0,8,07,AA,02,00,00,B5,2D,B1,
0,00831403,true,Rx,0,8,07,21,09,00,01,4B,14,03,
0,00C31403,true,Rx,0,5,04,01,05,31,D5,00,00,00,
0,10614001,true,Rx,0,8,5E,8C,1A,BF,42,77,1B,C9,
0,10014001,true,Rx,0,8,AA,13,B8,01,9C,2D,49,36,
0,10114001,true,Rx,0,8,00,00,02,4B,35,01,01,01,
0,10114001,true,Rx,0,8,14,01,41,49,59,49,51,49,
0,10114001,true,Rx,0,8,69,49,61,49,79,49,71,49,
0,10114001,true,Rx,0,8,09,49,01,49,19,49,11,4D,
0,10114001,true,Rx,0,8,29,4D,21,4C,39,4C,31,48,
0,10114001,true,Rx,0,8,C9,48,BA,4B,C1,48,AB,54,
0,10114001,true,Rx,0,8,D9,48,49,D1,48,49,E9,48,
0,10114001,true,Rx,0,8,97,4B,E1,48,BA,4B,F9,48,
0,10114001,true,Rx,0,8,D6,54,F1,48,49,89,48,49,
0,10114001,true,Rx,0,8,81,48,BB,4B,99,48,C4,4D,
0,10114001,true,Rx,0,8,91,48,A5,4D,A9,48,49,A1,
0,10114001,true,Rx,0,8,48,49,B9,48,CD,4B,B1,48,
0,10114001,true,Rx,0,8,49,C9,4B,49,C1,4B,B1,48,
0,10114001,true,Rx,0,8,D9,4B,97,4B,D1,4B,9A,69,
0,10114001,true,Rx,0,8,E9,4B,EA,5A,E1,4B,71,F9,
0,10114001,true,Rx,0,8,4B,49,F1,4B,49,89,4B,BD,
0,10114001,true,Rx,0,8,4A,99,4B,49,91,4B,59,A9,
0,10114001,true,Rx,0,8,4B,49,A1,4B,49,B9,4B,8B,
0,10114001,true,Rx,0,8,C7,48,B1,4B,49,C9,4A,FB,
0,10114001,true,Rx,0,8,5D,C1,4A,49,D9,4A,49,D1,
0,10114001,true,Rx,0,8,4A,5D,E9,4A,2D,E1,4A,48,
0,10114001,true,Rx,0,8,F9,4A,49,F1,4A,49,89,4A,
0,10114001,true,Rx,0,8,FB,4B,81,4A,4B,99,4A,89,
0,10114001,true,Rx,0,8,77,91,4A,A6,67,A9,4A,A6,
0,10114001,true,Rx,0,8,67,A1,4A,48,B9,4A,49,B1,
0,10114001,true,Rx,0,8,4A,FB,5D,C9,4D,49,C1,4D,
0,10114001,true,Rx,0,8,49,D9,4D,FB,5D,D1,4D,FB,
0,10114001,true,Rx,0,8,5D,E9,4D,4E,E1,4D,49,F9,
0,10114001,true,Rx,0,8,4D,49,F1,4D,49,89,4D,69,
0,10114001,true,Rx,0,8,81,4D,79,99,4D,49,91,4D,
0,10114001,true,Rx,0,8,49,A9,4D,4D,A1,4D,49,B9,
0,10114001,true,Rx,0,8,4D,49,B1,4D,89,77,C9,4C,
0,10114001,true,Rx,0,8,49,C1,4C,49,D9,4C,49,D1,
0,10114001,true,Rx,0,8,4C,98,B6,B6,B6,B6,B6,B6,
0,10114001,true,Rx,0,8,B6,B6,48,E9,4C,49,E1,4C,
0,10114001,true,Rx,0,8,BD,4A,F9,4C,99,61,F1,4C,
0,10114001,true,Rx,0,8,B9,67,D9,4F,D2,66,D1,4F,
0,10114001,true,Rx,0,8,89,77,E9,4F,48,E1,4F,52,
0,10114001,true,Rx,0,8,F9,4F,DE,BD,AB,54,F1,4F,
0,10114001,true,Rx,0,8,48,89,4F,81,99,91,D6,4A,
0,10114001,true,Rx,0,8,81,4F,CD,F0,8A,DF,45,99,
0,10114001,true,Rx,0,8,4F,89,98,CB,B1,B3,B6,B6,
0,10114001,true,Rx,0,8,B6,B6,48,91,4F,48,A9,4F,
0,10114001,true,Rx,0,8,49,A1,4F,49,B9,4F,49,D1,
0,10114001,true,Rx,0,8,4E,02,E9,4E,69,89,4E,99,
0,10114001,true,Rx,0,8,61,81,4E,49,91,4E,B8,10,
0,10114001,true,Rx,0,8,A9,4E,4F,A1,4E,4A,BC,4E,
0,10114001,true,Rx,0,8,51,E6,55,00,F9,41,61,89,
0,10114001,true,Rx,0,8,41,9D,B6,B6,B6,B6,B6,B6,
0,10114001,true,Rx,0,8,B6,B6,48,81,41,49,91,41,
0,10114001,true,Rx,0,8,49,A9,41,49,A1,41,50,B9,
0,10114001,true,Rx,0,8,41,49,B1,41,48,C9,40,49,
0,10114001,true,Rx,0,8,C1,40,49,D9,40,49,D1,40,
0,10114001,true,Rx,0,8,49,E9,40,49,E1,40,49,F9,
0,10114001,true,Rx,0,8,40,49,89,40,43,81,40,D1,
0,10114001,true,Rx,0,8,8E,99,F7,4F,99,40,49,91,
0,10214001,true,Rx,0,4,40,49,F6,D9,00,00,00,00,
0,00431403,true,Rx,0,8,07,AA,02,01,00,A0,2C,B2,
0,00831403,true,Rx,0,8,07,21,09,00,01,4B,14,03,
0,00C31403,true,Rx,0,6,05,01,50,B2,AA,E3,00,00,
0,00431406,true,Rx,0,8,07,AA,02,01,00,A0,2C,B3,
0,00831406,true,Rx,0,8,07,21,09,00,01,4B,14,06,
0,00C31406,true,Rx,0,6,05,01,50,B3,6F,13,00,00,
0,00431406,true,Rx,0,8,07,AA,02,02,00,9F,2C,B4,
0,00831406,true,Rx,0,8,07,21,09,00,01,4B,14,06,
0,00C31406,true,Rx,0,7,06,03,10,B6,B0,DB,A1,00,
0,004D1403,true,Rx,0,8,07,AA,02,45,00,AF,2D,B5,
0,008D1403,true,Rx,0,8,07,21,09,00,01,4B,14,03,
0,00CD1403,true,Rx,0,8,07,03,2F,B4,F0,B5,FD,E2,
0,010D1403,true,Rx,0,8,07,80,84,EF,FE,FD,81,E6,
0,014D1403,true,Rx,0,8,07,F3,80,E5,85,8D,80,86,
0,018D1403,true,Rx,0,8,07,FE,B5,B4,B5,B4,B2,B6,
0,01CD1403,true,Rx,0,8,07,B5,B0,B7,B4,B5,B0,B5,
0,020D1403,true,Rx,0,8,07,B5,B5,B5,B5,B5,B6,B5,
0,024D1403,true,Rx,0,8,07,B5,51,B9,4A,4A,4A,4A,
0,028D1403,true,Rx,0,8,07,BA,B0,B5,B5,B5,B5,ED,
0,02CD1403,true,Rx,0,8,07,B7,B5,B5,B5,B5,B5,B5,
0,030D1403,true,Rx,0,8,07,B5,B5,B5,B5,B5,B5,B5,
0,034D1403,true,Rx,0,4,03,B5,67,C1,00,00,00,00,
0,004D1406,true,Rx,0,8,07,AA,02,45,00,AF,2D,B6,
0,008D1406,true,Rx,0,8,07,21,09,00,01,4B,14,06,
0,00CD1406,true,Rx,0,8,07,03,2F,B7,F3,B6,FE,E1,
0,010D1406,true,Rx,0,8,07,83,87,EC,FD,FE,82,E5,
0,014D1406,true,Rx,0,8,07,F0,83,E6,86,8E,83,85,
0,018D1406,true,Rx,0,8,07,FD,B6,B7,B6,B7,B1,B5,
0,01CD1406,true,Rx,0,8,07,B6,B3,B4,B7,B6,B3,B6,
0,020D1406,true,Rx,0,8,07,B6,B6,B6,B6,B6,B5,B6,
0,024D1406,true,Rx,0,8,07,B6,52,BA,49,49,49,49,
0,028D1406,true,Rx,0,8,07,B9,B3,B6,B6,B6,B6,EE,
0,02CD1406,true,Rx,0,8,07,B4,B6,B6,B6,B6,B6,B6,
0,030D1406,true,Rx,0,8,07,B6,B6,B6,B6,B6,B6,B6,
0,034D1406,true,Rx,0,4,03,B6,2B,5F,00,00,00,00,
0,10014001,true,Rx,0,8,AA,03,45,00,C4,2D,4C,E5,
0,10114001,true,Rx,0,8,03,00,01,4B,14,03,01,01,
0,10114001,true,Rx,0,8,03,2F,4D,09,4C,04,1B,79,
0,10114001,true,Rx,0,8,7D,16,07,04,78,1F,0A,79,
0,10114001,true,Rx,0,8,1C,7C,74,79,7F,07,4C,4D,
0,10114001,true,Rx,0,8,4C,4D,4B,4F,4C,49,4E,4D,
0,10114001,true,Rx,0,8,4C,49,4C,4C,4C,4C,4C,4C,
0,10114001,true,Rx,0,8,4F,4C,4C,A8,40,B3,B3,B3,
0,10114001,true,Rx,0,8,B3,43,49,4C,4C,4C,4C,14,
0,10114001,true,Rx,0,8,4E,4C,4C,4C,4C,4C,4C,4C,
0,10114001,true,Rx,0,8,4C,4C,4C,4C,4C,4C,4C,59,
0,10214001,true,Rx,0,1,8C,00,00,00,00,00,00,00,
0,10614001,true,Rx,0,8,5E,8C,1A,BF,42,77,1B,C9,
0,00461403,true,Rx,0,8,07,AA,02,17,00,89,2C,B7,
0,00861403,true,Rx,0,8,07,21,09,00,01,4B,14,03,
0,00C61403,true,Rx,0,8,07,03,30,B7,B4,48,B7,B7,
