(1744233722.172089) can0 10A03130#5A45354830363031
(1744233725.572876) can0 10003001#AA037800D42C5600
(1744233725.573027) can0 10103001#00000B3C03030100
(1744233725.573168) can0 10103001#030156545649C49B
(1744233725.573303) can0 10103001#A017609BB3A9A9A9
(1744233725.573444) can0 10103001#46A92957568E5A8F
(1744233725.573592) can0 10103001#5A875A845A825A85
(1744233725.573727) can0 10103001#5A835A995A825A82
(1744233725.573862) can0 10103001#5A825A825A875A84
(1744233725.574016) can0 10103001#5A845A56568F5A99
(1744233725.574157) can0 10103001#5A855A5751404345
(1744233725.574293) can0 10103001#455616CA56563DC2
(1744233725.574434) can0 10103001#56569F7B56565756
(1744233725.574569) can0 10103001#56A9A9A9A9565654
(1744233725.574722) can0 10103001#5676565656565656
(1744233725.574857) can0 10103001#565656561B555757
(1744233725.574992) can0 10103001#5656565640435656
(1744233725.575149) can0 10103001#5656434056565656
(1744233725.575245) can0 10203001#565627ED
(1744233725.601233) can0 10603001#5A45354830363031
(1744233725.652769) can0 10003001#AA0323004F2C5700
(1744233725.652904) can0 10103001#00000B3C03030100
(1744233725.653114) can0 10103001#03255757579887A1
(1744233725.653192) can0 10103001#1657575757575757
(1744233725.653327) can0 10103001#5757575757575748
(1744233725.653468) can0 10103001#5757575757575757
(1744233725.653603) can0 10203001#57575757574C52
(1744233725.692859) can0 10003001#AA037C00802C5800
(1744233725.693012) can0 10103001#00000B3C03030100
(1744233725.693153) can0 10103001#0301585A5847CA95
(1744233725.693302) can0 10103001#AE196E95BDA7A7A7
(1744233725.693443) can0 10103001#48A7275958805481
(1744233725.693578) can0 10103001#5489548A548C548B
(1744233725.693712) can0 10103001#548D5497548C548C
(1744233725.693862) can0 10103001#548C548C5489548A
(1744233725.693998) can0 10103001#548A545858815497
(1744233725.694141) can0 10103001#548B54595F4E4D4B
(1744233725.694275) can0 10103001#4B5818C4585833CC
(1744233725.694410) can0 10103001#5858917558585958
(1744233725.694564) can0 10103001#58A7A7A7A758585A
(1744233725.694699) can0 10103001#5878585858585858
(1744233725.694840) can0 10103001#58585858155B5959
(1744233725.694988) can0 10103001#585858584E4D5858
(1744233725.695128) can0 10103001#58584D4E4D4D4D4D
(1744233725.695263) can0 10203001#5858585858586444
(1744233725.701847) can0 10603001#5A45354830363031
(1744233725.785962) can0 10003001#AA038000682C5900
(1744233725.786119) can0 10103001#00000B3C03210100
(1744233725.786254) can0 10103001#031A1468696B036A
(1744233725.786388) can0 10103001#1B6D031C6C11696F
(1744233725.786529) can0 10103001#696839B35959145A
(1744233725.786664) can0 10103001#5858915959595859
(1744233725.786819) can0 10103001#5959595959595846
(1744233725.786953) can0 10103001#6F945959BCA6A6A6
(1744233725.787118) can0 10103001#4C595919C5595932
(1744233725.787227) can0 10103001#CD59599074595958
(1744233725.787382) can0 10103001#5959598055595996
(1744233725.787517) can0 10103001#5559594F4C4A4A59
(1744233725.787651) can0 10103001#59595959A6A6A6A6
(1744233725.787786) can0 10103001#58595959593D5C59
(1744233725.787928) can0 10103001#5959595959595959
(1744233725.788119) can0 10103001#75585959593D5959
(1744233725.788215) can0 10103001#594E4C5959590DB5
(1744233725.788350) can0 10103001#5959595959595959
(1744233725.788453) can0 10203001#5959C161
(1744233725.788607) can0 10003001#AA038000682C5A00
(1744233725.788756) can0 10103001#00000B3C03030100
(1744233725.788898) can0 10103001#031A176B6A680069
(1744233725.789051) can0 10103001#186E001F6F126A6C
(1744233725.789189) can0 10103001#6A6B3AB05A5A1759
(1744233725.789322) can0 10103001#5B5B925A5A5A5B5A
(1744233725.789464) can0 10103001#5A5A5A5A5A5A5B45
(1744233725.789599) can0 10103001#6C975A5ABFA5A5A5
(1744233725.789753) can0 10103001#4F5A5A1AC65A5A31
(1744233725.789888) can0 10103001#CE5A5A93775A5A5B
(1744233725.790023) can0 10103001#5A5A5A83565A5A95
(1744233725.790163) can0 10103001#565A5A4C4F49495A
(1744233725.790304) can0 10103001#5A5A5A5AA5A5A5A5
(1744233725.790452) can0 10103001#5B5A5A5A5A3E5F5A
(1744233725.790593) can0 10103001#5A5A5A5A5A5A5A5A
(1744233725.790728) can0 10103001#765B5A5A5A3E5A5A
(1744233725.802389) can0 10603001#5A45354830363031
(1744233725.812928) can0 10003001#AA037800D42C5B00
(1744233725.813120) can0 10103001#00000B3C03030100
(1744233725.813217) can0 10103001#03015B595B44CB96
(1744233725.813351) can0 10103001#AD1A6D96BEA4A4A4
(1744233725.813492) can0 10103001#4BA4245A5B835782
(1744233725.813647) can0 10103001#578A5789578F5788
(1744233725.813781) can0 10103001#578E5794578F578F
(1744233725.813915) can0 10103001#578F578F578A5789
(1744233725.814050) can0 10103001#5789575B5B825794
(1744233725.814196) can0 10103001#5788575A5C4D4E48
(1744233725.814331) can0 10103001#485B1BC75B5B30CF
(1744233725.814481) can0 10103001#5B5B92765B5B5A5B
(1744233725.814616) can0 10103001#5BA4A4A4A45B5B59
(1744233725.814757) can0 10103001#5B7B5B5B5B5B5B5B
(1744233725.814893) can0 10103001#5B5B5B5B16585A5A
(1744233725.815028) can0 10103001#5B5B5B5B4D4E5B5B
(1744233725.815170) can0 10103001#5B5B4E4D5B5B5B5B
(1744233725.815286) can0 10203001#5B5B1E30
(1744233725.815428) can0 10003001#AA0323004F2C5C00
(1744233725.815576) can0 10103001#00000B3C03030100
(1744233725.815717) can0 10103001#03255C5C5C908CAA
(1744233725.815852) can0 10103001#1D5C5C5C5C5C5C5C
(1744233725.816006) can0 10103001#5C5C5C5C5C5C5C43
(1744233725.816143) can0 10103001#5C5C5C5C5C5C5C5C
(1744233725.816266) can0 10203001#5C5C5C5C5C9438
(1744233725.848853) can0 10003001#AA030100CB2C5D00
(1744233725.849000) can0 10103001#00000B3C03030100
(1744233725.849121) can0 10203001#03C35C33F9
(1744233725.849262) can0 10003001#AA030100CB2C5E00
(1744233725.849416) can0 10103001#00000B3C03030100
(1744233725.849538) can0 10203001#03C35F763B
(1744233725.849672) can0 10003001#AA030100CB2C5F00
(1744233725.849826) can0 10103001#00000B3C03030100
(1744233725.849949) can0 10203001#03C35EB57A
(1744233725.850121) can0 10003001#AA030100CB2C6000
(1744233725.850232) can0 10103001#00000B3C03030100
(1744233725.850355) can0 10203001#03C361A095
(1744233725.850496) can0 10003001#AA030100CB2C6100
(1744233725.850643) can0 10103001#00000B3C03030100
(1744233725.850766) can0 10203001#03C36063D4
(1744233725.903847) can0 10603001#5A45354830363031
(1744233725.932908) can0 10003001#AA037C00802C6700
(1744233725.933042) can0 10103001#00000B3C03030100
(1744233725.933177) can0 10103001#030167656778F7AA
(1744233725.933338) can0 10103001#912651AA63676767
(1744233725.933472) can0 10103001#7798186667BF6BBD
(1744233725.933606) can0 10103001#6BB66BB56BB36BB4
(1744233725.933741) can0 10103001#6BB26BA86BB36BB3
(1744233725.933895) can0 10103001#6BB46BB36BB66BB5
(1744233725.934036) can0 10103001#6BB56B6767BD6BA8
(1744233725.934175) can0 10103001#6BB46B6660717274
(1744233725.934310) can0 10103001#746727FB67670CF3
(1744233725.934445) can0 10103001#6767AE4A67676667
(1744233725.934585) can0 10103001#6767676767676765
(1744233725.934733) can0 10103001#6747676767676767
(1744233725.934866) can0 10103001#676767672A646666
(1744233725.935007) can0 10103001#6767676771726767
(1744233725.935162) can0 10103001#6767727172727272
(1744233725.935296) can0 10203001#67676767676718EA
(1744233725.972821) can0 10003001#AA0323004F2C6800
(1744233725.972975) can0 10103001#00000B3C03030100
(1744233725.973125) can0 10103001#0325686868A4B89E
(1744233725.973254) can0 10103001#2968686868686868
(1744233725.973407) can0 10103001#6868686868686877
(1744233725.973542) can0 10103001#6868686868686868
(1744233725.973664) can0 10203001#6868686868A41C
(1744233726.004871) can0 10603001#5A45354830363031
(1744233726.052753) can0 10003001#AA037800D42C6900
(1744233726.052913) can0 10103001#00000B3C03030100
(1744233726.053048) can0 10103001#0301696B6976F9A4
(1744233726.053205) can0 10103001#9F285CA48C969696
(1744233726.053340) can0 10103001#7996166869B165B0
(1744233726.053475) can0 10103001#65B865BB65BD65BA
(1744233726.053616) can0 10103001#65BC65A665BD65BD
(1744233726.053751) can0 10103001#65BA65BD65B865BB
(1744233726.053899) can0 10103001#65BB656969B065A6
(1744233726.054040) can0 10103001#65BA65686E7F7C7A
(1744233726.054179) can0 10103001#7A6929F5696902FD
(1744233726.054314) can0 10103001#6969A04469696869
(1744233726.054463) can0 10103001#699696969669696B
(1744233726.054605) can0 10103001#6949696969696969
(1744233726.054740) can0 10103001#69696969246A6868
(1744233726.054894) can0 10103001#696969697E7C6969
(1744233726.055028) can0 10103001#69697C7F69696969
(1744233726.055135) can0 10203001#69693A38
(1744233726.105866) can0 10603001#5A45354830363031
(1744233726.132897) can0 10003001#AA0323004F2C6A00
(1744233726.133043) can0 10103001#00000B3C03030100
(1744233726.133188) can0 10103001#03256A6A6AA6BA9C
(1744233726.133323) can0 10103001#2B6A6A6A6A6A6A6A
(1744233726.133458) can0 10103001#6A6A6A6A6A6A6A75
(1744233726.133607) can0 10103001#6A6A6A6A6A6A6A6A
(1744233726.133729) can0 10203001#6A6A6A6A6AE991
(1744233726.172883) can0 10003001#AA037C00802C6B00
(1744233726.173023) can0 10103001#00000B3C03030100
(1744233726.173171) can0 10103001#03016B696B74FBA6
(1744233726.173313) can0 10103001#9D2A5EA68E949494
(1744233726.173448) can0 10103001#7B94146A6BB367B2
(1744233726.173583) can0 10103001#67BA67B967BF67B8
(1744233726.173736) can0 10103001#67BE67A467BF67BF
(1744233726.173871) can0 10103001#67B867BF67BA67B9
(1744233726.174012) can0 10103001#67B9676B6BB267A4
(1744233726.174165) can0 10103001#67B8676A6C7D7E78
(1744233726.174298) can0 10103001#786B2BF76B6B00FF
(1744233726.174439) can0 10103001#6B6BA2466B6B6A6B
(1744233726.174574) can0 10103001#6B949494946B6B69
(1744233726.174727) can0 10103001#6B4B6B6B6B6B6B6B
(1744233726.174862) can0 10103001#6B6B6B6B26686A6A
(1744233726.175004) can0 10103001#6B6B6B6B7C7E6B6B
(1744233726.175158) can0 10103001#6B6B7E7D7E7E7E7E
(1744233726.175293) can0 10203001#6B6B6B6B6B6B5984
(1744233726.206421) can0 10603001#5A45354830363031
(1744233726.252708) can0 10003001#AA031E005F2C6C00
(1744233726.252842) can0 10103001#00000B3C03030100
(1744233726.252996) can0 10103001#03C56D6C6C6C6C6C
(1744233726.253135) can0 10103001#6C6C6C6C6C6C6C6C
(1744233726.253269) can0 10103001#6C6C6C6C6C6C6C6C
(1744233726.253404) can0 10103001#6C6C6C6C6C6C6C6C
(1744233726.253507) can0 10203001#F906
(1744233726.285545) can0 10003001#AA038000682C6D00
(1744233726.285699) can0 10103001#00000B3C03210100
(1744233726.285853) can0 10103001#031A205C5D5F375E
(1744233726.285988) can0 10103001#2F59372858255D5B
(1744233726.286137) can0 10103001#5D5C0D876D6D206E
(1744233726.286265) can0 10103001#6C6CA56D6D6D6C6D
(1744233726.286419) can0 10103001#6D6D6D6D6D6D6C72
(1744233726.286554) can0 10103001#5BA06D6D88929292
(1744233726.286687) can0 10103001#786D6D2DF16D6D06
(1744233726.286829) can0 10103001#F96D6DA4406D6D6C
(1744233726.286976) can0 10103001#6D6D6DB4616D6DA2
(1744233726.287137) can0 10103001#616D6D7B787E7E6D
(1744233726.287248) can0 10103001#6D6D6D6D92929292
(1744233726.287390) can0 10103001#6C6D6D6D6D09686D
(1744233726.287525) can0 10103001#6D6D6D6D6D6D6D6D
(1744233726.287679) can0 10103001#416C6D6D6D096D6D
(1744233726.287814) can0 10103001#6D7A786D6D6D3981
(1744233726.287949) can0 10103001#6D6D6D6D6D6D6D6D
(1744233726.288058) can0 10203001#6D6D82EC
(1744233726.288213) can0 10003001#AA038000682C6E00
(1744233726.288362) can0 10103001#00000B3C03030100
(1744233726.288503) can0 10103001#031A235F5E5C345D
(1744233726.288639) can0 10103001#2C5A342B5B265E58
(1744233726.288793) can0 10103001#5E5F0E846E6E236D
(1744233726.288920) can0 10103001#6F6FA66E6E6E6F6E
(1744233726.289061) can0 10103001#6E6E6E6E6E6E6F71
(1744233726.289200) can0 10103001#58A36E6E8B919191
(1744233726.289341) can0 10103001#7B6E6E2EF26E6E05
(1744233726.289489) can0 10103001#FA6E6EA7436E6E6F
(1744233726.289630) can0 10103001#6E6E6EB7626E6EA1
(1744233726.289765) can0 10103001#626E6E787B7D7D6E
(1744233726.289901) can0 10103001#6E6E6E6E91919191
(1744233726.290049) can0 10103001#6F6E6E6E6E0A6B6E
(1744233726.290194) can0 10103001#6E6E6E6E6E6E6E6E
(1744233726.290329) can0 10103001#426F6E6E6E0A6E6E
(1744233726.290464) can0 10103001#6E797B6E6E6E3A82
(1744233726.290598) can0 10103001#6E6E6E6E6E6E6E6E
(1744233726.290722) can0 10203001#6E6E3BDE
(1744233726.292889) can0 10003001#AA037800D42C7000
(1744233726.293042) can0 10103001#00000B3C03030100
(1744233726.293181) can0 10103001#03017072706FFEBD
(1744233726.293316) can0 10103001#863146BD958F8F8F
(1744233726.293470) can0 10103001#608F0F7170A87CA9
(1744233726.293605) can0 10103001#7CA17CA27CA47CA3
(1744233726.293754) can0 10103001#7CA57CBF7CA47CA4
(1744233726.293896) can0 10103001#7CA37CA57CA17CA2
(1744233726.294050) can0 10103001#7CA27C7070A97CBF
(1744233726.294188) can0 10103001#7CA37C7177666563
(1744233726.294322) can0 10103001#637030EC70701BE4
(1744233726.294477) can0 10103001#7070B95D70707170
(1744233726.294611) can0 10103001#708F8F8F8F707072
(1744233726.294766) can0 10103001#7050707070707070
(1744233726.294919) can0 10103001#707070703D737171
(1744233726.295054) can0 10103001#7070707066657070
(1744233726.295194) can0 10103001#7070656670707070
(1744233726.295316) can0 10203001#707007E6
(1744233726.295443) can0 10003001#AA0323004F2C7100
(1744233726.295603) can0 10103001#00000B3C03030100
(1744233726.295738) can0 10103001#0325717171BBA187
(1744233726.295892) can0 10103001#3071717171717171
(1744233726.296026) can0 10103001#717171717171716E
(1744233726.296169) can0 10103001#7171717171717171
(1744233726.296285) can0 10203001#7171717171554D
(1744233726.307411) can0 10603001#5A45354830363031
(1744233726.408441) can0 10603001#5A45354830363031
(1744233726.412524) can0 10003001#AA037C00802C7200
(1744233726.412676) can0 10103001#00000B3C03030100
(1744233726.412811) can0 10103001#03017270726DFCBF
(1744233726.412960) can0 10103001#843344BF978D8D8D
(1744233726.413141) can0 10103001#628D0D7372AA7EAB
(1744233726.413238) can0 10103001#7EA37EA07EA67EA1
(1744233726.413386) can0 10103001#7EA77EBD7EA67EA6
(1744233726.413521) can0 10103001#7EA17EA77EA37EA0
(1744233726.413676) can0 10103001#7EA07E7272AB7EBD
(1744233726.413811) can0 10103001#7EA17E7375646761
(1744233726.413952) can0 10103001#617232EE727219E6
(1744233726.414142) can0 10103001#7272BB5F72727372
(1744233726.414238) can0 10103001#728D8D8D8D727270
(1744233726.414372) can0 10103001#7252727272727272
(1744233726.414507) can0 10103001#727272723F717373
(1744233726.414641) can0 10103001#7272727264677272
(1744233726.414795) can0 10103001#7272676467676767
(1744233726.414936) can0 10203001#72727272727228D3
(1744233726.452613) can0 10003001#AA0323004F2C7300
(1744233726.452762) can0 10103001#00000B3C03030100
(1744233726.452897) can0 10103001#0325737373B9A385
(1744233726.453033) can0 10103001#3273737373737373
(1744233726.453174) can0 10103001#737373737373736C
(1744233726.453309) can0 10103001#7373737373737373
(1744233726.453451) can0 10203001#737373737318C0
(1744233726.509882) can0 10603001#5A45354830363031
(1744233726.532884) can0 10003001#AA037800D42C7400
(1744233726.533031) can0 10103001#00000B3C03030100
(1744233726.533178) can0 10103001#03017476746BFAB9
(1744233726.533331) can0 10103001#823542B970747474
(1744233726.533466) can0 10103001#648B0B7574AC78AD
(1744233726.533601) can0 10103001#78A578A678A078A7
(1744233726.533736) can0 10103001#78A178BB78A078A0
(1744233726.533890) can0 10103001#78A778A178A578A6
(1744233726.534024) can0 10103001#78A6787474AD78BB
(1744233726.534165) can0 10103001#78A7787573626167
(1744233726.534306) can0 10103001#677434E874741FE0
(1744233726.534440) can0 10103001#7474BD5974747574
(1744233726.534594) can0 10103001#7474747474747476
(1744233726.534727) can0 10103001#7454747474747474
(1744233726.534862) can0 10103001#7474747439777575
(1744233726.535003) can0 10103001#7474747463617474
(1744233726.535146) can0 10103001#7474616274747474
(1744233726.535242) can0 10203001#7474F922
(1744233726.610474) can0 10603001#5A45354830363031
(1744233726.613045) can0 10003001#AA0323004F2C7500
(1744233726.613186) can0 10103001#00000B3C03030100
(1744233726.613334) can0 10103001#0325757575BFA583
(1744233726.613475) can0 10103001#3475757575757575
(1744233726.613609) can0 10103001#757575757575756A
(1744233726.613744) can0 10103001#7575757575757575
(1744233726.613878) can0 10203001#7575757575CC17
(1744233726.652664) can0 10003001#AA037C00802C7600
(1744233726.652805) can0 10103001#00000B3C03030100
(1744233726.652953) can0 10103001#030176747669F8BB
(1744233726.653088) can0 10103001#803740BB55767676
(1744233726.653233) can0 10103001#6689097776AE7AAF
(1744233726.653368) can0 10103001#7AA77AA47AA27AA2
(1744233726.653522) can0 10103001#7AA37AB97AA27AA2
(1744233726.653656) can0 10103001#7AA57AA27AA77AA4
(1744233726.653791) can0 10103001#7AA47A7676AF7AB9
(1744233726.653926) can0 10103001#7AA57A7771606365
(1744233726.654080) can0 10103001#657636EA76761DE2
(1744233726.654220) can0 10103001#7676BF5B76767776
(1744233726.654355) can0 10103001#7677767676767674
(1744233726.654490) can0 10103001#7656767676767676
(1744233726.654624) can0 10103001#767676763B757777
(1744233726.654784) can0 10103001#7676767660637676
(1744233726.654919) can0 10103001#7676636063636363
(1744233726.655053) can0 10203001#767676767676B2B3
(1744233726.711845) can0 10603001#5A45354830363031
(1744233726.772861) can0 10003001#AA037800D42C7700
(1744233726.773013) can0 10103001#00000B3C03030100
(1744233726.773167) can0 10103001#030177757768F9BA
(1744233726.773300) can0 10103001#813641BA54777777
(1744233726.773442) can0 10103001#6788087677AF7BAE
(1744233726.773576) can0 10103001#7BA67BA57BA37BA3
(1744233726.773717) can0 10103001#7BA27BB87BA37BA3
(1744233726.773859) can0 10103001#7BA47BA37BA67BA5
(1744233726.774001) can0 10103001#7BA57B7777AE7BB8
(1744233726.774155) can0 10103001#7BA47B7670616264
(1744233726.774276) can0 10103001#647737EB77771CE3
(1744233726.774430) can0 10103001#7777BE5A77777677
(1744233726.774564) can0 10103001#7776777777777775
(1744233726.774705) can0 10103001#7757777777777777
(1744233726.774840) can0 10103001#777777773A747676
(1744233726.774989) can0 10103001#7777777761627777
(1744233726.775154) can0 10103001#7777626177777777
(1744233726.775233) can0 10203001#77777BD8
(1744233726.775386) can0 10003001#AA0323004F2C7800
(1744233726.775520) can0 10103001#00000B3C03030100
(1744233726.775674) can0 10103001#0325787878B2A88E
(1744233726.775809) can0 10103001#3978787878787878
(1744233726.775950) can0 10103001#7878787878787867
(1744233726.776085) can0 10103001#7878787878787878
(1744233726.776224) can0 10203001#7878787878C01E
(1744233726.785956) can0 10003001#AA038000682C7900
(1744233726.786090) can0 10103001#00000B3C03210100
(1744233726.786226) can0 10103001#031A3448494B234A
(1744233726.786386) can0 10103001#3B4D233C4C31494F
(1744233726.786522) can0 10103001#494819937979347A
(1744233726.786656) can0 10103001#7878B17979797879
(1744233726.786791) can0 10103001#7979797979797866
(1744233726.786945) can0 10103001#4FB479795A797979
(1744233726.787087) can0 10103001#6C797939E5797912
(1744233726.787225) can0 10103001#ED7979B054797978
(1744233726.787360) can0 10103001#797979A0757979B6
(1744233726.787495) can0 10103001#7579796F6C6A6A79
(1744233726.787649) can0 10103001#7979797979797979
(1744233726.787783) can0 10103001#51707979791D7C79
(1744233726.787917) can0 10103001#7979797979797979
(1744233726.788078) can0 10103001#55787979791D7979
(1744233726.788219) can0 10103001#796E6C7979792D95
(1744233726.788354) can0 10103001#7979797979797979
(1744233726.788450) can0 10203001#797902F7
(1744233726.788611) can0 10003001#AA038000682C7A00
(1744233726.788764) can0 10103001#00000B3C03030100
(1744233726.788900) can0 10103001#031A374B4A482049
(1744233726.789035) can0 10103001#384E203F4F324A4C
(1744233726.789194) can0 10103001#4A4B1A907A7A3779
(1744233726.789328) can0 10103001#7B7BB27A7A7A7B7A
(1744233726.789463) can0 10103001#7A7A7A7A7A7A7B65
(1744233726.789596) can0 10103001#4CB77A7A597A7A7A
(1744233726.789738) can0 10103001#6F7A7A3AE67A7A11
(1744233726.789873) can0 10103001#EE7A7AB3577A7A7B
(1744233726.790027) can0 10103001#7A7A7AA3767A7AB5
(1744233726.790163) can0 10103001#767A7A6C6F69697A
(1744233726.790305) can0 10103001#7A7A7A7A7A7A7A7A
(1744233726.790440) can0 10103001#52737A7A7A1E7F7A
(1744233726.790575) can0 10103001#7A7A7A7A7A7A7A7A
(1744233726.790717) can0 10103001#567B7A7A7A1E7A7A
(1744233726.813010) can0 10603001#5A45354830363031
(1744233726.892889) can0 10003001#AA037C00802C7B00
(1744233726.893023) can0 10103001#00000B3C03030100
(1744233726.893175) can0 10103001#03017B797B64F5B6
(1744233726.893316) can0 10103001#8D3A4EB67F7B7B7B
(1744233726.893451) can0 10103001#6B84047A7BA377A2
(1744233726.893586) can0 10103001#77AA77A977AF77A8
(1744233726.893735) can0 10103001#77AE77B477AF77AF
(1744233726.893877) can0 10103001#77A877AF77AA77A9
(1744233726.894011) can0 10103001#77A9777B7BA277B4
(1744233726.894159) can0 10103001#77A8777A7C6D6E68
(1744233726.894287) can0 10103001#687B3BE77B7B10EF
(1744233726.894428) can0 10103001#7B7BB2567B7B7A7B
(1744233726.894582) can0 10103001#7B7B7B7B7B7B7B79
(1744233726.894717) can0 10103001#7B5B7B7B7B7B7B7B
(1744233726.894851) can0 10103001#7B7B7B7B36787A7A
(1744233726.894986) can0 10103001#7B7B7B7B6D6E7B7B
(1744233726.895159) can0 10103001#7B7B6E6D6E6E6E6E
(1744233726.895281) can0 10203001#7B7B7B7B7B7B3E57
(1744233726.913452) can0 10603001#5A45354830363031
(1744233726.932937) can0 10003001#AA0323004F2C7C00
(1744233726.933091) can0 10103001#00000B3C03030100
(1744233726.933230) can0 10103001#03257C7C7CB6AC8A
(1744233726.933385) can0 10103001#3D7C7C7C7C7C7C7C
(1744233726.933520) can0 10103001#7C7C7C7C7C7C7C63
(1744233726.933674) can0 10103001#7C7C7C7C7C7C7C7C
(1744233726.933808) can0 10203001#7C7C7C7C7C5944
(1744233727.012893) can0 10003001#AA037800D42C7D00
(1744233727.013034) can0 10103001#00000B3C03030100
(1744233727.013189) can0 10103001#03017D7F7D62F3B0
(1744233727.013330) can0 10103001#8B3C48B0797D7D7D
(1744233727.013472) can0 10103001#6D82027C7DA571A4
(1744233727.013614) can0 10103001#71AC71AF71A971AE
(1744233727.013755) can0 10103001#71A871B271A971A9
(1744233727.013890) can0 10103001#71AE71A971AC71AF
(1744233727.014025) can0 10103001#71AF717D7DA471B2
(1744233727.014182) can0 10103001#71AE717C7A6B686E
(1744233727.014318) can0 10103001#6E7D3DE17D7D16E9
(1744233727.014453) can0 10103001#7D7DB4507D7D7C7D
(1744233727.014601) can0 10103001#7D7D7D7D7D7D7D7F
(1744233727.014762) can0 10103001#7D5D7D7D7D7D7D7D
(1744233727.014897) can0 10103001#7D7D7D7D307E7C7C
(1744233727.015051) can0 10103001#7D7D7D7D6A687D7D
(1744233727.015202) can0 10103001#7D7D686B7D7D7D7D
(1744233727.015312) can0 10203001#7D7DC753
(1744233727.015447) can0 10603001#5A45354830363031
(1744233727.092428) can0 10003001#AA0323004F2C7E00
(1744233727.092568) can0 10103001#00000B3C03030100
(1744233727.092716) can0 10103001#03257E7E7EB4AE88
(1744233727.092871) can0 10103001#3F7E7E7E7E7E7E7E
(1744233727.093006) can0 10103001#7E7E7E7E7E7E7E61
(1744233727.093167) can0 10103001#7E7E7E7E7E7E7E7E
(1744233727.093301) can0 10203001#7E7E7E7E7E14C9
(1744233727.115848) can0 10603001#5A45354830363031
(1744233727.132881) can0 10003001#AA037C00802C7F00
(1744233727.133030) can0 10103001#00000B3C03030100
(1744233727.133187) can0 10103001#03017F7D7F60F1B2
(1744233727.133328) can0 10103001#893E4AB2B9808080
(1744233727.133463) can0 10103001#6F80007E7FA773A6
(1744233727.133616) can0 10103001#73AE73AD73AB73AB
(1744233727.133751) can0 10103001#73AA73B073AB73AB
(1744233727.133886) can0 10103001#73AC73AB73AE73AD
(1744233727.134040) can0 10103001#73AD737F7FA673B0
(1744233727.134175) can0 10103001#73AC737E78696A6C
(1744233727.134317) can0 10103001#6C7F3FE37F7F14EB
(1744233727.134465) can0 10103001#7F7FB6527F7F7E7F
(1744233727.134606) can0 10103001#7F828080807F7F7D
(1744233727.134756) can0 10103001#7F5F7F7F7F7F7F7F
(1744233727.134911) can0 10103001#7F7F7F7F327C7E7E
(1744233727.135046) can0 10103001#7F7F7F7F686A7F7F
(1744233727.135200) can0 10103001#7F7F6A696A6A6A6A
(1744233727.135335) can0 10203001#7F7F7F7F7F7FEF4E
(1744233727.216864) can0 10603001#5A45354830363031
(1744233727.252796) can0 10003001#AA037800D42C8000
(1744233727.252950) can0 10103001#00000B3C03030100
(1744233727.253099) can0 10103001#03018082809F0E4D
(1744233727.253242) can0 10103001#76C1B44DA3808080
(1744233727.253377) can0 10103001#907FFF8180588C59
(1744233727.253531) can0 10103001#8C518C528C548C53
(1744233727.253665) can0 10103001#8C558C4F8C548C54
(1744233727.253801) can0 10103001#8C538C548C518C52
(1744233727.253942) can0 10103001#8C528C8080598C4F
(1744233727.254090) can0 10103001#8C538C8187969593
(1744233727.254229) can0 10103001#9380C01C8080EB14
(1744233727.254383) can0 10103001#808049AD80808180
(1744233727.254518) can0 10103001#8081808080808082
(1744233727.254672) can0 10103001#80A0808080808080
(1744233727.254821) can0 10103001#80808080CD838181
(1744233727.254962) can0 10103001#8080808097958080
(1744233727.255172) can0 10103001#8080959680808080
(1744233727.255231) can0 10203001#808080DF
(1744233727.255365) can0 10003001#AA0323004F2C8100
(1744233727.255507) can0 10103001#00000B3C03030100
(1744233727.255661) can0 10103001#03258181814B5177
(1744233727.255808) can0 10103001#C081818181818181
(1744233727.255950) can0 10103001#818181818181819E
(1744233727.256097) can0 10103001#8181818181818181
(1744233727.256242) can0 10203001#81818181815B89
(1744233727.256390) can0 10003001#AA031E005F2C8200
(1744233727.256523) can0 10103001#00000B3C03030100
(1744233727.256683) can0 10103001#03C5838282828282
(1744233727.256831) can0 10103001#8282828282828282
(1744233727.256972) can0 10103001#8282828282828282
(1744233727.257172) can0 10103001#8282828282828282
(1744233727.257224) can0 10203001#D74B
(1744233727.285951) can0 10003001#AA038000682C8300
(1744233727.286097) can0 10103001#00000B3C03210100
(1744233727.286236) can0 10103001#031ACEB2B3B1D9B0
(1744233727.286378) can0 10103001#C1B7D9C6B6CBB3B5
(1744233727.286526) can0 10103001#B3B2E3698383CE80
(1744233727.286667) can0 10103001#82824B8383838283
(1744233727.286815) can0 10103001#838383838383829C
(1744233727.286957) can0 10103001#B74E8383A0838383
(1744233727.287105) can0 10103001#968383C31F8383E8
(1744233727.287249) can0 10103001#1783834AAE838382
(1744233727.287392) can0 10103001#8383835A8F83834C
(1744233727.287534) can0 10103001#8F83839596909083
(1744233727.287688) can0 10103001#8383838383838383
(1744233727.287843) can0 10103001#AB8A838383E78683
(1744233727.287978) can0 10103001#8383838383838383
(1744233727.288173) can0 10103001#AF82838383E78383
(1744233727.288283) can0 10103001#839496838383D76F
(1744233727.288418) can0 10103001#8383838383838383
(1744233727.288536) can0 10203001#8383E792
(1744233727.288677) can0 10003001#AA038000682C8400
(1744233727.288831) can0 10103001#00000B3C03030100
(1744233727.288966) can0 10103001#031AC9B5B4B6DEB7
(1744233727.289173) can0 10103001#C6B0DEC1B1CCB4B2
(1744233727.289251) can0 10103001#B4B5E46E8484C987
(1744233727.289392) can0 10103001#85854C8484848584
(1744233727.289527) can0 10103001#848484848484859B
(1744233727.289681) can0 10103001#B0498484A7848484
(1744233727.289816) can0 10103001#918484C4188484EF
(1744233727.289950) can0 10103001#1084844DA9848485
(1744233727.290085) can0 10103001#8484845D8884844B
(1744233727.290227) can0 10103001#8884849291979784
(1744233727.290368) can0 10103001#8484848484848484
(1744233727.290515) can0 10103001#AC8D848484E08184
(1744233727.290657) can0 10103001#8484848484848484
(1744233727.290784) can0 10103001#A885848484E08484
(1744233727.317875) can0 10603001#5A45354830363031
(1744233727.372896) can0 10003001#AA037C00802C8600
(1744233727.373049) can0 10103001#00000B3C03030100
(1744233727.373189) can0 10103001#030186848699084B
(1744233727.373324) can0 10103001#70C7B24BA5868686
(1744233727.373465) can0 10103001#9679F987865E8A5F
(1744233727.373619) can0 10103001#8A578A548A528A55
(1744233727.373753) can0 10103001#8A538A498A528A52
(1744233727.373888) can0 10103001#8A558A528A578A54
(1744233727.374022) can0 10103001#8A548A86865F8A49
(1744233727.374176) can0 10103001#8A558A8781909395
(1744233727.374312) can0 10103001#9586C61A8686ED12
(1744233727.374453) can0 10103001#86864FAB86868786
(1744233727.374588) can0 10103001#8687868686868684
(1744233727.374731) can0 10103001#86A6868686868686
(1744233727.374864) can0 10103001#86868686CB858787
(1744233727.375018) can0 10103001#8686868691938686
(1744233727.375179) can0 10103001#8686939093939393
(1744233727.375302) can0 10203001#8686868686869BB9
(1744233727.412855) can0 10003001#AA0323004F2C8700
(1744233727.413002) can0 10103001#00000B3C03030100
(1744233727.413178) can0 10103001#03258787874D5771
(1744233727.413274) can0 10103001#C687878787878787
(1744233727.413409) can0 10103001#8787878787878798
(1744233727.413564) can0 10103001#8787878787878787
(1744233727.413686) can0 10203001#87878787878F5E
(1744233727.418872) can0 10603001#5A45354830363031
(1744233727.492925) can0 10003001#AA037800D42C8800
(1744233727.493073) can0 10103001#00000B3C03030100
(1744233727.493212) can0 10103001#0301888A88970645
(1744233727.493353) can0 10103001#7EC9BC456D777777
(1744233727.493480) can0 10103001#9877F78988508451
(1744233727.493621) can0 10103001#8459845A845C845B
(1744233727.493775) can0 10103001#845D8447845C845C
(1744233727.493910) can0 10103001#845B845C8459845A
(1744233727.494044) can0 10103001#845A848888518447
(1744233727.494187) can0 10103001#845B84898F9E9D9B
(1744233727.494328) can0 10103001#9B88C8148888E31C
(1744233727.494476) can0 10103001#888841A588888988
(1744233727.494617) can0 10103001#887777777788888A
(1744233727.494752) can0 10103001#88A8888888888888
(1744233727.494887) can0 10103001#88888888C58B8989
(1744233727.495022) can0 10103001#888888889F9D8888
(1744233727.495180) can0 10103001#88889D9E88888888
(1744233727.495283) can0 10203001#88883EA8
(1744233727.519506) can0 10603001#5A45354830363031
(1744233727.572910) can0 10003001#AA0323004F2C8900
(1744233727.573044) can0 10103001#00000B3C03030100
(1744233727.573203) can0 10103001#03258989894F597F
(1744233727.573337) can0 10103001#C889898989898989
(1744233727.573472) can0 10103001#8989898989898996
(1744233727.573613) can0 10103001#8989898989898989
(1744233727.573748) can0 10203001#89898989896F6C
(1744233727.612898) can0 10003001#AA037C00802C8A00
(1744233727.613031) can0 10103001#00000B3C03030100
(1744233727.613185) can0 10103001#03018A888A950647
(1744233727.613326) can0 10103001#7CCBBE476F757575
(1744233727.613461) can0 10103001#9A75F58B8A528653
(1744233727.613595) can0 10103001#865B8658865E8659
(1744233727.613756) can0 10103001#865F8645865E865E
(1744233727.613891) can0 10103001#8659865E865B8658
(1744233727.614026) can0 10103001#8658868A8A538645
(1744233727.614185) can0 10103001#8659868B8D9C9F99
(1744233727.614319) can0 10103001#998ACA168A8AE11E
(1744233727.614454) can0 10103001#8A8A43A78A8A8B8A
(1744233727.614589) can0 10103001#8A757575758A8A88
(1744233727.614723) can0 10103001#8AAA8A8A8A8A8A8A
(1744233727.614864) can0 10103001#8A8A8A8AC7898B8B
(1744233727.615018) can0 10103001#8A8A8A8A9D9F8A8A
(1744233727.615185) can0 10103001#8A8A9F9C9F9F9F9F
(1744233727.615282) can0 10203001#8A8A8A8A8A8A3492
(1744233727.620396) can0 10603001#5A45354830363031
(1744233727.721863) can0 10603001#5A45354830363031
(1744233727.732896) can0 10003001#AA037800D42C8B00
(1744233727.733049) can0 10103001#00000B3C03030100
(1744233727.733189) can0 10103001#03018B898B940746
(1744233727.733324) can0 10103001#7DCABF468F8B8B8B
(1744233727.733478) can0 10103001#9B74F48A8B538752
(1744233727.733612) can0 10103001#875A8759875F8758
(1744233727.733753) can0 10103001#875E8744875F875F
(1744233727.733901) can0 10103001#8758875F875A8759
(1744233727.734043) can0 10103001#8759878B8B528744
(1744233727.734189) can0 10103001#8758878A8C9D9E98
(1744233727.734318) can0 10103001#988BCB178B8BE01F
(1744233727.734466) can0 10103001#8B8B42A68B8B8A8B
(1744233727.734607) can0 10103001#8B8B8B8B8B8B8B89
(1744233727.734742) can0 10103001#8BAB8B8B8B8B8B8B
(1744233727.734877) can0 10103001#8B8B8B8BC6888A8A
(1744233727.735012) can0 10103001#8B8B8B8B9C9E8B8B
(1744233727.735189) can0 10103001#8B8B9E9D8B8B8B8B
(1744233727.735270) can0 10203001#8B8B0683
(1744233727.735411) can0 10003001#AA0323004F2C8C00
(1744233727.735565) can0 10103001#00000B3C03030100
(1744233727.735700) can0 10103001#03258C8C8C4A5C7A
(1744233727.735834) can0 10103001#CD8C8C8C8C8C8C8C
(1744233727.735989) can0 10103001#8C8C8C8C8C8C8C93
(1744233727.736124) can0 10103001#8C8C8C8C8C8C8C8C
(1744233727.736247) can0 10203001#8C8C8C8C8C51D0
(1744233727.785943) can0 10003001#AA038000682C8D00
(1744233727.786077) can0 10103001#00000B3C03210100
(1744233727.786236) can0 10103001#031AC0BCBDBFD7BE
(1744233727.786370) can0 10103001#CFB9D7C8B8C5BDBB
(1744233727.786504) can0 10103001#BDBCED678D8DC08E
(1744233727.786645) can0 10103001#8C8C458D8D8D8C8D
(1744233727.786779) can0 10103001#8D8D8D8D8D8D8C92
(1744233727.786934) can0 10103001#B9408D8D898D8D8D
(1744233727.787068) can0 10103001#988D8DCD118D8DE6
(1744233727.787211) can0 10103001#198D8D44A08D8D8C
(1744233727.787345) can0 10103001#8D8D8D54818D8D42
(1744233727.787500) can0 10103001#818D8D9B989E9E8D
(1744233727.787635) can0 10103001#8D8D8D8D8D8D8D8D
(1744233727.787769) can0 10103001#A5848D8D8DE9888D
(1744233727.787911) can0 10103001#8D8D8D8D8D8D8D8D
(1744233727.788046) can0 10103001#A18C8D8D8DE98D8D
(1744233727.788199) can0 10103001#8D9A988D8D8DD961
(1744233727.788322) can0 10103001#8D8D8D8D8D8D8D8D
(1744233727.788444) can0 10203001#8D8D8B41
(1744233727.788579) can0 10003001#AA038000682C8E00
(1744233727.788729) can0 10103001#00000B3C03030100
(1744233727.788865) can0 10103001#031AC3BFBEBCD4BD
(1744233727.789019) can0 10103001#CCBAD4CBBBC6BEB8
(1744233727.789191) can0 10103001#BEBFEE648E8EC38D
(1744233727.789294) can0 10103001#8F8F468E8E8E8F8E
(1744233727.789430) can0 10103001#8E8E8E8E8E8E8F91
(1744233727.789583) can0 10103001#BA438E8E8A8E8E8E
(1744233727.789718) can0 10103001#9B8E8ECE128E8EE5
(1744233727.789852) can0 10103001#1A8E8E47A38E8E8F
(1744233727.790006) can0 10103001#8E8E8E57828E8E41
(1744233727.790191) can0 10103001#828E8E989B9D9D8E
(1744233727.790281) can0 10103001#8E8E8E8E8E8E8E8E
(1744233727.790416) can0 10103001#A6878E8E8EEA8B8E
(1744233727.790571) can0 10103001#8E8E8E8E8E8E8E8E
(1744233727.790706) can0 10103001#A28F8E8E8EEA8E8E
(1744233727.822880) can0 10603001#5A45354830363031
(1744233727.852754) can0 10003001#AA037C00802C8F00
(1744233727.852895) can0 10103001#00000B3C03030100
(1744233727.853043) can0 10103001#03018F8D8F900342
(1744233727.853193) can0 10103001#79CEBA426A707070
(1744233727.853319) can0 10103001#9F70F08E8F578356
(1744233727.853474) can0 10103001#835E835D835B835C
(1744233727.853608) can0 10103001#835A8340835B835B
(1744233727.853763) can0 10103001#835C835B835E835D
(1744233727.853897) can0 10103001#835D838F8F568340
(1744233727.854033) can0 10103001#835C838E88999A9C
(1744233727.854194) can0 10103001#9C8FCF138F8FE41B
(1744233727.854328) can0 10103001#8F8F46A28F8F8E8F
(1744233727.854482) can0 10103001#8F707070708F8F8D
(1744233727.854618) can0 10103001#8FAF8F8F8F8F8F8F
(1744233727.854771) can0 10103001#8F8F8F8FC28C8E8E
(1744233727.854906) can0 10103001#8F8F8F8F989A8F8F
(1744233727.855055) can0 10103001#8F8F9A999A9A9A9A
(1744233727.855194) can0 10203001#8F8F8F8F8F8FFD5C
(1744233727.892862) can0 10003001#AA0323004F2C9000
(1744233727.893003) can0 10103001#00000B3C03030100
(1744233727.893195) can0 10103001#0325909090564066
(1744233727.893285) can0 10103001#D190909090909090
(1744233727.893426) can0 10103001#909090909090908F
(1744233727.893573) can0 10103001#9090909090909090
(1744233727.893695) can0 10203001#90909090909D15
(1744233727.923457) can0 10603001#5A45354830363031
(1744233727.972885) can0 10003001#AA037800D42C9100
(1744233727.973039) can0 10103001#00000B3C03030100
(1744233727.973198) can0 10103001#03019193918E1D5C
(1744233727.973313) can0 10103001#67D0A45C746E6E6E
(1744233727.973467) can0 10103001#816EEE9091499D48
(1744233727.973602) can0 10103001#9D409D439D459D42
(1744233727.973736) can0 10103001#9D449D5E9D459D45
(1744233727.973891) can0 10103001#9D429D459D409D43
(1744233727.974033) can0 10103001#9D439D9191489D5E
(1744233727.974198) can0 10103001#9D429D9096878482
(1744233727.974307) can0 10103001#8291D10D9191FA05
(1744233727.974455) can0 10103001#919158BC91919091
(1744233727.974590) can0 10103001#916E6E6E6E919193
(1744233727.974731) can0 10103001#91B1919191919191
(1744233727.974865) can0 10103001#91919191DC929090
(1744233727.975000) can0 10103001#9191919186849191
(1744233727.975198) can0 10103001#9191848791919191
(1744233727.975256) can0 10203001#91918D34
(1744233728.024492) can0 10603001#5A45354830363031
(1744233728.052863) can0 10003001#AA0323004F2C9200
(1744233728.053017) can0 10103001#00000B3C03030100
(1744233728.053201) can0 10103001#0325929292514264
(1744233728.053285) can0 10103001#D392929292929292
(1744233728.053439) can0 10103001#929292929292928D
(1744233728.053574) can0 10103001#9292929292929292
(1744233728.053715) can0 10203001#9292929292D304
(1744233728.092887) can0 10003001#AA037C00802C9300
(1744233728.093029) can0 10103001#00000B3C03030100
(1744233728.093202) can0 10103001#03019391938C195E
(1744233728.093318) can0 10103001#65D2A65E766C6C6C
(1744233728.093453) can0 10103001#836CEC92934B9F4A
(1744233728.093607) can0 10103001#9F429F419F479F40
(1744233728.093743) can0 10103001#9F469F5C9F479F47
(1744233728.093896) can0 10103001#9F409F479F429F41
(1744233728.094031) can0 10103001#9F419F93934A9F5C
(1744233728.094202) can0 10103001#9F409F9294858680
(1744233728.094325) can0 10103001#8093D30F9393F807
(1744233728.094460) can0 10103001#93935ABE93939293
(1744233728.094593) can0 10103001#936C6C6C6C939391
(1744233728.094748) can0 10103001#93B3939393939393
(1744233728.094889) can0 10103001#93939393DE909292
(1744233728.095024) can0 10103001#9393939385869393
(1744233728.095202) can0 10103001#9393868586868686
(1744233728.095299) can0 10203001#9393939393939B36
(1744233728.125822) can0 10603001#5A45354830363031
(1744233728.212901) can0 10003001#AA037800D42C9400
(1744233728.213053) can0 10103001#00000B3C03030100
(1744233728.213207) can0 10103001#03019496948B1E59
(1744233728.213328) can0 10103001#62D5A159716B6B6B
(1744233728.213463) can0 10103001#846BEB95944C984D
(1744233728.213612) can0 10103001#9845984698409847
(1744233728.213754) can0 10103001#9841985B98409840
(1744233728.213889) can0 10103001#9847984098459846
(1744233728.214023) can0 10103001#98469894944D985B
(1744233728.214207) can0 10103001#9847989593828187
(1744233728.214316) can0 10103001#8794D4089494FF00
(1744233728.214450) can0 10103001#94945DB994949594
(1744233728.214605) can0 10103001#946B6B6B6B949496
(1744233728.214739) can0 10103001#94B4949494949494
(1744233728.214874) can0 10103001#94949494D9979595
(1744233728.215014) can0 10103001#9494949483819494
(1744233728.215207) can0 10103001#9494818294949494
(1744233728.215264) can0 10203001#94946C25
(1744233728.215406) can0 10003001#AA0323004F2C9500
(1744233728.215559) can0 10103001#00000B3C03030100
(1744233728.215694) can0 10103001#0325959595564563
(1744233728.215844) can0 10103001#D495959595959595
(1744233728.215985) can0 10103001#959595959595958A
(1744233728.216120) can0 10103001#9595959595959595
(1744233728.216245) can0 10203001#9595959595A035
(1744233728.226430) can0 10603001#5A45354830363031
(1744233728.252697) can0 10003001#AA031E005F2C9600
(1744233728.252851) can0 10103001#00000B3C03030100
(1744233728.252986) can0 10103001#03C5979696969696
(1744233728.253119) can0 10103001#9696969696969696
(1744233728.253265) can0 10103001#9696969696969696
(1744233728.253400) can0 10103001#9696969696969696
(1744233728.253503) can0 10203001#2FF2
(1744233728.285538) can0 10003001#AA038000682C9700
(1744233728.285692) can0 10103001#00000B3C03210100
(1744233728.285827) can0 10103001#031ADAA6A7A5CDA4
(1744233728.285981) can0 10103001#D5A3CDD2A2DFA7A1
(1744233728.286115) can0 10103001#A7A6F77D9797DA94
(1744233728.286261) can0 10103001#96965F9797979697
(1744233728.286395) can0 10103001#9797979797979688
(1744233728.286529) can0 10103001#A35A979793979797
(1744233728.286678) can0 10103001#829797D70B9797FC
(1744233728.286820) can0 10103001#0397975EBA979796
(1744233728.286954) can0 10103001#9797974E9B979758
(1744233728.287108) can0 10103001#9B97978182848497
(1744233728.287248) can0 10103001#9797979797979797
(1744233728.287384) can0 10103001#BF9E979797F39297
(1744233728.287518) can0 10103001#9797979797979797
(1744233728.287672) can0 10103001#BB96979797F39797
(1744233728.287807) can0 10103001#978082979797C37B
(1744233728.287948) can0 10103001#9797979797979797
(1744233728.288064) can0 10203001#97972BA7
(1744233728.288210) can0 10003001#AA038000682C9800
(1744233728.288358) can0 10103001#00000B3C03030100
(1744233728.288493) can0 10103001#031AD5A9A8AAC2AB
(1744233728.288634) can0 10103001#DAACC2DDADD0A8AE
(1744233728.288782) can0 10103001#A8A9F8729898D59B
(1744233728.288917) can0 10103001#9999509898989998
(1744233728.289059) can0 10103001#9898989898989987
(1744233728.289209) can0 10103001#AC5598989C989898
(1744233728.289332) can0 10103001#8D9898D8049898F3
(1744233728.289466) can0 10103001#0C989851B5989899
(1744233728.289621) can0 10103001#9898984194989857
(1744233728.289755) can0 10103001#9498988E8D8B8B98
(1744233728.289897) can0 10103001#9898989898989898
(1744233728.290030) can0 10103001#B091989898FC9D98
(1744233728.290209) can0 10103001#9898989898989898
(1744233728.290320) can0 10103001#B499989898FC9898
(1744233728.290461) can0 10103001#988F8D989898CC74
(1744233728.290587) can0 10103001#9898989898989898
(1744233728.290698) can0 10203001#98988056
(1744233728.290851) can0 10003001#AA032000702C9900
(1744233728.327859) can0 10603001#5A45354830363031
(1744233728.332929) can0 10003001#AA037C00802C9A00
(1744233728.333076) can0 10103001#00000B3C03030100
(1744233728.333218) can0 10103001#03019A989A851057
(1744233728.333352) can0 10103001#6CDBAE579E9A9A9A
(1744233728.333501) can0 10103001#8A65E59B9A429643
(1744233728.333642) can0 10103001#96489648964E9649
(1744233728.333776) can0 10103001#964E9655964E964E
(1744233728.333917) can0 10103001#9649964E964B9648
(1744233728.334052) can0 10103001#9648969A9A439655
(1744233728.334211) can0 10103001#9649969B9D8C8F89
(1744233728.334346) can0 10103001#899ADA069A9AF10E
(1744233728.334481) can0 10103001#9A9A53B79A9A9B9A
(1744233728.334615) can0 10103001#9A9A9A9A9A9A9A98
(1744233728.334757) can0 10103001#9A9A9A9A9A9A9A9A
(1744233728.334910) can0 10103001#9A9A9A9AD7999B9B
(1744233728.335045) can0 10103001#9A9A9A9A8D8F9A9A
(1744233728.335211) can0 10103001#9A9A8F8C8F8F8F8F
(1744233728.335320) can0 10203001#9A9A9A9A9A9A6A32
(1744233728.372835) can0 10003001#AA0323004F2C9B00
(1744233728.372969) can0 10103001#00000B3C03030100
(1744233728.373118) can0 10103001#03259B9B9B584B6D
(1744233728.373263) can0 10103001#DA9B9B9B9B9B9B9B
(1744233728.373398) can0 10103001#9B9B9B9B9B9B9B84
(1744233728.373532) can0 10103001#9B9B9B9B9B9B9B9B
(1744233728.373667) can0 10203001#9B9B9B9B9B4657
(1744233728.428865) can0 10603001#5A45354830363031
(1744233728.452921) can0 10003001#AA037800D42C9C00
(1744233728.453074) can0 10103001#00000B3C03030100
(1744233728.453215) can0 10103001#03019C9E9C831651
(1744233728.453350) can0 10103001#6ADDA951989C9C9C
(1744233728.453485) can0 10103001#8C63E39D9C449046
(1744233728.453635) can0 10103001#904E904E9048904F
(1744233728.453776) can0 10103001#9048905390489048
(1744233728.453924) can0 10103001#904F9048904D904E
(1744233728.454065) can0 10103001#904E909C9C469053
(1744233728.454215) can0 10103001#904F909D9B8A898F
(1744233728.454357) can0 10103001#8F9CDC009C9CF708
(1744233728.454492) can0 10103001#9C9C55B19C9C9D9C
(1744233728.454627) can0 10103001#9C9C9C9C9C9C9C9E
(1744233728.454761) can0 10103001#9CBC9C9C9C9C9C9C
(1744233728.454902) can0 10103001#9C9C9C9CD19F9D9D
(1744233728.455056) can0 10103001#9C9C9C9C8A899C9C
(1744233728.455215) can0 10103001#9C9C898A9C9C9C9C
(1744233728.455288) can0 10203001#9C9CF4B0
(1744233728.529390) can0 10603001#5A45354830363031
(1744233728.532823) can0 10003001#AA0323004F2C9D00
(1744233728.532976) can0 10103001#00000B3C03030100
(1744233728.533111) can0 10103001#03259D9D9D5E4D6B
(1744233728.533250) can0 10103001#DC9D9D9D9D9D9D9D
(1744233728.533391) can0 10103001#9D9D9D9D9D9D9D82
(1744233728.533539) can0 10103001#9D9D9D9D9D9D9D9D
(1744233728.533657) can0 10203001#9D9D9D9D9D9280
(1744233728.572938) can0 10003001#AA037C00802C9E00
(1744233728.573085) can0 10103001#00000B3C03030100
(1744233728.573226) can0 10103001#03019E9C9E811453
(1744233728.573361) can0 10103001#68DFAB539A9E9E9E
(1744233728.573503) can0 10103001#8E61E19F9E469244
(1744233728.573650) can0 10103001#924C924C924A924D
(1744233728.573791) can0 10103001#924A9251924A924A
(1744233728.573926) can0 10103001#924D924A924F924C
(1744233728.574061) can0 10103001#924C929E9E449251
(1744233728.574220) can0 10103001#924D929F99888B8D
(1744233728.574354) can0 10103001#8D9EDE029E9EF50A
(1744233728.574488) can0 10103001#9E9E57B39E9E9F9E
(1744233728.574623) can0 10103001#9E9E9E9E9E9E9E9C
(1744233728.574764) can0 10103001#9EBE9E9E9E9E9E9E
(1744233728.574918) can0 10103001#9E9E9E9ED39D9F9F
(1744233728.575044) can0 10103001#9E9E9E9E898B9E9E
(1744233728.575220) can0 10103001#9E9E8B888B8B8B8B
(1744233728.575323) can0 10203001#9E9E9E9E9E9E1253
(1744233728.631068) can0 10603001#5A45354830363031
(1744233728.692905) can0 10003001#AA037800D42C9F00
(1744233728.693052) can0 10103001#00000B3C03030100
(1744233728.693224) can0 10103001#03019F9D9F801552
(1744233728.693327) can0 10103001#69DEA9529B9F9F9F
(1744233728.693476) can0 10103001#8F60E09E9F479345
(1744233728.693617) can0 10103001#934E934D934B934C
(1744233728.693752) can0 10103001#934A9350934B934B
(1744233728.693893) can0 10103001#934C934B934E934D
(1744233728.694035) can0 10103001#934D939F9F459350
(1744233728.694224) can0 10103001#934C939E98898A8C
(1744233728.694327) can0 10103001#8C9FDF039F9FF40B
(1744233728.694468) can0 10103001#9F9F56B29F9F9E9F
(1744233728.694616) can0 10103001#9F9F9F9F9F9F9F9D
(1744233728.694771) can0 10103001#9FBF9F9F9F9F9F9F
(1744233728.694906) can0 10103001#9F9F9F9FD29C9E9E
(1744233728.695060) can0 10103001#9F9F9F9F888A9F9F
(1744233728.695225) can0 10103001#9F9F8A899F9F9F9F
(1744233728.695302) can0 10203001#9F9F4525
(1744233728.695456) can0 10003001#AA0323004F2CA000
(1744233728.695610) can0 10103001#00000B3C03030100
(1744233728.695736) can0 10103001#0325A0A0A0637056
(1744233728.695897) can0 10103001#E1A0A0A0A0A0A0A0
(1744233728.696032) can0 10103001#A0A0A0A0A0A0A0BF
(1744233728.696224) can0 10103001#A0A0A0A0A0A0A0A0
(1744233728.696320) can0 10203001#A0A0A0A0A037F7
(1744233728.731863) can0 10603001#5A45354830363031
(1744233728.785953) can0 10003001#AA038000682CA100
(1744233728.786101) can0 10103001#00000B3C03210100
(1744233728.786243) can0 10103001#031AEC909193FB92
(1744233728.786378) can0 10103001#E395FBE494E99197
(1744233728.786513) can0 10103001#9190C14BA1A1ECA2
(1744233728.786667) can0 10103001#A0A069A1A1A1A0A1
(1744233728.786803) can0 10103001#A1A1A1A1A1A1A0BE
(1744233728.786945) can0 10103001#976CA1A1A5A1A1A1
(1744233728.787092) can0 10103001#B4A1A1E13DA1A1CA
(1744233728.787234) can0 10103001#35A1A1688CA1A1A0
(1744233728.787369) can0 10103001#A1A1A17BADA1A16E
(1744233728.787510) can0 10103001#ADA1A1B7B4B2B2A1
(1744233728.787645) can0 10103001#A1A1A1A1A1A1A1A1
(1744233728.787780) can0 10103001#89A8A1A1A1C5A4A1
(1744233728.787929) can0 10103001#A1A1A1A1A1A1A1A1
(1744233728.788071) can0 10103001#8DA0A1A1A1C5A1A1
(1744233728.788227) can0 10103001#A1B6B4A1A1A1F54D
(1744233728.788343) can0 10103001#A1A1A1A1A1A1A1A1
(1744233728.788447) can0 10203001#A1A12EF0
(1744233728.788601) can0 10003001#AA038000682CA200
(1744233728.788755) can0 10103001#00000B3C03030100
(1744233728.788890) can0 10103001#031AEF939290F891
(1744233728.789044) can0 10103001#E096F8E797EA9294
(1744233728.789227) can0 10103001#9293C248A2A2EFA1
(1744233728.789318) can0 10103001#A3A36AA2A2A2A3A2
(1744233728.789453) can0 10103001#A2A2A2A2A2A2A3BD
(1744233728.789602) can0 10103001#946FA2A2A6A2A2A2
(1744233728.789743) can0 10103001#B7A2A2E23EA2A2C9
(1744233728.789878) can0 10103001#36A2A26B8FA2A2A3
(1744233728.790013) can0 10103001#A2A2A278AEA2A26D
(1744233728.790163) can0 10103001#AEA2A2B4B7B1B1A2
(1744233728.790310) can0 10103001#A2A2A2A2A2A2A2A2
(1744233728.812910) can0 10003001#AA037C00802CA300
(1744233728.813063) can0 10103001#00000B3C03030100
(1744233728.813228) can0 10103001#0301A3A1A3BC296E
(1744233728.813332) can0 10103001#55E2956EA7A3A3A3
(1744233728.813473) can0 10103001#B35CDCA2A37BAF79
(1744233728.813621) can0 10103001#AF72AF71AF77AF70
(1744233728.813754) can0 10103001#AF76AF6CAF77AF77
(1744233728.813896) can0 10103001#AF70AF77AF72AF71
(1744233728.814030) can0 10103001#AF71AFA3A379AF6C
(1744233728.814228) can0 10103001#AF70AFA2A4B5B6B0
(1744233728.814317) can0 10103001#B0A3E33FA3A3C837
(1744233728.814459) can0 10103001#A3A36A8EA3A3A2A3
(1744233728.814594) can0 10103001#A3A3A3A3A3A3A3A1
(1744233728.814748) can0 10103001#A383A3A3A3A3A3A3
(1744233728.814883) can0 10103001#A3A3A3A3EEA0A2A2
(1744233728.815017) can0 10103001#A3A3A3A3B4B6A3A3
(1744233728.815152) can0 10103001#A3A3B6B5B6B6B6B6
(1744233728.815298) can0 10203001#A3A3A3A3A3A387C5
(1744233728.832587) can0 10603001#5A45354830363031
(1744233728.852631) can0 10003001#AA0323004F2CA400
(1744233728.852765) can0 10103001#00000B3C03030100
(1744233728.852919) can0 10103001#0325A4A4A4677452
(1744233728.853054) can0 10103001#E5A4A4A4A4A4A4A4
(1744233728.853230) can0 10103001#A4A4A4A4A4A4A4BB
(1744233728.853326) can0 10103001#A4A4A4A4A4A4A4A4
(1744233728.853467) can0 10203001#A4A4A4A4A4AEAD
(1744233728.932881) can0 10003001#AA037800D42CA500
(1744233728.933015) can0 10103001#00000B3C03030100
(1744233728.933168) can0 10103001#0301A5A7A5BA2F68
(1744233728.933309) can0 10103001#53E49068A1A5A5A5
(1744233728.933443) can0 10103001#B55ADAA4A57DA97C
(1744233728.933597) can0 10103001#A974A977A971A976
(1744233728.933738) can0 10103001#A970A96AA971A971
(1744233728.933872) can0 10103001#A976A971A974A977
(1744233728.934006) can0 10103001#A977A9A5A57CA96A
(1744233728.934142) can0 10103001#A976A9A4A2B3B0B6
(1744233728.934283) can0 10103001#B6A5E539A5A5CE31
(1744233728.934438) can0 10103001#A5A56C88A5A5A4A5
(1744233728.934572) can0 10103001#A5A5A5A5A5A5A5A7
(1744233728.934707) can0 10103001#A585A5A5A5A5A5A5
(1744233728.934848) can0 10103001#A5A5A5A5E8A6A4A4
(1744233728.934996) can0 10103001#A5A5A5A5B2B0A5A5
(1744233728.935129) can0 10103001#A5A5B0B3A5A5A5A5
(1744233728.935239) can0 10203001#A5A5C333
(1744233728.935380) can0 10603001#5A45354830363031
(1744233729.012434) can0 10003001#AA0323004F2CA600
(1744233729.012575) can0 10103001#00000B3C03030100
(1744233729.012717) can0 10103001#0325A6A6A6657650
(1744233729.012858) can0 10103001#E7A6A6A6A6A6A6A6
(1744233729.012993) can0 10103001#A6A6A6A6A6A6A6B9
(1744233729.013128) can0 10103001#A6A6A6A6A6A6A6A6
(1744233729.013267) can0 10203001#A6A6A6A6A6E320
(1744233729.034918) can0 10603001#5A45354830363031
(1744233729.052746) can0 10003001#AA037C00802CA700
(1744233729.052894) can0 10103001#00000B3C03030100
(1744233729.053029) can0 10103001#0301A7A5A7B82D6A
(1744233729.053163) can0 10103001#51E6936A61585858
(1744233729.053307) can0 10103001#B758D8A6A77FAB7E
(1744233729.053457) can0 10103001#AB76AB75AB73AB74
(1744233729.053592) can0 10103001#AB72AB68AB73AB73
(1744233729.053733) can0 10103001#AB74AB73AB76AB75
(1744233729.053868) can0 10103001#AB75ABA7A77EAB68
(1744233729.054021) can0 10103001#AB74ABA6A0B1B2B4
(1744233729.054156) can0 10103001#B4A7E73BA7A7CC33
(1744233729.054294) can0 10103001#A7A76E8AA7A7A6A7
(1744233729.054429) can0 10103001#A75A585858A7A7A5
(1744233729.054578) can0 10103001#A787A7A7A7A7A7A7
(1744233729.054719) can0 10103001#A7A7A7A7EAA4A6A6
(1744233729.054854) can0 10103001#A7A7A7A7B0B2A7A7
(1744233729.054995) can0 10103001#A7A7B2B1B2B2B2B2
(1744233729.055123) can0 10203001#A7A7A7A7A7A70A66
(1744233729.135457) can0 10603001#5A45354830363031
(1744233729.172935) can0 10003001#AA037800D42CA800
(1744233729.173088) can0 10103001#00000B3C03030100
(1744233729.173241) can0 10103001#0301A8AAA8B72265
(1744233729.173363) can0 10103001#5EE99C656E575757
(1744233729.173498) can0 10103001#B857D7A9A870A471
(1744233729.173652) can0 10103001#A479A47AA47CA47B
(1744233729.173785) can0 10103001#A47DA467A47CA47C
(1744233729.173927) can0 10103001#A47BA47CA479A47A
(1744233729.174074) can0 10103001#A47AA4A8A871A467
(1744233729.174241) can0 10103001#A47BA4A9AFBEBDBB
(1744233729.174345) can0 10103001#BBA8E834A8A8C33C
(1744233729.174486) can0 10103001#A8A86185A8A8A9A8
(1744233729.174640) can0 10103001#A855575757A8A8AA
(1744233729.174775) can0 10103001#A888A8A8A8A8A8A8
(1744233729.174909) can0 10103001#A8A8A8A8E5ABA9A9
(1744233729.175063) can0 10103001#A8A8A8A8BFBDA8A8
(1744233729.175241) can0 10103001#A8A8BDBEA8A8A8A8
(1744233729.175319) can0 10203001#A8A8DCA1
(1744233729.175453) can0 10003001#AA0323004F2CA900
(1744233729.175588) can0 10103001#00000B3C03030100
(1744233729.175741) can0 10103001#0325A9A9A96A795F
(1744233729.175882) can0 10103001#E8A9A9A9A9A9A9A9
(1744233729.176009) can0 10103001#A9A9A9A9A9A9A9B6
(1744233729.176151) can0 10103001#A9A9A9A9A9A9A9A9
(1744233729.176292) can0 10203001#A9A9A9A9A9A2A4
(1744233729.236862) can0 10603001#5A45354830363031
(1744233729.252665) can0 10003001#AA031E005F2CAA00
(1744233729.252806) can0 10103001#00000B3C03030100
(1744233729.252953) can0 10103001#03C5ABAAAAAAAAAA
(1744233729.253095) can0 10103001#AAAAAAAAAAAAAAAA
(1744233729.253245) can0 10103001#AAAAAAAAAAAAAAAA
(1744233729.253366) can0 10103001#AAAAAAAAAAAAAAAA
(1744233729.253469) can0 10203001#2478
(1744233729.285850) can0 10003001#AA030600A02CAB00
(1744233729.285999) can0 10103001#00000B3C03200100
(1744233729.286159) can0 10103001#20204B41AAABABAB
(1744233729.286245) can0 10203001#98CE
(1744233729.286386) can0 10003001#AA030100CB2CAC00
(1744233729.286541) can0 10103001#00000B3C03080100
(1744233729.286656) can0 10203001#0150ACBD86
(1744233729.286797) can0 10003001#AA038000682CAD00
(1744233729.286944) can0 10103001#00000B3C03210100
(1744233729.287093) can0 10103001#031AE09C9D9FF79E
(1744233729.287246) can0 10103001#EF99F7E898E59D9B
(1744233729.287374) can0 10103001#9D9CCD47ADADE0AE
(1744233729.287509) can0 10103001#ACAC65ADADADACAD
(1744233729.287643) can0 10103001#ADADADADADADACB2
(1744233729.287798) can0 10103001#9960ADADA9ADADAD
(1744233729.287933) can0 10103001#B8ADADED31ADADC6
(1744233729.288074) can0 10103001#39ADAD6480ADADAC
(1744233729.288245) can0 10103001#ADADAD74A1ADAD62
(1744233729.288361) can0 10103001#A1ADADBBB8BEBEAD
(1744233729.288496) can0 10103001#ADADADADADADADAD
(1744233729.288637) can0 10103001#85A4ADADADC9A8AD
(1744233729.288771) can0 10103001#ADADADADADADADAD
(1744233729.288924) can0 10103001#81ACADADADC9ADAD
(1744233729.289059) can0 10103001#ADBAB8ADADADF941
(1744233729.289246) can0 10103001#ADADADADADADADAD
(1744233729.289312) can0 10203001#ADADFDC9
(1744233729.289453) can0 10003001#AA032000702CAE00
(1744233729.289607) can0 10103001#00000B3C03350100
(1744233729.289742) can0 10103001#3510AFE39F9E9CF4
(1744233729.289877) can0 10103001#9DEC9AF4EB9BE69E
(1744233729.290030) can0 10103001#989E9FAFA592AFAF
(1744233729.290165) can0 10103001#ADE3AFAEAFBFAEAE
(1744233729.290271) can0 10203001#AEAE47EC
(1744233729.290420) can0 10003001#AA030100CB2CAF00
(1744233729.290561) can0 10103001#00000B3C03080100
(1744233729.290683) can0 10203001#0321AF7DD4
(1744233729.290836) can0 10003001#AA030100CB2CB000
(1744233729.299385) can0 00430342#07AA020100A02C00
(1744233729.309450) can0 00830342#070000000B3C0342
(1744233729.319960) can0 00C30342#050150008DAB
(1744233729.337940) can0 10603001#5A45354830363031
(1744233729.438392) can0 10603001#5A45354830363031
(1744233729.539390) can0 10603001#5A45354830363031
(1744233729.641330) can0 10603001#5A45354830363031
(1744233729.741442) can0 10603001#5A45354830363031
(1744233729.785931) can0 10003001#AA030100CB2CB100
(1744233729.786066) can0 10103001#00000B3C03080100
(1744233729.786188) can0 10203001#0150B15052
(1744233729.786340) can0 10003001#AA038000682CB200
(1744233729.786476) can0 10103001#00000B3C03210100
(1744233729.786630) can0 10103001#031AFF838280E881
(1744233729.786771) can0 10103001#F086E8F787FA8284
(1744233729.786919) can0 10103001#8283D258B2B2FFB1
(1744233729.787054) can0 10103001#B3B37AB2B2B2B3B2
(1744233729.787195) can0 10103001#B2B2B2B2B2B2B3AD
(1744233729.787334) can0 10103001#877FB2B2B6B2B2B2
(1744233729.787468) can0 10103001#A7B2B2F22EB2B2D9
(1744233729.787621) can0 10103001#26B2B27B9FB2B2B3
(1744233729.787756) can0 10103001#B2B2B26BBEB2B27D
(1744233729.787897) can0 10103001#BEB2B2A4A7A1A1B2
(1744233729.788024) can0 10103001#B2B2B2B2B2B2B2B2
(1744233729.788184) can0 10103001#9ABBB2B2B3D6B7B2
(1744233729.788321) can0 10103001#B2B2B2B2B2B2B2B2
(1744233729.788462) can0 10103001#9EB3B2B2B2D6B2B2
(1744233729.788597) can0 10103001#B2A5A7B2B2B2E65E
(1744233729.788731) can0 10103001#B2B2B2B2B2B2B2B2
(1744233729.788853) can0 10203001#B2B2816A
(1744233729.788988) can0 10003001#AA030100CB2CB300
(1744233729.789136) can0 10103001#00000B3C03080100
(1744233729.789264) can0 10203001#0321B35341
(1744233729.789399) can0 10003001#AA030100CB2CB400
(1744233729.789553) can0 10103001#00000B3C03080100
(1744233729.789672) can0 10203001#0141B49004
(1744233729.790005) can0 00430342#07AA020100A02C01
(1744233729.799957) can0 00830342#070000000B3C0342
(1744233729.809462) can0 00C30342#050150014897
(1744233729.842979) can0 10603001#5A45354830363031
(1744233729.943943) can0 10603001#5A45354830363031
(1744233730.044954) can0 10603001#5A45354830363031
(1744233730.145959) can0 10603001#5A45354830363031
(1744233730.246396) can0 10603001#5A45354830363031
(1744233730.285916) can0 10003001#AA030600A02CB500
(1744233730.286046) can0 10103001#00000B3C03200100
(1744233730.286199) can0 10103001#2020625FB4B5B5B5
(1744233730.286290) can0 10203001#BE9D
(1744233730.286432) can0 10003001#AA030600A02CB600
(1744233730.286579) can0 10103001#00000B3C03200100
(1744233730.286733) can0 10103001#2020605CB7B6B6B6
(1744233730.286823) can0 10203001#BB8E
(1744233730.286957) can0 10003001#AA030100CB2CB700
(1744233730.287111) can0 10103001#00000B3C03080100
(1744233730.287282) can0 10203001#0150B7D996
(1744233730.287377) can0 10003001#AA038000682CB800
(1744233730.287518) can0 10103001#00000B3C03210100
(1744233730.287672) can0 10103001#031AF589888AE28B
(1744233730.287807) can0 10103001#FA8CE2FD8DF0888E
(1744233730.287941) can0 10103001#8889D852B8B8F5BB
(1744233730.288096) can0 10103001#B9B97FB8B8B8B9B8
(1744233730.288282) can0 10103001#B8B8B8B8B8B8B9A7
(1744233730.288366) can0 10103001#8B75B8B8BCB8B8B8
(1744233730.288500) can0 10103001#ADB8B8F824B8B8D3
(1744233730.288654) can0 10103001#2CB8B87195B8B8B9
(1744233730.288789) can0 10103001#B8B8B861B4B8B877
(1744233730.288930) can0 10103001#B4B8B8AEADABABB8
(1744233730.289063) can0 10103001#B8B8B8B8B8B8B8B8
(1744233730.289217) can0 10103001#90B1B8B8B9DCBDB8
(1744233730.289358) can0 10103001#B8B8B8B8B8B8B8B8
(1744233730.289493) can0 10103001#94B9B8B8B8DCB8B8
(1744233730.289627) can0 10103001#B8AFADB8B8B8EC54
(1744233730.289763) can0 10103001#B8B8B8B8B8B8B8B8
(1744233730.289884) can0 10203001#B8B83294
(1744233730.290019) can0 10003001#AA032000702CB900
(1744233730.290173) can0 10103001#00000B3C03350100
(1744233730.290314) can0 10103001#3510B8F488898BE3
(1744233730.290449) can0 10103001#8AFB8DE3FC8CF189
(1744233730.290603) can0 10103001#8F8988B8B285B8B8
(1744233730.290736) can0 10103001#BAF4B8B9B8A8B9B9
(1744233730.290840) can0 10203001#B9B914CB
(1744233730.299943) can0 00430342#07AA020100A02C02
(1744233730.309969) can0 00830342#070000000B3C0342
(1744233730.319828) can0 00C30342#0501500207D2
(1744233730.347958) can0 10603001#5A45354830363031
(1744233730.448391) can0 10603001#5A45354830363031
(1744233730.549540) can0 10603001#5A45354830363031
(1744233730.652652) can0 10603001#5A45354830363031
(1744233730.753777) can0 10603001#5A45354830363031
(1744233730.785886) can0 10003001#AA030100CB2CBC00
(1744233730.786040) can0 10103001#00000B3C03080100
(1744233730.786158) can0 10203001#0150BC82DA
(1744233730.786319) can0 10003001#AA038000682CBD00
(1744233730.786454) can0 10103001#00000B3C03210100
(1744233730.786589) can0 10103001#031AF08C8D8FE78E
(1744233730.786739) can0 10103001#FF89E7F888F58D8B
(1744233730.786880) can0 10103001#8D8CDD57BDBDF0BE
(1744233730.787016) can0 10103001#BCBC75BDBDBDBCBD
(1744233730.787169) can0 10103001#BDBDBDBDBDBDBCA2
(1744233730.787307) can0 10103001#8970BDBDB9BDBDBD
(1744233730.787442) can0 10103001#A8BDBDFD21BDBDD6
(1744233730.787583) can0 10103001#29BDBD7490BDBDBC
(1744233730.787718) can0 10103001#BDBDBD64B1BDBD72
(1744233730.787867) can0 10103001#B1BDBDABA8AEAEBD
(1744233730.788002) can0 10103001#BDBDBDBDBDBDBDBD
(1744233730.788143) can0 10103001#95B4BDBDBCD9B8BD
(1744233730.788300) can0 10103001#BDBDBDBDBDBDBDBD
(1744233730.788412) can0 10103001#91BCBDBDBDD9BDBD
(1744233730.788553) can0 10103001#BDAAA8BDBDBDE951
(1744233730.788706) can0 10103001#BDBDBDBDBDBDBDBD
(1744233730.788810) can0 10203001#BDBD5744
(1744233730.788944) can0 10003001#AA030100CB2CBE00
(1744233730.789098) can0 10103001#00000B3C03080100
(1744233730.789214) can0 10203001#0321BE81C9
(1744233730.789376) can0 10003001#AA030100CB2CBF00
(1744233730.789503) can0 10103001#00000B3C03080100
(1744233730.789631) can0 10203001#0141BFCB48
(1744233730.799434) can0 00430342#07AA020100A02C03
(1744233730.810013) can0 00830342#070000000B3C0342
(1744233730.819954) can0 00C30342#05015003C2EE
(1744233730.854469) can0 10603001#5A45354830363031
(1744233730.955949) can0 10603001#5A45354830363031
(1744233731.056438) can0 10603001#5A45354830363031
(1744233731.157950) can0 10603001#5A45354830363031
(1744233731.258998) can0 10603001#5A45354830363031
(1744233731.285936) can0 10003001#AA030100CB2CC000
(1744233731.286076) can0 10103001#00000B3C03080100
(1744233731.286186) can0 10203001#0150C02DC7
(1744233731.286350) can0 10003001#AA038000682CC100
(1744233731.286485) can0 10103001#00000B3C03210100
(1744233731.286639) can0 10103001#031A8CF0F1F39BF2
(1744233731.286773) can0 10103001#83F59B84F489F1F7
(1744233731.286928) can0 10103001#F1F0A12BC1C18CC2
(1744233731.287062) can0 10103001#C0C009C1C1C1C0C1
(1744233731.287216) can0 10103001#C1C1C1C1C1C1C0DE
(1744233731.287357) can0 10103001#F70CC1C1E2C1C1C1
(1744233731.287511) can0 10103001#D4C1C1815DC1C1AA
(1744233731.287645) can0 10103001#55C1C108ECC1C1C0
(1744233731.287799) can0 10103001#C1C1C118CDC1C111
(1744233731.287947) can0 10103001#CDC1C1D7D4D2D2C1
(1744233731.288088) can0 10103001#C1C1C1C1C1C1C1C1
(1744233731.288236) can0 10103001#E9C8C1C1C0A5C4C1
(1744233731.288382) can0 10103001#C1C1C1C1C1C1C1C1
(1744233731.288524) can0 10103001#EDC0C1C1C1A5C1C1
(1744233731.288665) can0 10103001#C1D6D4C1C1C1952D
(1744233731.288819) can0 10103001#C1C1C1C1C1C1C1C1
(1744233731.288922) can0 10203001#C1C12CC8
(1744233731.289075) can0 10003001#AA032000702CC200
(1744233731.289229) can0 10103001#00000B3C03350100
(1744233731.289369) can0 10103001#3510C38FF3F2F098
(1744233731.289504) can0 10103001#F180F69887F78AF2
(1744233731.289638) can0 10103001#F4F2F3C3C9FEC3C3
(1744233731.289792) can0 10103001#C18FC3C2C3D3C2C2
(1744233731.289895) can0 10203001#C2C2E7DC
(1744233731.290049) can0 10003001#AA030100CB2CC300
(1744233731.290183) can0 10103001#00000B3C03080100
(1744233731.290318) can0 10203001#0321C3ED95
(1744233731.290460) can0 10003001#AA030100CB2CC400
(1744233731.290595) can0 10103001#00000B3C03080100
(1744233731.290717) can0 10203001#0141C42ED0
(1744233731.299967) can0 00430342#07AA020100A02C04
(1744233731.309980) can0 00830342#070000000B3C0342
(1744233731.319441) can0 00C30342#050150049958
(1744233731.359952) can0 10603001#5A45354830363031
(1744233731.461165) can0 10603001#5A45354830363031
(1744233731.561469) can0 10603001#5A45354830363031
(1744233731.662982) can0 10603001#5A45354830363031
(1744233731.763944) can0 10603001#5A45354830363031
(1744233731.785972) can0 10003001#AA030100CB2CC500
(1744233731.786126) can0 10103001#00000B3C03080100
(1744233731.786241) can0 10203001#0150C5E1C1
(1744233731.786381) can0 10003001#AA038000682CC600
(1744233731.786535) can0 10103001#00000B3C03210100
(1744233731.786669) can0 10103001#031A8BF7F6F49CF5
(1744233731.786824) can0 10103001#84F29C83F38EF6F0
(1744233731.786957) can0 10103001#F6F7A62CC6C68BC5
(1744233731.787098) can0 10103001#C7C70EC6C6C6C7C6
(1744233731.787233) can0 10103001#C6C6C6C6C6C6C7D9
(1744233731.787375) can0 10103001#F30BC6C6E5C6C6C6
(1744233731.787524) can0 10103001#D3C6C6865AC6C6AD
(1744233731.787659) can0 10103001#52C6C60FEBC6C6C7
(1744233731.787800) can0 10103001#C6C6C61FCAC6C609
(1744233731.787935) can0 10103001#CAC6C6D0D3D5D5C6
(1744233731.788089) can0 10103001#C6C6C6C6C6C6C6C6
(1744233731.788224) can0 10103001#EECFC6C6C7A2C3C6
(1744233731.788362) can0 10103001#C6C6C6C6C6C6C6C6
(1744233731.788503) can0 10103001#EAC7C6C6C6A2C6C6
(1744233731.788629) can0 10103001#C6D1D3C6C6C6922A
(1744233731.788789) can0 10103001#C6C6C6C6C6C6C6C6
(1744233731.788892) can0 10203001#C6C6D487
(1744233731.789027) can0 10003001#AA030100CB2CC700
(1744233731.789177) can0 10103001#00000B3C03080100
(1744233731.789337) can0 10203001#0321C7E2D2
(1744233731.789458) can0 10003001#AA030100CB2CC800
(1744233731.789593) can0 10103001#00000B3C03080100
(1744233731.789715) can0 10203001#0141C83F19
(1744233731.789995) can0 00430342#07AA020100A02C05
(1744233731.799465) can0 00830342#070000000B3C0342
(1744233731.809459) can0 00C30342#050150055C64
(1744233731.864394) can0 10603001#5A45354830363031
(1744233731.965961) can0 10603001#5A45354830363031
(1744233732.066970) can0 10603001#5A45354830363031
(1744233732.167447) can0 10603001#5A45354830363031
(1744233732.268953) can0 10603001#5A45354830363031
(1744233732.285984) can0 10003001#AA030100CB2CC900
(1744233732.286118) can0 10103001#00000B3C03080100
(1744233732.286240) can0 10203001#0150C9F008
(1744233732.286393) can0 10003001#AA038000682CCA00
(1744233732.286528) can0 10103001#00000B3C03210100
(1744233732.286682) can0 10103001#031A87FBFAF890F9
(1744233732.286823) can0 10103001#88FE908FFF82FAFC
(1744233732.286971) can0 10103001#FAFBAA20CACA87C9
(1744233732.287107) can0 10103001#CBCB02CACACACBCA
(1744233732.287248) can0 10103001#CACACACACACACBD5
(1744233732.287400) can0 10103001#FE07CACACECACACA
(1744233732.287534) can0 10103001#DFCACA8A56CACAA1
(1744233732.287676) can0 10103001#5ECACA03E7CACACB
(1744233732.287810) can0 10103001#CACACA13C6CACA05
(1744233732.287965) can0 10103001#C6CACADCDFD9D9CA
(1744233732.288099) can0 10103001#CACACACACACACACA
(1744233732.288234) can0 10103001#E2C3CACACBAECFCA
(1744233732.288374) can0 10103001#CACACACACACACACA
(1744233732.288515) can0 10103001#E6CBCACACAAECACA
(1744233732.288664) can0 10103001#CADDDFCACACA9E26
(1744233732.288799) can0 10103001#CACACACACACACACA
(1744233732.288909) can0 10203001#CACA3E09
(1744233732.289056) can0 10003001#AA032000702CCB00
(1744233732.289190) can0 10103001#00000B3C03350100
(1744233732.289355) can0 10103001#3510CA86FAFBF991
(1744233732.289484) can0 10103001#F889FF918EFE83FB
(1744233732.289638) can0 10103001#FDFBFACAC0F7CACA
(1744233732.289779) can0 10103001#C886CACBCADACBCB
(1744233732.289882) can0 10203001#CBCBFE18
(1744233732.290031) can0 10003001#AA030100CB2CCC00
(1744233732.290184) can0 10103001#00000B3C03080100
(1744233732.290287) can0 10203001#0321CCB99E
(1744233732.290444) can0 10003001#AA030100CB2CCD00
(1744233732.290598) can0 10103001#00000B3C03080100
(1744233732.290701) can0 10203001#0141CDF31F
(1744233732.299441) can0 00430342#07AA020100A02C06
(1744233732.310011) can0 00830342#070000000B3C0342
(1744233732.319954) can0 00C30342#050150061321
(1744233732.369980) can0 10603001#5A45354830363031
(1744233732.471363) can0 10603001#5A45354830363031
(1744233732.571404) can0 10603001#5A45354830363031
(1744233732.673135) can0 10603001#5A45354830363031
(1744233732.774062) can0 10603001#5A45354830363031
(1744233732.785914) can0 10003001#AA030100CB2CCE00
(1744233732.786054) can0 10103001#00000B3C03080100
(1744233732.786177) can0 10203001#0150CEBA8D
(1744233732.786373) can0 10003001#AA038000682CCF00
(1744233732.786477) can0 10103001#00000B3C03210100
(1744233732.786619) can0 10103001#031A82FEFFFD95FC
(1744233732.786773) can0 10103001#8DFB958AFA87FFF9
(1744233732.786907) can0 10103001#FFFEAF25CFCF82CC
(1744233732.787062) can0 10103001#CECE07CFCFCFCECF
(1744233732.787197) can0 10103001#CFCFCFCFCFCFCED0
(1744233732.787373) can0 10103001#FB02CFCFCBCFCFCF
(1744233732.787502) can0 10103001#DACFCF8F53CFCFA4
(1744233732.787636) can0 10103001#5BCFCF06E2CFCFCE
(1744233732.787789) can0 10103001#CFCFCF16C3CFCF00
(1744233732.787924) can0 10103001#C3CFCFD9DADCDCCF
(1744233732.788079) can0 10103001#CFCFCFCFCFCFCFCF
(1744233732.788213) can0 10103001#E7C6CFCFCEABCACF
(1744233732.788374) can0 10103001#CFCFCFCFCFCFCFCF
(1744233732.788509) can0 10103001#E3CECFCFCFABCFCF
(1744233732.788644) can0 10103001#CFD8DACFCFCF9B23
(1744233732.788798) can0 10103001#CFCFCFCFCFCFCFCF
(1744233732.788901) can0 10203001#CFCF72F8
(1744233732.789055) can0 10003001#AA030100CB2CD000
(1744233732.789204) can0 10103001#00000B3C03080100
(1744233732.789373) can0 10203001#0321D0970B
(1744233732.789463) can0 10003001#AA030100CB2CD100
(1744233732.789617) can0 10103001#00000B3C03080100
(1744233732.789728) can0 10203001#0141D1DD8A
(1744233732.799979) can0 00430342#07AA020100A02C07
(1744233732.810003) can0 00830342#070000000B3C0342
(1744233732.819936) can0 00C30342#05015007D61D
(1744233732.874949) can0 10603001#5A45354830363031
(1744233732.975967) can0 10603001#5A45354830363031
(1744233733.076977) can0 10603001#5A45354830363031
(1744233733.177961) can0 10603001#5A45354830363031
(1744233733.278978) can0 10603001#5A45354830363031
(1744233733.285938) can0 10003001#AA030100CB2CD200
(1744233733.286092) can0 10103001#00000B3C03080100
(1744233733.286194) can0 10203001#0150D29418
(1744233733.286391) can0 10003001#AA038000682CD300
(1744233733.286501) can0 10103001#00000B3C03210100
(1744233733.286642) can0 10103001#031A9EE2E3E189E0
(1744233733.286790) can0 10103001#91E78996E69BE3E5
(1744233733.286931) can0 10103001#E3E2B339D3D39ED0
(1744233733.287066) can0 10103001#D2D21BD3D3D3D2D3
(1744233733.287200) can0 10103001#D3D3D3D3D3D3D2CC
(1744233733.287392) can0 10103001#E71ED3D3D7D3D3D3
(1744233733.287487) can0 10103001#C6D3D3934FD3D3B8
(1744233733.287622) can0 10103001#47D3D31AFED3D3D2
(1744233733.287764) can0 10103001#D3D3D30ADFD3D31C
(1744233733.287911) can0 10103001#DFD3D3C5C6C0C0D3
(1744233733.288046) can0 10103001#D3D3D3D3D3D3D3D3
(1744233733.288188) can0 10103001#FBDAD3D3D2B7D6D3
(1744233733.288391) can0 10103001#D3D3D3D3D3D3D3D3
(1744233733.288475) can0 10103001#FFD2D3D3D3B7D3D3
(1744233733.288610) can0 10103001#D3C4C6D3D3D3873F
(1744233733.288764) can0 10103001#D3D3D3D3D3D3D3D3
(1744233733.288867) can0 10203001#D3D35B7F
(1744233733.289021) can0 10003001#AA032000702CD400
(1744233733.289155) can0 10103001#00000B3C03350100
(1744233733.289309) can0 10103001#3510D599E5E4E68E
(1744233733.289448) can0 10103001#E796E08E91E19CE4
(1744233733.289589) can0 10103001#E2E4E5D5DFE8D5D5
(1744233733.289717) can0 10103001#D799D5D4D5C5D4D4
(1744233733.289827) can0 10203001#D4D4FECD
(1744233733.289980) can0 10003001#AA030100CB2CD500
(1744233733.290134) can0 10103001#00000B3C03080100
(1744233733.290237) can0 10203001#0321D55B0D
(1744233733.290391) can0 10003001#AA030100CB2CD600
(1744233733.290527) can0 10103001#00000B3C03080100
(1744233733.290649) can0 10203001#0141D6970F
(1744233733.299963) can0 00430342#07AA020100A02C08
(1744233733.309989) can0 00830342#070000000B3C0342
(1744233733.319418) can0 00C30342#05015008A60D
(1744233733.379467) can0 10603001#5A45354830363031
(1744233733.481156) can0 10603001#5A45354830363031
(1744233733.581404) can0 10603001#5A45354830363031
(1744233733.682984) can0 10603001#5A45354830363031
(1744233733.783969) can0 10603001#5A45354830363031
(1744233733.785975) can0 10003001#AA030100CB2CD700
(1744233733.786128) can0 10103001#00000B3C03080100
(1744233733.786244) can0 10203001#0150D7581E
(1744233733.786409) can0 10003001#AA038000682CD800
(1744233733.786535) can0 10103001#00000B3C03210100
(1744233733.786677) can0 10103001#031A95E9E8EA82EB
(1744233733.786830) can0 10103001#9AEC829DED90E8EE
(1744233733.786965) can0 10103001#E8E9B832D8D895DB
(1744233733.787092) can0 10103001#D9D910D8D8D8D9D8
(1744233733.787233) can0 10103001#D8D8D8D8D8D8D9C7
(1744233733.787410) can0 10103001#EC15D8D8DCD8D8D8
(1744233733.787525) can0 10103001#CDD8D89844D8D8B3
(1744233733.787666) can0 10103001#4CD8D811F5D8D8D9
(1744233733.787801) can0 10103001#D8D8D801D4D8D817
(1744233733.787955) can0 10103001#D4D8D8CECDCBCBD8
(1744233733.788089) can0 10103001#D8D8D8D8D8D8D8D8
(1744233733.788223) can0 10103001#F0D1D8D8D9BCDDD8
(1744233733.788410) can0 10103001#D8D8D8D8D8D8D8D8
(1744233733.788513) can0 10103001#F4D9D8D8D8BCD8D8
(1744233733.788654) can0 10103001#D8CFCDD8D8D88C34
(1744233733.788780) can0 10103001#D8D8D8D8D8D8D8D8
(1744233733.788890) can0 10203001#D8D8826D
(1744233733.789044) can0 10003001#AA030100CB2CD900
(1744233733.789197) can0 10103001#00000B3C03080100
(1744233733.789313) can0 10203001#0321D94AC4
(1744233733.789454) can0 10003001#AA030100CB2CDA00
(1744233733.789608) can0 10103001#00000B3C03080100
(1744233733.789711) can0 10203001#0141DA86C6
(1744233733.790003) can0 00430342#07AA020100A02C09
(1744233733.799455) can0 00830342#070000000B3C0342
(1744233733.809449) can0 00C30342#050150096331
(1744233733.884879) can0 10603001#5A45354830363031
(1744233733.985518) can0 10603001#5A45354830363031
(1744233734.086593) can0 10603001#5A45354830363031
(1744233734.187953) can0 10603001#5A45354830363031
(1744233734.285924) can0 10003001#AA030100CB2CDB00
(1744233734.286071) can0 10103001#00000B3C03080100
(1744233734.286192) can0 10203001#0150DB49D7
(1744233734.286346) can0 10003001#AA038000682CDC00
(1744233734.286485) can0 10103001#00000B3C03210100
(1744233734.286619) can0 10103001#031A91EDECEE86EF
(1744233734.286773) can0 10103001#9EE88699E994ECEA
(1744233734.286914) can0 10103001#ECEDBC36DCDC91DF
(1744233734.287049) can0 10103001#DDDD14DCDCDCDDDC
(1744233734.287183) can0 10103001#DCDCDCDCDCDCDDC3
(1744233734.287319) can0 10103001#E911DCDCD8DCDCDC
(1744233734.287460) can0 10103001#C9DCDC9C40DCDCB7
(1744233734.287613) can0 10103001#48DCDC15F1DCDCDD
(1744233734.287748) can0 10103001#DCDCDC05D0DCDC13
(1744233734.287889) can0 10103001#D0DCDCCAC9CFCFDC
(1744233734.288037) can0 10103001#DCDCDCDCDCDCDCDC
(1744233734.288178) can0 10103001#F4D5DCDCDDB8D9DC
(1744233734.288312) can0 10103001#DCDCDCDCDCDCDCDC
(1744233734.288453) can0 10103001#F0DDDCDCDCB8DCDC
(1744233734.288588) can0 10103001#DCCBC9DCDCDC8830
(1744233734.288742) can0 10103001#DCDCDCDCDCDCDCDC
(1744233734.288846) can0 10203001#DCDC8D51
(1744233734.288982) can0 10003001#AA032000702CDD00
(1744233734.289136) can0 10103001#00000B3C03350100
(1744233734.289271) can0 10103001#3510DC90ECEDEF87
(1744233734.289428) can0 10103001#EE9FE98798E895ED
(1744233734.289563) can0 10103001#EBEDECDCD6E1DCDC
(1744233734.289703) can0 10103001#DE90DCDDDCCCDDDD
(1744233734.289806) can0 10203001#DDDDE709
(1744233734.289955) can0 10003001#AA030100CB2CDE00
(1744233734.290096) can0 10103001#00000B3C03080100
(1744233734.290212) can0 10203001#0321DE0041
(1744233734.290365) can0 10003001#AA030100CB2CDF00
(1744233734.290500) can0 10103001#00000B3C03080100
(1744233734.290628) can0 10203001#0141DF4AC0
(1744233734.290782) can0 10603001#5A45354830363031
(1744233734.299951) can0 00430342#07AA020100A02C0A
(1744233734.310001) can0 00830342#070000000B3C0342
(1744233734.319938) can0 00C30342#0501500A2C74
(1744233734.389497) can0 10603001#5A45354830363031
(1744233734.491161) can0 10603001#5A45354830363031
(1744233734.591972) can0 10603001#5A45354830363031
(1744233734.692463) can0 10603001#5A45354830363031
(1744233734.785924) can0 10003001#AA030100CB2CE000
(1744233734.786077) can0 10103001#00000B3C03080100
(1744233734.786196) can0 10203001#0150E0537F
(1744233734.786351) can0 10003001#AA038000682CE100
(1744233734.786490) can0 10103001#00000B3C03210100
(1744233734.786625) can0 10103001#031AACD0D1D3BBD2
(1744233734.786779) can0 10103001#A3D5BBA4D4A9D1D7
(1744233734.786914) can0 10103001#D1D0810BE1E1ACE2
(1744233734.787056) can0 10103001#E0E029E1E1E1E0E1
(1744233734.787203) can0 10103001#E1E1E1E1E1E1E0FE
(1744233734.787337) can0 10103001#D32CE1E1E5E1E1E1
(1744233734.787485) can0 10103001#F4E1E1A17DE1E18A
(1744233734.787619) can0 10103001#75E1E128CCE1E1E0
(1744233734.787773) can0 10103001#E1E1E138EDE1E12E
(1744233734.787907) can0 10103001#EDE1E1F7F4F2F2E1
(1744233734.788043) can0 10103001#E1E1E1E1E1E1E1E1
(1744233734.788178) can0 10103001#C9E8E1E1E085E4E1
(1744233734.788332) can0 10103001#E1E1E1E1E1E1E1E1
(1744233734.788471) can0 10103001#CDE0E1E1E185E1E1
(1744233734.788613) can0 10103001#E1F6F4E1E1E1B50D
(1744233734.788747) can0 10103001#E1E1E1E1E1E1E1E1
(1744233734.788851) can0 10203001#E1E194DD
(1744233734.788999) can0 10003001#AA030100CB2CE200
(1744233734.789153) can0 10103001#00000B3C03080100
(1744233734.789276) can0 10203001#0321E2506C
(1744233734.789446) can0 10003001#AA030100CB2CE300
(1744233734.789565) can0 10103001#00000B3C03080100
(1744233734.789688) can0 10203001#0141E31AED
(1744233734.790033) can0 00430342#07AA020100A02C0B
(1744233734.793472) can0 10603001#5A45354830363031
(1744233734.799460) can0 00830342#070000000B3C0342
(1744233734.809950) can0 00C30342#0501500BE948
(1744233734.894451) can0 10603001#5A45354830363031
(1744233734.995969) can0 10603001#5A45354830363031
(1744233735.096975) can0 10603001#5A45354830363031
(1744233735.197468) can0 10603001#5A45354830363031
(1744233735.285936) can0 10003001#AA030100CB2CE400
(1744233735.286069) can0 10103001#00000B3C03080100
(1744233735.286188) can0 10203001#0150E45C38
(1744233735.286343) can0 10003001#AA038000682CE500
(1744233735.286483) can0 10103001#00000B3C03210100
(1744233735.286618) can0 10103001#031AA8D4D5D7BFD6
(1744233735.286772) can0 10103001#A7D1BFA0D0ADD5D3
(1744233735.286907) can0 10103001#D5D4850FE5E5A8E6
(1744233735.287042) can0 10103001#E4E42DE5E5E5E4E5
(1744233735.287197) can0 10103001#E5E5E5E5E5E5E4FA
(1744233735.287330) can0 10103001#D128E5E5E1E5E5E5
(1744233735.287471) can0 10103001#F0E5E5A579E5E58E
(1744233735.287612) can0 10103001#71E5E52CC8E5E5E4
(1744233735.287747) can0 10103001#E5E5E53CE9E5E52A
(1744233735.287881) can0 10103001#E9E5E5F3F0F6F6E5
(1744233735.288036) can0 10103001#E5E5E5E5E5E5E5E5
(1744233735.288170) can0 10103001#CDECE5E5E481E0E5
(1744233735.288312) can0 10103001#E5E5E5E5E5E5E5E5
(1744233735.288464) can0 10103001#C9E4E5E5E581E5E5
(1744233735.288605) can0 10103001#E5F2F0E5E5E5B109
(1744233735.288740) can0 10103001#E5E5E5E5E5E5E5E5
(1744233735.288844) can0 10203001#E5E59FD2
(1744233735.288993) can0 10003001#AA032000702CE600
(1744233735.289134) can0 10103001#00000B3C03350100
(1744233735.289288) can0 10103001#3510E7ABD7D6D4BC
(1744233735.289464) can0 10103001#D5A4D2BCA3D3AED6
(1744233735.289553) can0 10103001#D0D6D7E7EDDAE7E7
(1744233735.289708) can0 10103001#E5ABE7E6E7F7E6E6
(1744233735.289817) can0 10203001#E6E6860C
(1744233735.289964) can0 10003001#AA030100CB2CE700
(1744233735.290106) can0 10103001#00000B3C03080100
(1744233735.290222) can0 10203001#0321E79C6A
(1744233735.290375) can0 10003001#AA030100CB2CE800
(1744233735.298968) can0 10603001#5A45354830363031
(1744233735.299944) can0 00430342#07AA020100A02C0C
(1744233735.309981) can0 00830342#070000000B3C0342
(1744233735.319504) can0 00C30342#0501500CB2FE
(1744233735.399979) can0 10603001#5A45354830363031
(1744233735.500408) can0 10603001#5A45354830363031
(1744233735.601477) can0 10603001#5A45354830363031
(1744233735.702482) can0 10603001#5A45354830363031
(1744233735.785904) can0 10003001#AA030100CB2CE900
(1744233735.786055) can0 10103001#00000B3C03080100
(1744233735.786177) can0 10203001#0150E98EB0
(1744233735.786312) can0 10003001#AA038000682CEA00
(1744233735.786482) can0 10103001#00000B3C03210100
(1744233735.786601) can0 10103001#031AA7DBDAD8B0D9
(1744233735.786755) can0 10103001#A8DEB0AFDFA2DADC
(1744233735.786890) can0 10103001#DADB8A00EAEAA7E9
(1744233735.787031) can0 10103001#EBEB22EAEAEAEBEA
(1744233735.787173) can0 10103001#EAEAEAEAEAEAEBF5
(1744233735.787315) can0 10103001#D827EAEAEEEAEAEA
(1744233735.787483) can0 10103001#FFEAEAAA76EAEA81
(1744233735.787592) can0 10103001#7EEAEA23C7EAEAEB
(1744233735.787745) can0 10103001#EAEAEA33E6EAEA25
(1744233735.787880) can0 10103001#E6EAEAFCFFF9F9EA
(1744233735.788015) can0 10103001#EAEAEAEAEAEAEAEA
(1744233735.788168) can0 10103001#C2E3EAEAEB8EEFEA
(1744233735.788302) can0 10103001#EAEAEAEAEAEAEAEA
(1744233735.788482) can0 10103001#C6EBEAEAEA8EEAEA
(1744233735.788592) can0 10103001#EAFDFFEAEAEABE06
(1744233735.788727) can0 10103001#EAEAEAEAEAEAEAEA
(1744233735.788831) can0 10203001#EAEA4DCF
(1744233735.788986) can0 10003001#AA030100CB2CEB00
(1744233735.789140) can0 10103001#00000B3C03080100
(1744233735.789243) can0 10203001#0321EB8DA3
(1744233735.789397) can0 10003001#AA030100CB2CEC00
(1744233735.789533) can0 10103001#00000B3C03080100
(1744233735.789656) can0 10203001#0141EC4EE6
(1744233735.790038) can0 00430342#07AA020100A02C0D
(1744233735.799948) can0 00830342#070000000B3C0342
(1744233735.803406) can0 10603001#5A45354830363031
(1744233735.809961) can0 00C30342#0501500D77C2
(1744233735.904876) can0 10603001#5A45354830363031
(1744233736.005492) can0 10603001#5A45354830363031
(1744233736.106495) can0 10603001#5A45354830363031
(1744233736.207498) can0 10603001#5A45354830363031
(1744233736.285915) can0 10003001#AA030100CB2CED00
(1744233736.286068) can0 10103001#00000B3C03080100
(1744233736.286171) can0 10203001#0150ED81F7
(1744233736.286325) can0 10003001#AA038000682CEE00
(1744233736.286501) can0 10103001#00000B3C03210100
(1744233736.286610) can0 10103001#031AA3DFDEDCB4DD
(1744233736.286751) can0 10103001#ACDAB4ABDBA6DED8
(1744233736.286899) can0 10103001#DEDF8E04EEEEA3ED
(1744233736.287034) can0 10103001#EFEF26EEEEEEEFEE
(1744233736.287176) can0 10103001#EEEEEEEEEEEEEFF1
(1744233736.287311) can0 10103001#DD23EEEEEAEEEEEE
(1744233736.287501) can0 10103001#FBEEEEAE72EEEE85
(1744233736.287604) can0 10103001#7AEEEE27C3EEEEEF
(1744233736.287739) can0 10103001#EEEEEE37E2EEEE21
(1744233736.287893) can0 10103001#E2EEEEF8FBFDFDEE
(1744233736.288028) can0 10103001#EEEEEEEEEEEEEEEE
(1744233736.288162) can0 10103001#C6E7EEEEEF8AEBEE
(1744233736.288316) can0 10103001#EEEEEEEEEEEEEEEE
(1744233736.288501) can0 10103001#C2EFEEEEEE8AEEEE
(1744233736.288591) can0 10103001#EEF9FBEEEEEEBA02
(1744233736.288741) can0 10103001#EEEEEEEEEEEEEEEE
(1744233736.288845) can0 10203001#EEEE42F3
(1744233736.288999) can0 10003001#AA032000702CEF00
(1744233736.289134) can0 10103001#00000B3C03350100
(1744233736.289288) can0 10103001#3510EEA2DEDFDDB5
(1744233736.289423) can0 10103001#DCADDBB5AADAA7DF
(1744233736.289564) can0 10103001#D9DFDEEEE4D3EEEE
(1744233736.289699) can0 10103001#ECA2EEEFEEFEEFEF
(1744233736.289818) can0 10203001#EFEF9FC8
(1744233736.289959) can0 10003001#AA030100CB2CF000
(1744233736.290113) can0 10103001#00000B3C03080100
(1744233736.290228) can0 10203001#0321F0E9B3
(1744233736.290362) can0 10003001#AA030100CB2CF100
(1744233736.290526) can0 10103001#00000B3C03080100
(1744233736.290642) can0 10203001#0141F1A332
(1744233736.299972) can0 00430342#07AA020100A02C0E
(1744233736.308967) can0 10603001#5A45354830363031
(1744233736.309984) can0 00830342#070000000B3C0342
(1744233736.319438) can0 00C30342#0501500E3887
(1744233736.410010) can0 10603001#5A45354830363031
(1744233736.511073) can0 10603001#5A45354830363031
(1744233736.611959) can0 10603001#5A45354830363031
(1744233736.713019) can0 10603001#5A45354830363031
(1744233736.785984) can0 10003001#AA030100CB2CF200
(1744233736.786133) can0 10103001#00000B3C03080100
(1744233736.786243) can0 10203001#0150F2EAA0
(1744233736.786396) can0 10003001#AA038000682CF300
(1744233736.786551) can0 10103001#00000B3C03210100
(1744233736.786686) can0 10103001#031ABEC2C3C1A9C0
(1744233736.786827) can0 10103001#B1C7A9B6C6BBC3C5
(1744233736.786974) can0 10103001#C3C29319F3F3BEF0
(1744233736.787116) can0 10103001#F2F23BF3F3F3F2F3
(1744233736.787265) can0 10103001#F3F3F3F3F3F3F2EC
(1744233736.787401) can0 10103001#C63EF3F3F7F3F3F3
(1744233736.787558) can0 10103001#E6F3F3B36FF3F398
(1744233736.787699) can0 10103001#67F3F33ADEF3F3F2
(1744233736.787826) can0 10103001#F3F3F32AFFF3F33C
(1744233736.787988) can0 10103001#FFF3F3E5E6E0E0F3
(1744233736.788136) can0 10103001#F3F3F3F3F3F3F3F3
(1744233736.788277) can0 10103001#DBFAF3F3F297F6F3
(1744233736.788457) can0 10103001#F3F3F3F3F3F3F3F3
(1744233736.788602) can0 10103001#DFF2F3F3F397F3F3
(1744233736.788750) can0 10103001#F3E4E6F3F3F3A71F
(1744233736.788892) can0 10103001#F3F3F3F3F3F3F3F3
(1744233736.788987) can0 10203001#F3F32C8A
(1744233736.789148) can0 10003001#AA030100CB2CF400
(1744233736.789296) can0 10103001#00000B3C03080100
(1744233736.789418) can0 10203001#0321F4E6F4
(1744233736.789558) can0 10003001#AA030100CB2CF500
(1744233736.789712) can0 10103001#00000B3C03080100
(1744233736.789834) can0 10203001#0141F5AC75
(1744233736.799965) can0 00430342#07AA020100A02C0F
(1744233736.809996) can0 00830342#070000000B3C0342
(1744233736.813520) can0 10603001#5A45354830363031
(1744233736.819966) can0 00C30342#0501500FFDBB
(1744233736.915020) can0 10603001#5A45354830363031
(1744233737.015404) can0 10603001#5A45354830363031
(1744233737.116989) can0 10603001#5A45354830363031
(1744233737.217962) can0 10603001#5A45354830363031
(1744233737.285430) can0 10003001#AA030100CB2CF600
(1744233737.285583) can0 10103001#00000B3C03080100
(1744233737.285693) can0 10203001#0150F6E5E7
(1744233737.285841) can0 10003001#AA038000682CF700
(1744233737.285995) can0 10103001#00000B3C03210100
(1744233737.286130) can0 10103001#031ABAC6C7C5ADC4
(1744233737.286272) can0 10103001#B5C3ADB2C2BFC7C1
(1744233737.286419) can0 10103001#C7C6971DF7F7BAF4
(1744233737.286563) can0 10103001#F6F63FF7F7F7F6F7
(1744233737.286712) can0 10103001#F7F7F7F7F7F7F6E8
(1744233737.286854) can0 10103001#C33AF7F7F3F7F7F7
(1744233737.286990) can0 10103001#E2F7F7B76BF7F79C
(1744233737.287138) can0 10103001#63F7F73EDAF7F7F6
(1744233737.287272) can0 10103001#F7F7F72EFBF7F738
(1744233737.287427) can0 10103001#FBF7F7E1E2E4E4F7
(1744233737.287569) can0 10103001#F7F7F7F7F7F7F7F7
(1744233737.287724) can0 10103001#DFFEF7F7F693F2F7
(1744233737.287859) can0 10103001#F7F7F7F7F7F7F7F7
(1744233737.288014) can0 10103001#DBF6F7F7F793F7F7
(1744233737.288162) can0 10103001#F7E0E2F7F7F7A31B
(1744233737.288304) can0 10103001#F7F7F7F7F7F7F7F7
(1744233737.288400) can0 10203001#F7F723B6
(1744233737.288563) can0 10003001#AA032000702CF800
(1744233737.288698) can0 10103001#00000B3C03350100
(1744233737.288852) can0 10103001#3510F9B5C9C8CAA2
(1744233737.288986) can0 10103001#CBBACCA2BDCDB0C8
(1744233737.289122) can0 10103001#CEC8C9F9F3C4F9F9
(1744233737.289276) can0 10103001#FBB5F9F8F9E9F8F8
(1744233737.289380) can0 10203001#F8F8CCEF
(1744233737.289537) can0 10003001#AA030100CB2CF900
(1744233737.289691) can0 10103001#00000B3C03080100
(1744233737.289795) can0 10203001#0321F9347C
(1744233737.289948) can0 10003001#AA030100CB2CFA00
(1744233737.290097) can0 10103001#00000B3C03080100
(1744233737.290219) can0 10203001#0141FAF87E
(1744233737.299965) can0 00430342#07AA020100A02C10
(1744233737.309984) can0 00830342#070000000B3C0342
(1744233737.318975) can0 10603001#5A45354830363031
(1744233737.319958) can0 00C30342#05015010D8A7
(1744233737.419407) can0 10603001#5A45354830363031
(1744233737.521062) can0 10603001#5A45354830363031
(1744233737.621988) can0 10603001#5A45354830363031
(1744233737.722992) can0 10603001#5A45354830363031
(1744233737.785950) can0 10003001#AA030100CB2CFB00
(1744233737.786085) can0 10103001#00000B3C03080100
(1744233737.786203) can0 10203001#0150FB376F
(1744233737.786358) can0 10003001#AA038000682CFC00
(1744233737.786555) can0 10103001#00000B3C03210100
(1744233737.786645) can0 10103001#031AB1CDCCCEA6CF
(1744233737.786780) can0 10103001#BEC8A6B9C9B4CCCA
(1744233737.786934) can0 10103001#CCCD9C16FCFCB1FF
(1744233737.787076) can0 10103001#FDFD34FCFCFCFDFC
(1744233737.787225) can0 10103001#FCFCFCFCFCFCFDE3
(1744233737.787380) can0 10103001#C831FCFCF8FCFCFC
(1744233737.787555) can0 10103001#E9FCFCBC60FCFC97
(1744233737.787665) can0 10103001#68FCFC35D1FCFCFD
(1744233737.787807) can0 10103001#FCFCFC25F0FCFC33
(1744233737.787956) can0 10103001#F0FCFCEAE9EFEFFC
(1744233737.788111) can0 10103001#FCFCFCFCFCFCFCFC
(1744233737.788246) can0 10103001#D4F5FCFCFD98F9FC
(1744233737.788401) can0 10103001#FCFCFCFCFCFCFCFC
(1744233737.788556) can0 10103001#D0FDFCFCFC98FCFC
(1744233737.788691) can0 10103001#FCEBE9FCFCFCA810
(1744233737.788826) can0 10103001#FCFCFCFCFCFCFCFC
(1744233737.788949) can0 10203001#FCFCFAA4
(1744233737.789084) can0 10003001#AA030100CB2CFD00
(1744233737.789238) can0 10103001#00000B3C03080100
(1744233737.789354) can0 10203001#0321FD3B3B
(1744233737.789556) can0 10003001#AA030100CB2CFE00
(1744233737.789643) can0 10103001#00000B3C03080100
(1744233737.789766) can0 10203001#0141FEF739
(1744233737.790016) can0 00430342#07AA020100A02C11
(1744233737.799969) can0 00830342#070000000B3C0342
(1744233737.809971) can0 00C30342#050150111D9B
(1744233737.823983) can0 10603001#5A45354830363031
(1744233737.924484) can0 10603001#5A45354830363031
(1744233738.025418) can0 10603001#5A45354830363031
(1744233738.126988) can0 10603001#5A45354830363031
(1744233738.227974) can0 10603001#5A45354830363031
(1744233738.285994) can0 10003001#AA030100CB2CFF00
(1744233738.286148) can0 10103001#00000B3C03080100
(1744233738.286258) can0 10203001#0150FF3828
(1744233738.286400) can0 10003001#AA038000682C0001
(1744233738.286574) can0 10103001#00000B3C03210100
(1744233738.286696) can0 10103001#031A4D3130325A33
(1744233738.286830) can0 10103001#42345A4535483036
(1744233738.286984) can0 10103001#303160EA00004D03
(1744233738.287138) can0 10103001#0101C70000000100
(1744233738.287286) can0 10103001#000000000000011F
(1744233738.287439) can0 10103001#33CD000004000000
(1744233738.287580) can0 10103001#150000409C00006B
(1744233738.287734) can0 10103001#940000C92D000001
(1744233738.287888) can0 10103001#000000D90C0000CF
(1744233738.288021) can0 10103001#0C00001615131300
(1744233738.288176) can0 10103001#0000000000000000
(1744233738.288330) can0 10103001#2809000001640500
(1744233738.288483) can0 10103001#0000000000000000
(1744233738.288635) can0 10103001#2C01000000640000
(1744233738.288778) can0 10103001#00171500000054EC
(1744233738.288925) can0 10103001#0000000000000000
(1744233738.289047) can0 10203001#00007FC5
(1744233738.289182) can0 10003001#AA032000702C0101
(1744233738.289336) can0 10103001#00000B3C03350100
(1744233738.289471) can0 10103001#3510004C3031335B
(1744233738.289612) can0 10103001#3243355B44344931
(1744233738.289760) can0 10103001#373130000A3D0000
(1744233738.289920) can0 10103001#024C000100100101
(1744233738.290023) can0 10203001#01014DF0
(1744233738.290178) can0 10003001#AA030100CB2C0201
(1744233738.290327) can0 10103001#00000B3C03080100
(1744233738.290449) can0 10203001#032102D246
(1744233738.290586) can0 10003001#AA030100CB2C0301
(1744233738.290740) can0 10103001#00000B3C03080100
(1744233738.290862) can0 10203001#01410398C7
(1744233738.299962) can0 00430342#07AA020100A02C12
(1744233738.309484) can0 00830342#070000000B3C0342
(1744233738.319962) can0 00C30342#0501501252DE
(1744233738.328994) can0 10603001#5A45354830363031
(1744233738.429488) can0 10603001#5A45354830363031
(1744233738.531182) can0 10603001#5A45354830363031
(1744233738.631407) can0 10603001#5A45354830363031
(1744233738.732629) can0 10603001#5A45354830363031
(1744233738.785938) can0 10003001#AA030100CB2C0401
(1744233738.786090) can0 10103001#00000B3C03080100
(1744233738.786193) can0 10203001#015004DE12
(1744233738.786347) can0 10003001#AA038000682C0501
(1744233738.786495) can0 10103001#00000B3C03210100
(1744233738.786636) can0 10103001#031A483435375F36
(1744233738.786771) can0 10103001#47315F40304D3533
(1744233738.786920) can0 10103001#353465EF05054806
(1744233738.787061) can0 10103001#0404CD0505050405
(1744233738.787214) can0 10103001#050505050505041A
(1744233738.787375) can0 10103001#31C8050501050505
(1744233738.787507) can0 10103001#100505459905056E
(1744233738.787644) can0 10103001#910505CC28050504
(1744233738.787797) can0 10103001#050505DC090505CB
(1744233738.787932) can0 10103001#0905051310161605
(1744233738.788085) can0 10103001#0505050505050505
(1744233738.788239) can0 10103001#2D0C050504610005
(1744233738.788392) can0 10103001#0505050505050505
(1744233738.788527) can0 10103001#2904050505610505
(1744233738.788664) can0 10103001#05121005050551E9
(1744233738.788817) can0 10103001#0505050505050505
(1744233738.788927) can0 10203001#05054A14
(1744233738.789075) can0 10003001#AA030100CB2C0601
(1744233738.789224) can0 10103001#00000B3C03080100
(1744233738.789348) can0 10203001#032106DD01
(1744233738.789489) can0 10003001#AA030100CB2C0701
(1744233738.789643) can0 10103001#00000B3C03080100
(1744233738.789765) can0 10203001#0141079780
(1744233738.790015) can0 00430342#07AA020100A02C13
(1744233738.799529) can0 00830342#070000000B3C0342
(1744233738.809989) can0 00C30342#0501501397E2
(1744233738.833960) can0 10603001#5A45354830363031
(1744233738.934470) can0 10603001#5A45354830363031
(1744233739.035972) can0 10603001#5A45354830363031
(1744233739.136975) can0 10603001#5A45354830363031
(1744233739.237513) can0 10603001#5A45354830363031
(1744233739.285614) can0 10003001#AA038000682C0801
(1744233739.285704) can0 10103001#00000B3C03210100
(1744233739.285855) can0 10103001#031A4539383A523B
(1744233739.285990) can0 10103001#4A3C524D3D40383E
(1744233739.286125) can0 10103001#383968E20808450B
(1744233739.286279) can0 10103001#0909CF0808080908
(1744233739.286433) can0 10103001#0808080808080917
(1744233739.286610) can0 10103001#3DC508080C080808
(1744233739.286719) can0 10103001#1D08084894080863
(1744233739.286854) can0 10103001#9C0808C125080809
(1744233739.287008) can0 10103001#080808D1040808C7
(1744233739.287143) can0 10103001#0408081E1D1B1B08
(1744233739.287297) can0 10103001#0808080808080808
(1744233739.287451) can0 10103001#20010808096C0D08
(1744233739.287611) can0 10103001#0808080808080808
(1744233739.287745) can0 10103001#24090808086C0808
(1744233739.287881) can0 10103001#081F1D0808085CE4
(1744233739.288034) can0 10103001#0808080808080808
(1744233739.288137) can0 10203001#08086609
(1744233739.288290) can0 10003001#AA030100CB2C0901
(1744233739.288445) can0 10103001#00000B3C03080100
(1744233739.288548) can0 10203001#0150090C9A
(1744233739.288698) can0 10003001#AA032000702C0A01
(1744233739.288852) can0 10103001#00000B3C03350100
(1744233739.288994) can0 10103001#35100B473B3A3850
(1744233739.289128) can0 10103001#39483E504F3F423A
(1744233739.289282) can0 10103001#3C3A3B0B01360B0B
(1744233739.289417) can0 10103001#09470B0A0B1B0A0A
(1744233739.289539) can0 10203001#0A0AC058
(1744233739.289681) can0 10003001#AA030100CB2C0B01
(1744233739.289829) can0 10103001#00000B3C03080100
(1744233739.289933) can0 10203001#03210B0F89
(1744233739.290088) can0 10003001#AA030100CB2C0C01
(1744233739.290241) can0 10103001#00000B3C03080100
(1744233739.290353) can0 10203001#01410CCCCC
(1744233739.299987) can0 00430342#07AA020100A02C14
(1744233739.310031) can0 00830342#070000000B3C0342
(1744233739.319955) can0 00C30342#05015014CC54
(1744233739.338413) can0 10603001#5A45354830363031
(1744233739.440011) can0 10603001#5A45354830363031
(1744233739.540470) can0 10603001#5A45354830363031
(1744233739.641464) can0 10603001#5A45354830363031
(1744233739.742542) can0 10603001#5A45354830363031
(1744233739.786092) can0 10003001#AA038000682C0D01
(1744233739.786238) can0 10103001#00000B3C03210100
(1744233739.786376) can0 10103001#031A403C3D3F573E
(1744233739.786502) can0 10103001#4F39574838453D3B
(1744233739.786667) can0 10103001#3D3C6DE70D0D400E
(1744233739.786802) can0 10103001#0C0CC50D0D0D0C0D
(1744233739.786937) can0 10103001#0D0D0D0D0D0D0C12
(1744233739.787091) can0 10103001#3FC00D0DE8F2F2F2
(1744233739.787226) can0 10103001#180D0D4D910D0D66
(1744233739.787361) can0 10103001#990D0DC4200D0D0C
(1744233739.787515) can0 10103001#0D0D0DD4010D0DC2
(1744233739.787652) can0 10103001#010D0D1B181E1E0D
(1744233739.787793) can0 10103001#0D0D0D0DF2F2F2F2
(1744233739.787947) can0 10103001#25040D0D0C69080D
(1744233739.788082) can0 10103001#0D0D0D0D0D0D0D0D
(1744233739.788216) can0 10103001#210C0D0D0D690D0D
(1744233739.788370) can0 10103001#0D1A180D0D0D59E1
(1744233739.788505) can0 10103001#0D0D0D0D0D0D0D0D
(1744233739.788629) can0 10203001#0D0DC828
(1744233739.788763) can0 10003001#AA030100CB2C0E01
(1744233739.788898) can0 10103001#00000B3C03080100
(1744233739.789020) can0 10203001#01500E461F
(1744233739.789174) can0 10003001#AA030100CB2C0F01
(1744233739.789322) can0 10103001#00000B3C03080100
(1744233739.789432) can0 10203001#03210F00CE
(1744233739.789628) can0 10003001#AA030100CB2C1001
(1744233739.789738) can0 10103001#00000B3C03080100
(1744233739.789849) can0 10203001#014110E259
(1744233739.799980) can0 00430342#07AA020100A02C15
(1744233739.809481) can0 00830342#070000000B3C0342
(1744233739.819979) can0 00C30342#050150150968
(1744233739.843993) can0 10603001#5A45354830363031
(1744233739.944526) can0 10603001#5A45354830363031
(1744233740.045982) can0 10603001#5A45354830363031
(1744233740.146993) can0 10603001#5A45354830363031
(1744233740.247415) can0 10603001#5A45354830363031
(1744233740.286104) can0 10003001#AA038000682C1101
(1744233740.286256) can0 10103001#00000B3C03210100
(1744233740.286388) can0 10103001#031A5C2021234B22
(1744233740.286538) can0 10103001#53254B5424592127
(1744233740.286679) can0 10103001#212071FB11115C12
(1744233740.286814) can0 10103001#1010D91111111011
(1744233740.286955) can0 10103001#111111111111100E
(1744233740.287102) can0 10103001#27DC111115111111
(1744233740.287243) can0 10103001#041111518D11117A
(1744233740.287391) can0 10103001#851111D83C111110
(1744233740.287532) can0 10103001#111111C81D1111DE
(1744233740.287670) can0 10103001#1D11110704020211
(1744233740.287824) can0 10103001#1111111111111111
(1744233740.287959) can0 10103001#3918111110751411
(1744233740.288094) can0 10103001#1111111111111111
(1744233740.288243) can0 10103001#3D10111111751111
(1744233740.288385) can0 10103001#11060411111145FD
(1744233740.288539) can0 10103001#1111111111111111
(1744233740.288647) can0 10203001#11112DEA
(1744233740.288782) can0 10003001#AA030100CB2C1201
(1744233740.288936) can0 10103001#00000B3C03080100
(1744233740.289052) can0 10203001#015012688A
(1744233740.289187) can0 10003001#AA032000702C1301
(1744233740.289336) can0 10103001#00000B3C03350100
(1744233740.289477) can0 10103001#3510125E22232149
(1744233740.289647) can0 10103001#2051274956265B23
(1744233740.289769) can0 10103001#25232212182F1212
(1744233740.289903) can0 10103001#105E121312021313
(1744233740.290026) can0 10203001#13137C38
(1744233740.290161) can0 10003001#AA030100CB2C1401
(1744233740.290315) can0 10103001#00000B3C03080100
(1744233740.290437) can0 10203001#03211464DE
(1744233740.290572) can0 10003001#AA030100CB2C1501
(1744233740.290730) can0 10103001#00000B3C03080100
(1744233740.290845) can0 10203001#0141152E5F
(1744233740.299991) can0 00430342#07AA020100A02C16
(1744233740.309832) can0 00830342#070000000B3C0342
(1744233740.319967) can0 00C30342#05015016462D
(1744233740.349108) can0 10603001#5A45354830363031
(1744233740.450342) can0 10603001#5A45354830363031
(1744233740.551365) can0 10603001#5A45354830363031
(1744233740.652362) can0 10603001#5A45354830363031
(1744233740.752416) can0 10603001#5A45354830363031
(1744233740.786098) can0 10003001#AA038000682C1601
(1744233740.786246) can0 10103001#00000B3C03210100
(1744233740.786387) can0 10103001#031A5B2726244C25
(1744233740.786541) can0 10103001#54224C53235E2620
(1744233740.786673) can0 10103001#262776FC16165B15
(1744233740.786814) can0 10103001#1717DE1616161716
(1744233740.786949) can0 10103001#1616161616161709
(1744233740.787103) can0 10103001#23DB161635161616
(1744233740.787238) can0 10103001#031616568A16167D
(1744233740.787392) can0 10103001#821616DF3B161617
(1744233740.787527) can0 10103001#161616CF1A1616D9
(1744233740.787665) can0 10103001#1A16160003050516
(1744233740.787806) can0 10103001#1616161616161616
(1744233740.787960) can0 10103001#3E1F161617721316
(1744233740.788095) can0 10103001#1616161616161616
(1744233740.788230) can0 10103001#3A17161616721616
(1744233740.788379) can0 10103001#16010316161642FA
(1744233740.788521) can0 10103001#1616161616161616
(1744233740.788665) can0 10203001#16161C8C
(1744233740.788775) can0 10003001#AA030100CB2C1701
