(1744106964.391863) can0 10A03130#5A45354830363031
(1744106964.392000) can0 10A03130#5A45354830363031
(1744106964.392134) can0 10A03130#5A45354830363031
(1744106964.392275) can0 10A03130#5A45354830363031
(1744106964.392429) can0 10A03130#5A45354830363031
(1744106964.392563) can0 10A03130#5A45354830363031
(1744106964.392726) can0 10A03130#5A45354830363031
(1744106964.392854) can0 10A03130#5A45354830363031
(1744106964.392989) can0 10A03130#5A45354830363031
(1744106964.393143) can0 10A03130#5A45354830363031
(1744106964.393277) can0 10A03130#5A45354830363031
(1744106964.393413) can0 10A03130#5A45354830363031
(1744106964.393566) can0 10A03130#5A45354830363031
(1744106964.393725) can0 10A03130#5A45354830363031
(1744106964.393841) can0 10A03130#5A45354830363031
(1744106964.393995) can0 10A03130#5A45354830363031
(1744106964.394136) can0 10A03130#5A45354830363031
(1744106964.394271) can0 10A03130#5A45354830363031
(1744106964.394419) can0 10A03130#5A45354830363031
(1744106964.394560) can0 10A03130#5A45354830363031
(1744106964.394726) can0 10603001#5A45354830363031
(1744106964.394848) can0 10003001#AA030B00492C3500
(1744106964.394997) can0 10103001#00000B3C03030100
(1744106964.395139) can0 10103001#030235DD36353535
(1744106964.395274) can0 10203001#D435353435CD05
(1744106964.395428) can0 10603001#5A45354830363031
(1744106964.395563) can0 10003001#AA037800D42C3600
(1744106964.395725) can0 10103001#00000B3C03030100
(1744106964.395873) can0 10103001#0301363436363636
(1744106964.396007) can0 10103001#363667F815363636
(1744106964.396156) can0 10103001#26C9493736E03AE0
(1744106964.396298) can0 10103001#3A883AE63AE53AE4
(1744106964.396432) can0 10103001#3AE53AF13AE23AE5
(1744106964.396586) can0 10103001#3AE63AE53AE73AE5
(1744106964.396725) can0 10103001#3AE63A3636E03A88
(1744106964.396879) can0 10103001#3AE63A3634252422
(1744106964.397014) can0 10103001#2236363636363636
(1744106964.397149) can0 10103001#3636363636363636
(1744106964.397303) can0 10103001#3637363636363637
(1744106964.397438) can0 10103001#3616363636363636
(1744106964.397592) can0 10103001#36363636BB373737
(1744106964.397726) can0 10103001#3636363625243636
(1744106964.397867) can0 10103001#3636252436363636
(1744106964.397989) can0 10203001#363678AF
(1744106964.398124) can0 10603001#5A45354830363031
(1744106964.398279) can0 10603001#5A45354830363031
(1744106964.398413) can0 10003001#AA030B00492C3700
(1744106964.398568) can0 10103001#00000B3C03030100
(1744106964.398725) can0 10103001#030237DF34373737
(1744106964.398848) can0 10203001#D6373737371C1C
(1744106964.398996) can0 10003001#AA037800D42C3800
(1744106964.399149) can0 10103001#00000B3C03030100
(1744106964.399284) can0 10103001#0301383A38383838
(1744106964.399439) can0 10103001#383869F63C383838
(1744106964.399587) can0 10103001#28C7473938EE34EF
(1744106964.399726) can0 10103001#348734E934EB34EA
(1744106964.399867) can0 10103001#34EC34FF34EB34EB
(1744106964.400008) can0 10103001#34EA34EB34E934EB
(1744106964.400158) can0 10103001#34E9343838EF3487
(1744106964.400294) can0 10103001#34E834393A2B2A2C
(1744106964.400447) can0 10103001#2C38383838383838
(1744106964.400601) can0 10103001#3838383838383838
(1744106964.400757) can0 10103001#3838383838383839
(1744106964.400892) can0 10103001#3818383838383838
(1744106964.401046) can0 10103001#38383838B5393939
(1744106964.401200) can0 10103001#383838382B2A3838
(1744106964.401348) can0 10103001#38382B2A38383838
(1744106964.401457) can0 10203001#38382FC2
(1744106964.401606) can0 10603001#5A45354830363031
(1744106964.401745) can0 10003001#AA030100CB2C3900
(1744106964.401894) can0 10103001#00000B3C03080100
(1744106964.402017) can0 10203001#015039B0BD
(1744106964.402158) can0 10003001#AA037E00AA2C3A00
(1744106964.402306) can0 10103001#00000B3C03210100
(1744106964.402459) can0 10103001#031A770B0A086009
(1744106964.402595) can0 10103001#780E607F0F720A0C
(1744106964.402751) can0 10103001#0A0B3A3A3A3AB73B
(1744106964.402892) can0 10103001#3B3BFC3A3A3A3B3A
(1744106964.403026) can0 10103001#3A3A3A3A3A3A3B3A
(1744106964.403180) can0 10103001#31F73A3A3E3A3A3A
(1744106964.403338) can0 10103001#283A3A3A3A3A3A3A
(1744106964.403473) can0 10103001#3A3A3A3A3A3A3A3A
(1744106964.403603) can0 10103001#3A3A3AED363A3A85
(1744106964.403746) can0 10103001#363A3A29282E2E3A
(1744106964.403880) can0 10103001#3A3A3A3A3A3A3A3A
(1744106964.404015) can0 10103001#3B3A3A3A3A3A3A3A
(1744106964.404168) can0 10103001#3A3A3A3A3A3A3A3A
(1744106964.404303) can0 10103001#163B3A3A3A3A3A3A
(1744106964.404444) can0 10103001#3A3A3A3A3A3A3A3A
(1744106964.404579) can0 10103001#3A3A3A3A3A3A3A3A
(1744106964.404660) can0 10203001#A935
(1744106964.404822) can0 10003001#AA037E00AA2C3B00
(1744106964.404957) can0 10103001#00000B3C03030100
(1744106964.405111) can0 10103001#031A760A0B096108
(1744106964.405244) can0 10103001#790F617E0E730B0D
(1744106964.405386) can0 10103001#0B0A3B3B3B3BB63A
(1744106964.405521) can0 10103001#3A3AFD3B3B3B3A3B
(1744106964.405727) can0 10103001#3B3B3B3B3B3B3A3B
(1744106964.405811) can0 10103001#30F63B3B3F3B3B3B
(1744106964.405945) can0 10103001#293B3B3B3B3B3B3B
(1744106964.406098) can0 00430308#07AA020100A02C00
(1744106964.406233) can0 00830308#070000000B3C0308
(1744106964.406388) can0 00C30308#050150009BB30000
(1744106964.406522) can0 00430308#07AA020100A02C01
(1744106964.406726) can0 00830308#070000000B3C0308
(1744106964.406807) can0 00C30308#050150015E8F0000
(1744106964.406968) can0 00430308#07AA020100A02C02
(1744106964.407102) can0 00830308#070000000B3C0308
(1744106964.407256) can0 10003001#AA030100CB2C4600
(1744106964.407391) can0 10103001#00000B3C03000100
(1744106964.407513) can0 10203001#03044705EA
(1744106964.407660) can0 00C30308#0501500211CA0000
(1744106964.407803) can0 00430308#07AA020100A02C03
(1744106964.427124) can0 10003001#AA030100CB2C4700
(1744106964.427282) can0 10103001#00000B3C03000100
(1744106964.427398) can0 10203001#030446C6AB
(1744106964.455875) can0 10003001#AA030B00492C4800
(1744106964.456010) can0 10103001#00000B3C03030100
(1744106964.456164) can0 10103001#03024AA04B484848
(1744106964.456280) can0 10203001#A94848484867B4
(1744106964.470774) can0 10603001#5A45354830363031
(1744106964.556407) can0 10003001#AA037800D42C4900
(1744106964.556543) can0 10103001#00000B3C03030100
(1744106964.556733) can0 10103001#0301494B4955FBCE
(1744106964.556836) can0 10103001#A9081887ACB6B6B6
(1744106964.556970) can0 10103001#59B63648499E459E
(1744106964.557105) can0 10103001#45F64598459A459B
(1744106964.557246) can0 10103001#459D458E459A459A
(1744106964.557381) can0 10103001#4599459D45984598
(1744106964.557531) can0 10103001#45984549499E45F6
(1744106964.557666) can0 10103001#459945494B5A5B5D
(1744106964.557809) can0 10103001#5D4909D5494927DD
(1744106964.557944) can0 10103001#4949E16049494949
(1744106964.558085) can0 10103001#49B6B6B6B649494B
(1744106964.558219) can0 10103001#4969494949494949
(1744106964.558373) can0 10103001#49494949C4484848
(1744106964.558508) can0 10103001#494949495A5B4949
(1744106964.558641) can0 10103001#49495A5B49494949
(1744106964.558752) can0 10203001#49499C1B
(1744106964.570944) can0 10603001#5A45354830363031
(1744106964.625819) can0 10003001#AA030100CB2C4A00
(1744106964.625969) can0 10103001#00000B3C03000100
(1744106964.626091) can0 10203001#03044B1423
(1744106964.655531) can0 10003001#AA030100CB2C4B00
(1744106964.655737) can0 10103001#00000B3C03080100
(1744106964.655802) can0 10203001#01504B88EA
(1744106964.655942) can0 10003001#AA037E00AA2C4C00
(1744106964.656090) can0 10103001#00000B3C03210100
(1744106964.656231) can0 10103001#031A017D7C7E167F
(1744106964.656379) can0 10103001#0E78160979047C7A
(1744106964.656514) can0 10103001#7C7D4C4C4C4CC14D
(1744106964.656655) can0 10103001#4D4D8A4C4C4C4D4C
(1744106964.656794) can0 10103001#4C4C4C4C4C4C4D50
(1744106964.656944) can0 10103001#47814C4CA9B3B3B3
(1744106964.657079) can0 10103001#5E4C4C0CD04C4C22
(1744106964.657221) can0 10103001#D84C4CE4654C4C4C
(1744106964.657355) can0 10103001#4C4C4C9B404C4CF3
(1744106964.657509) can0 10103001#404C4C5F5E58584C
(1744106964.657644) can0 10103001#4C4C4C4C4C4C4C4C
(1744106964.657782) can0 10103001#4D4C4C4C4C284C4C
(1744106964.657916) can0 10103001#4C4C4C4C4C4C4C4C
(1744106964.658050) can0 10103001#604D4C4C4C4C4C4C
(1744106964.658191) can0 10103001#4C4C4C4C4C4C4C4C
(1744106964.658326) can0 10103001#4C4C4C4C4C4C4C4C
(1744106964.658429) can0 10203001#3C8B
(1744106964.658563) can0 10003001#AA037E00AA2C4D00
(1744106964.658737) can0 10103001#00000B3C03030100
(1744106964.658859) can0 10103001#031A007C7D7F177E
(1744106964.659013) can0 10103001#0F79170878057D7B
(1744106964.659148) can0 10103001#7D7C4D4D4D4DC04C
(1744106964.659282) can0 10103001#4C4C8B4D4D4D4C4D
(1744106964.659418) can0 10103001#4D4D4D4D4D4D4C51
(1744106964.659552) can0 10103001#46804D4DA8B2B2B2
(1744106964.659737) can0 10103001#5F4D4D0DD14D4D23
(1744106964.659846) can0 10103001#D94D4DE5644D4D4D
(1744106964.659981) can0 10103001#4D4D4D9A414D4DF2
(1744106964.660115) can0 10103001#414D4D5E5F59594D
(1744106964.660250) can0 10103001#4D4D4D4D4D4D4D4D
(1744106964.660392) can0 10103001#4C4D4D4D4D294D4D
(1744106964.660540) can0 10103001#4D4D4D4D4D4D4D4D
(1744106964.660675) can0 10103001#614C4D4D4D4D4D4D
(1744106964.660820) can0 10103001#4D4D4D4D4D4D4D4D
(1744106964.660955) can0 10103001#4D4D4D4D4D4D4D4D
(1744106964.661046) can0 10203001#6AF2
(1744106964.661181) can0 00430308#07AA020100A02C07
(1744106964.661330) can0 00830308#070000000B3C0308
(1744106964.661484) can0 00C30308#05015007C0050000
(1744106964.671782) can0 10603001#5A45354830363031
(1744106964.725515) can0 10003001#AA030100CB2C4E00
(1744106964.725664) can0 10103001#00000B3C03030100
(1744106964.725772) can0 10203001#03C34F4967
(1744106964.725913) can0 10003001#AA030100CB2C4F00
(1744106964.726061) can0 10103001#00000B3C03030100
(1744106964.726182) can0 10203001#03C34E8A26
(1744106964.726317) can0 10003001#AA030100CB2C5000
(1744106964.726471) can0 10103001#00000B3C03030100
(1744106964.726593) can0 10203001#03C351E171
(1744106964.726740) can0 10003001#AA030100CB2C5100
(1744106964.726880) can0 10103001#00000B3C03030100
(1744106964.726983) can0 10203001#03C3502230
(1744106964.727137) can0 10003001#AA030100CB2C5200
(1744106964.727287) can0 10103001#00000B3C03030100
(1744106964.727398) can0 10203001#03C35367F2
(1744106964.727546) can0 10003001#AA030100CB2C5300
(1744106964.727740) can0 10103001#00000B3C03030100
(1744106964.727805) can0 10203001#03C352A4B3
(1744106964.727959) can0 10003001#AA030100CB2C5400
(1744106964.728112) can0 10103001#00000B3C03030100
(1744106964.728215) can0 10203001#03C355EE36
(1744106964.728363) can0 10003001#AA030100CB2C5500
(1744106964.728504) can0 10103001#00000B3C03030100
(1744106964.728621) can0 10203001#03C3542D77
(1744106964.728760) can0 10003001#AA030100CB2C5600
(1744106964.728909) can0 10103001#00000B3C03030100
(1744106964.729038) can0 10203001#03C35768B5
(1744106964.729172) can0 10003001#AA030100CB2C5700
(1744106964.729326) can0 10103001#00000B3C03030100
(1744106964.729430) can0 10203001#03C356ABF4
(1744106964.754318) can0 10003001#AA030B00492C5800
(1744106964.754452) can0 10103001#00000B3C03030100
(1744106964.754603) can0 10103001#03025AB05B585858
(1744106964.754741) can0 10203001#B958585858E8BA
(1744106964.755398) can0 10003001#AA037800D42C5900
(1744106964.755552) can0 10103001#00000B3C03030100
(1744106964.755741) can0 10103001#0301595B5945EBDE
(1744106964.755829) can0 10103001#B91808975D595959
(1744106964.755971) can0 10103001#49A62658598F558E
(1744106964.756106) can0 10103001#55E45589558A5588
(1744106964.756247) can0 10103001#558A559E558D558A
(1744106964.756382) can0 10103001#558B558A55885588
(1744106964.756517) can0 10103001#558B5559598E55E4
(1744106964.756670) can0 10103001#558955585B4A4B4D
(1744106964.756811) can0 10103001#4D6B19C5595937CD
(1744106964.756945) can0 10103001#5959F17059595959
(1744106964.757080) can0 10103001#595959595959595B
(1744106964.757221) can0 10103001#5979595959595959
(1744106964.757355) can0 10103001#59595959D4585858
(1744106964.757490) can0 10103001#595959594A4B5959
(1744106964.757645) can0 10103001#59594A4B59595959
(1744106964.757748) can0 10203001#5959CA67
(1744106964.772297) can0 10603001#5A45354830363031
(1744106964.825142) can0 10003001#AA030100CB2C5A00
(1744106964.825273) can0 10103001#00000B3C03000100
(1744106964.825396) can0 10203001#03045B2B7F
(1744106964.872747) can0 10603001#5A45354830363031
(1744106964.954375) can0 10003001#AA037800D42C5B00
(1744106964.954515) can0 10103001#00000B3C03030100
(1744106964.954669) can0 10103001#03015B595B47F5DC
(1744106964.954794) can0 10103001#BB1A0A959DA4A4A4
(1744106964.954943) can0 10103001#4BA4245A5B8E578C
(1744106964.955079) can0 10103001#57E4578A5788578A
(1744106964.955220) can0 10103001#578F579C57885788
(1744106964.955355) can0 10103001#578B5788578B578A
(1744106964.955485) can0 10103001#5789575B5B8C57E4
(1744106964.955643) can0 10103001#578B575A5948494F
(1744106964.955783) can0 10103001#4F6D1BC75B5B35CF
(1744106964.955917) can0 10103001#5B5BF3725B5B5B5B
(1744106964.956052) can0 10103001#5BA6A4A4A45B5B59
(1744106964.956193) can0 10103001#5B7B5B5B5B5B5B5B
(1744106964.956328) can0 10103001#5B5B5B5BD65A5A5A
(1744106964.956463) can0 10103001#5B5B5B5B48495B5B
(1744106964.956597) can0 10103001#5B5B48495B5B5B5B
(1744106964.956750) can0 10203001#5B5B2A9C
(1744106964.973241) can0 10603001#5A45354830363031
(1744106965.024115) can0 10003001#AA030100CB2C5C00
(1744106965.024256) can0 10103001#00000B3C03000100
(1744106965.024371) can0 10203001#03045DA2BB
(1744106965.052805) can0 10003001#AA030B00492C5D00
(1744106965.052946) can0 10103001#00000B3C03030100
(1744106965.053095) can0 10103001#03025FB55E5D5D5D
(1744106965.053218) can0 10203001#BC5D5D5D5DA3AD
(1744106965.073755) can0 10603001#5A45354830363031
(1744106965.153332) can0 10003001#AA030100CB2C5E00
(1744106965.153466) can0 10103001#00000B3C03080100
(1744106965.153589) can0 10203001#01505E7BB0
(1744106965.153758) can0 10003001#AA037800D42C5F00
(1744106965.153880) can0 10103001#00000B3C03030100
(1744106965.154028) can0 10103001#03015F5D5F43F1D8
(1744106965.154169) can0 10103001#BF1E0E915B5F5F5F
(1744106965.154317) can0 10103001#4FA0205E5F895388
(1744106965.154458) can0 10103001#53E1538F538C538E
(1744106965.154592) can0 10103001#538B5398538B538C
(1744106965.154758) can0 10103001#538D538C538E538D
(1744106965.154880) can0 10103001#538E535F5F8853E1
(1744106965.155022) can0 10103001#538F535E5D4C4D4B
(1744106965.155156) can0 10103001#4B691FC35F5F31CB
(1744106965.155292) can0 10103001#5F5FF7765F5F5F5F
(1744106965.155446) can0 10103001#5F5F5F5F5F5F5F5D
(1744106965.155601) can0 10103001#5F7F5F5F5F5F5F5F
(1744106965.155758) can0 10103001#5F5F5F5FD25E5E5E
(1744106965.155874) can0 10103001#5F5F5F5F4C4D5F5F
(1744106965.156027) can0 10103001#5F5F4C4D5F5F5F5F
(1744106965.156130) can0 10203001#5F5F5454
(1744106965.156279) can0 10003001#AA037E00AA2C6000
(1744106965.156420) can0 10103001#00000B3C03210100
(1744106965.156574) can0 10103001#031A2D5150523A53
(1744106965.156758) can0 10103001#22543A2555285056
(1744106965.156839) can0 10103001#505160606060ED61
(1744106965.156993) can0 10103001#6161A66060606160
(1744106965.157134) can0 10103001#606060606060617C
(1744106965.157288) can0 10103001#6AAD606064606060
(1744106965.157423) can0 10103001#72606020FC60600E
(1744106965.157576) can0 10103001#F46060C849606060
(1744106965.157758) can0 10103001#606060B76C6060DE
(1744106965.157849) can0 10103001#6C60607372747460
(1744106965.157997) can0 10103001#6060606060606060
(1744106965.158152) can0 10103001#6160606060046060
(1744106965.158287) can0 10103001#6060606060606060
(1744106965.158440) can0 10103001#4C61606060606060
(1744106965.158590) can0 10103001#6060606060606060
(1744106965.158758) can0 10103001#6060606060606060
(1744106965.158836) can0 10203001#9E5C
(1744106965.158971) can0 10003001#AA037E00AA2C6100
(1744106965.159106) can0 10103001#00000B3C03030100
(1744106965.159260) can0 10103001#031A2C5051533B52
(1744106965.159395) can0 10103001#23553B2454295157
(1744106965.159536) can0 10103001#515061616161EC60
(1744106965.159685) can0 10103001#6060A76161616061
(1744106965.159828) can0 10103001#616161616161607D
(1744106965.159962) can0 10103001#6BAC616165616161
(1744106965.160097) can0 10103001#73616121FD61610F
(1744106965.160231) can0 10103001#F56161C948616161
(1744106965.160386) can0 10103001#616161B66D6161DF
(1744106965.160527) can0 10103001#6D61617273757561
(1744106965.160662) can0 10103001#6161616161616161
(1744106965.160802) can0 10103001#6061616161056161
(1744106965.160938) can0 10103001#6161616161616161
(1744106965.161072) can0 10103001#4D60616161616161
(1744106965.161213) can0 10103001#6161616161616161
(1744106965.161361) can0 10103001#6161616161616161
(1744106965.161452) can0 10203001#C825
(1744106965.161586) can0 10003001#AA032000702C6200
(1744106965.161758) can0 10103001#00000B3C03350100
(1744106965.161877) can0 10103001#3510632F53525038
(1744106965.162013) can0 10103001#5120563827572A52
(1744106965.162167) can0 10103001#54525363695E6363
(1744106965.162301) can0 10103001#63EF636263736262
(1744106965.162411) can0 10203001#62627B3F
(1744106965.162545) can0 00430308#07AA020100A02C08
(1744106965.162693) can0 00830308#070000000B3C0308
(1744106965.162834) can0 00C30308#05015008B0150000
(1744106965.174208) can0 10603001#5A45354830363031
(1744106965.223092) can0 10003001#AA030100CB2C6300
(1744106965.223232) can0 10103001#00000B3C03000100
(1744106965.223349) can0 10203001#030462B754
(1744106965.274362) can0 10603001#5A45354830363031
(1744106965.351268) can0 10003001#AA030B00492C6400
(1744106965.351422) can0 10103001#00000B3C03030100
(1744106965.351556) can0 10103001#0302668C67646464
(1744106965.351678) can0 10203001#85646464649C5D
(1744106965.352363) can0 10003001#AA037800D42C6500
(1744106965.352504) can0 10103001#00000B3C03030100
(1744106965.352651) can0 10103001#030165676579CBE2
(1744106965.352792) can0 10103001#852434AB61656565
(1744106965.352933) can0 10103001#759A1A6465B369B2
(1744106965.353068) can0 10103001#69DB69B569B169B7
(1744106965.353202) can0 10103001#69B669A269B669B1
(1744106965.353338) can0 10103001#69B569B169B469B4
(1744106965.353479) can0 10103001#69B4696565B269DB
(1744106965.353614) can0 10103001#69B5696467767771
(1744106965.353766) can0 10103001#715325F965650BF1
(1744106965.353907) can0 10103001#6565CD4C65656565
(1744106965.354043) can0 10103001#6565656565656567
(1744106965.354177) can0 10103001#6545656565656565
(1744106965.354311) can0 10103001#65656565E8646464
(1744106965.354452) can0 10103001#6565656576776565
(1744106965.354588) can0 10103001#6565767765656565
(1744106965.354767) can0 10203001#6565FD1F
(1744106965.374898) can0 10603001#5A45354830363031
(1744106965.421776) can0 10003001#AA030100CB2C6600
(1744106965.421929) can0 10103001#00000B3C03000100
(1744106965.422052) can0 10203001#0304677B52
(1744106965.475350) can0 10603001#5A45354830363031
(1744106965.551412) can0 10003001#AA037800D42C6700
(1744106965.551566) can0 10103001#00000B3C03030100
(1744106965.551700) can0 10103001#03016765677BC9E0
(1744106965.551836) can0 10103001#872636A963676767
(1744106965.551978) can0 10103001#7798186667B16BB1
(1744106965.552131) can0 10103001#6BD86BB66BB46BB5
(1744106965.552267) can0 10103001#6BB46BA06BB36BB4
(1744106965.552401) can0 10103001#6BB76BB46BB66BB6
(1744106965.552542) can0 10103001#6BB66B6767B16BD8
(1744106965.552677) can0 10103001#6BB76B6765747573
(1744106965.552819) can0 10103001#735127FB676709F3
(1744106965.552973) can0 10103001#6767CF4E67676767
(1744106965.553108) can0 10103001#6767676767676765
(1744106965.553242) can0 10103001#6747676767676767
(1744106965.553377) can0 10103001#67676767EA666666
(1744106965.553511) can0 10103001#6767676774756767
(1744106965.553652) can0 10103001#6767747567676767
(1744106965.553775) can0 10203001#67676A4C
(1744106965.576195) can0 10603001#5A45354830363031
(1744106965.621086) can0 10003001#AA030100CB2C6800
(1744106965.621240) can0 10103001#00000B3C03000100
(1744106965.621362) can0 10203001#030469EC18
(1744106965.649843) can0 10003001#AA030B00492C6900
(1744106965.649990) can0 10103001#00000B3C03030100
(1744106965.650131) can0 10103001#03026B816A696969
(1744106965.650247) can0 10203001#886969696991ED
(1744106965.650811) can0 10003001#AA030100CB2C6A00
(1744106965.650944) can0 10103001#00000B3C03080100
(1744106965.651067) can0 10203001#01506A3513
(1744106965.651221) can0 10003001#AA037E00AA2C6B00
(1744106965.651356) can0 10103001#00000B3C03210100
(1744106965.651505) can0 10103001#031A265A5B593158
(1744106965.651647) can0 10103001#295F312E5E235B5D
(1744106965.651779) can0 10103001#5B5A6B6B6B6BE66A
(1744106965.651920) can0 10103001#6A6AAD6B6B6B6A6B
(1744106965.652055) can0 10103001#6B6B6B6B6B6B6A77
(1744106965.652196) can0 10103001#63A66B6B6F6B6B6B
(1744106965.652350) can0 10103001#796B6B2BF76B6B05
(1744106965.652486) can0 10103001#FF6B6BC3426B6B6B
(1744106965.652619) can0 10103001#6B6B6BBD676B6BD4
(1744106965.652779) can0 10103001#676B6B78797F7F6B
(1744106965.652895) can0 10103001#6B6B6B6B6B6B6B6B
(1744106965.653049) can0 10103001#3F636B6B6B0F6B6B
(1744106965.653176) can0 10103001#6B6B6B6B6B6B6B6B
(1744106965.653317) can0 10103001#476A6B6B6B6B6B6B
(1744106965.653458) can0 10103001#6B6B6B6B6B6B6B6B
(1744106965.653593) can0 10103001#6B6B6B6B6B6B6B6B
(1744106965.653677) can0 10203001#E308
(1744106965.653836) can0 10003001#AA037E00AA2C6C00
(1744106965.653971) can0 10103001#00000B3C03030100
(1744106965.654124) can0 10103001#031A215D5C5E365F
(1744106965.654258) can0 10103001#2E58362959245C5A
(1744106965.654399) can0 10103001#5C5D6C6C6C6CE16D
(1744106965.654534) can0 10103001#6D6DAA6C6C6C6D6C
(1744106965.654669) can0 10103001#6C6C6C6C6C6C6D70
(1744106965.654818) can0 10103001#64A16C6C686C6C6C
(1744106965.654959) can0 10103001#7E6C6C2CF06C6C02
(1744106965.655094) can0 10103001#F86C6CC4456C6C6C
(1744106965.655235) can0 10103001#6C6C6CBA606C6CD3
(1744106965.655389) can0 10103001#606C6C7F7E78786C
(1744106965.655523) can0 10103001#6C6C6C6C6C6C6C6C
(1744106965.655658) can0 10103001#38646C6C6C086C6C
(1744106965.655798) can0 10103001#6C6C6C6C6C6C6C6C
(1744106965.655932) can0 10103001#406D6C6C6C6C6C6C
(1744106965.656086) can0 10103001#6C6C6C6C6C6C6C6C
(1744106965.656221) can0 10103001#6C6C6C6C6C6C6C6C
(1744106965.656311) can0 10203001#AE35
(1744106965.656446) can0 00430308#07AA020100A02C09
(1744106965.656601) can0 00830308#070000000B3C0308
(1744106965.656779) can0 00C30308#0501500975290000
(1744106965.676697) can0 10603001#5A45354830363031
(1744106965.750362) can0 10003001#AA037800D42C6D00
(1744106965.750502) can0 10103001#00000B3C03030100
(1744106965.750649) can0 10103001#03016D6F6D71C3EA
(1744106965.750789) can0 10103001#8D2C3CA3696D6D6D
(1744106965.750923) can0 10103001#7D92126C6DBB61BA
(1744106965.751064) can0 10103001#61D261BC61BF61BC
(1744106965.751198) can0 10103001#61B961AA61BE61B9
(1744106965.751343) can0 10103001#61BD61B961BC61BC
(1744106965.751474) can0 10103001#61BC616D6DBA61D2
(1744106965.751629) can0 10103001#61BD616C6F7E7F79
(1744106965.751783) can0 10103001#795B2DF16D6D03F9
(1744106965.751899) can0 10103001#6D6DC5446D6D6D6D
(1744106965.752040) can0 10103001#6D6D6D6D6D6D6D6F
(1744106965.752175) can0 10103001#6D4D6D6D6D6D6D6D
(1744106965.752309) can0 10103001#6D6D6D6DE06C6C6C
(1744106965.752463) can0 10103001#6D6D6D6D7E7F6D6D
(1744106965.752596) can0 10103001#6D6D7E7F6D6D6D6D
(1744106965.752706) can0 10203001#6D6D4285
(1744106965.777281) can0 10603001#5A45354830363031
(1744106965.820112) can0 10003001#AA030100CB2C6E00
(1744106965.820261) can0 10103001#00000B3C03000100
(1744106965.820365) can0 10203001#03046F65DC
(1744106965.877691) can0 10603001#5A45354830363031
(1744106965.948287) can0 10003001#AA030B00492C6F00
(1744106965.948441) can0 10103001#00000B3C03030100
(1744106965.948575) can0 10103001#03026D876C6F6F6F
(1744106965.948710) can0 10203001#8E6F6F6F6FE237
(1744106965.949389) can0 10003001#AA037800D42C7000
(1744106965.949538) can0 10103001#00000B3C03030100
(1744106965.949672) can0 10103001#03017072706CD9F7
(1744106965.949817) can0 10103001#903121BEB68F8F8F
(1744106965.949951) can0 10103001#608F0F7170A67CA8
(1744106965.950101) can0 10103001#7CCE7CA07CA37CA2
(1744106965.950243) can0 10103001#7CA37CB77CA37CA3
(1744106965.950396) can0 10103001#7CA27CA37CA17CA1
(1744106965.950531) can0 10103001#7CA17C7070A87CCE
(1744106965.950685) can0 10103001#7CA07C7172636264
(1744106965.950823) can0 10103001#644630EC70701EE4
(1744106965.950958) can0 10103001#7070D85970707070
(1744106965.951112) can0 10103001#708D8F8F8F707072
(1744106965.951245) can0 10103001#7050707070707070
(1744106965.951400) can0 10103001#70707070FD717171
(1744106965.951534) can0 10103001#7070707063627070
(1744106965.951688) can0 10103001#7070636270707070
(1744106965.951792) can0 10203001#7070CFAC
(1744106965.977838) can0 10603001#5A45354830363031
(1744106966.018808) can0 10003001#AA030100CB2C7100
(1744106966.018942) can0 10103001#00000B3C03000100
(1744106966.019064) can0 10203001#0304700E8B
(1744106966.078451) can0 10603001#5A45354830363031
(1744106966.148331) can0 10003001#AA030100CB2C7200
(1744106966.148465) can0 10103001#00000B3C03080100
(1744106966.148581) can0 10203001#01507214C1
(1744106966.148735) can0 10003001#AA037800D42C7300
(1744106966.148876) can0 10103001#00000B3C03030100
(1744106966.149011) can0 10103001#03017371736FDAF4
(1744106966.149161) can0 10103001#933222BD968C8C8C
(1744106966.149302) can0 10103001#638C0C7273A67FA5
(1744106966.149437) can0 10103001#7FCF7FBE7FA37FBD
(1744106966.149591) can0 10103001#7FA37FB67FBC7FA3
(1744106966.149726) can0 10103001#7FBE7FA77FA27FA0
(1744106966.149870) can0 10103001#7FA17F7373A57FCF
(1744106966.150017) can0 10103001#7FBD7F7271606167
(1744106966.150158) can0 10103001#674233EF73731DE7
(1744106966.150292) can0 10103001#7373DB5A73737373
(1744106966.150427) can0 10103001#738C8C8C8C737371
(1744106966.150567) can0 10103001#7373737373737373
(1744106966.150715) can0 10103001#73737373FE727272
(1744106966.150854) can0 10103001#7373737360617373
(1744106966.150995) can0 10103001#7373606173737373
(1744106966.151098) can0 10203001#737399CF
(1744106966.151252) can0 10003001#AA037E00AA2C7400
(1744106966.151387) can0 10103001#00000B3C03210100
(1744106966.151521) can0 10103001#031A394544462E47
(1744106966.151675) can0 10103001#36402E31413C4442
(1744106966.151819) can0 10103001#444574747474F975
(1744106966.151945) can0 10103001#7575B27474747574
(1744106966.152092) can0 10103001#7474747474747568
(1744106966.152227) can0 10103001#99B87474918B8B8B
(1744106966.152362) can0 10103001#66747434E874741A
(1744106966.152511) can0 10103001#E07474DC5D747474
(1744106966.152653) can0 10103001#747474A2787474C8
(1744106966.152800) can0 10103001#7874746766606074
(1744106966.152929) can0 10103001#747474748B8B8B8B
(1744106966.153064) can0 10103001#207C747474107474
(1744106966.153199) can0 10103001#7474747474747474
(1744106966.153352) can0 10103001#5875747474747474
(1744106966.153487) can0 10103001#7474747474747474
(1744106966.153621) can0 10103001#7474747474747474
(1744106966.153711) can0 10203001#B0FA
(1744106966.153851) can0 10003001#AA037E00AA2C7500
(1744106966.154004) can0 10103001#00000B3C03030100
(1744106966.154139) can0 10103001#031A384445472F46
(1744106966.154293) can0 10103001#37412F30403D4543
(1744106966.154428) can0 10103001#454475757575F874
(1744106966.154563) can0 10103001#7474B37575757475
(1744106966.154704) can0 10103001#7575757575757469
(1744106966.154845) can0 10103001#98B97575908A8A8A
(1744106966.154979) can0 10103001#67757535E975751B
(1744106966.155114) can0 10103001#E17575DD5C757575
(1744106966.155263) can0 10103001#757575A3797575C9
(1744106966.155404) can0 10103001#7975756667616175
(1744106966.155539) can0 10103001#757575758A8A8A8A
(1744106966.155674) can0 10103001#217D757575117575
(1744106966.155815) can0 10103001#7575757575757575
(1744106966.155951) can0 10103001#5974757575757575
(1744106966.156092) can0 10103001#7575757575757575
(1744106966.156239) can0 10103001#7575757575757575
(1744106966.156329) can0 10203001#E683
(1744106966.156464) can0 00430308#07AA020100A02C0A
(1744106966.156618) can0 00830308#070000000B3C0308
(1744106966.156800) can0 00C30308#0501500A3A6C0000
(1744106966.178874) can0 10603001#5A45354830363031
(1744106966.217920) can0 10003001#AA030100CB2C7600
(1744106966.218052) can0 10103001#00000B3C03000100
(1744106966.218174) can0 10203001#030477440E
(1744106966.246820) can0 10003001#AA030B00492C7700
(1744106966.246962) can0 10103001#00000B3C03030100
(1744106966.247096) can0 10103001#0302759F74777777
(1744106966.247231) can0 10203001#96777777772B9E
(1744106966.279352) can0 10603001#5A45354830363031
(1744106966.347375) can0 10003001#AA037800D42C7800
(1744106966.347529) can0 10103001#00000B3C03030100
(1744106966.347663) can0 10103001#0301787A7864DEFF
(1744106966.347808) can0 10103001#983929B69D878787
(1744106966.347943) can0 10103001#6887077978AD74AE
(1744106966.348097) can0 10103001#74C774A974AB74AA
(1744106966.348232) can0 10103001#74AB74BF74AB74AB
(1744106966.348366) can0 10103001#74A874AC74A974A9
(1744106966.348502) can0 10103001#74AA747878AE74C7
(1744106966.348643) can0 10103001#74A874797A6B6A6C
(1744106966.348808) can0 10103001#6C4E38E4787816EC
(1744106966.348930) can0 10103001#7878D05178787878
(1744106966.349065) can0 10103001#788787878778787A
(1744106966.349207) can0 10103001#7878787878787878
(1744106966.349342) can0 10103001#78787878F5797979
(1744106966.349475) can0 10103001#787878786B6A7878
(1744106966.349610) can0 10103001#78786B6A78787878
(1744106966.349733) can0 10203001#78780A1A
(1744106966.380216) can0 10603001#5A45354830363031
(1744106966.417142) can0 10003001#AA030100CB2C7900
(1744106966.417296) can0 10103001#00000B3C03000100
(1744106966.417417) can0 10203001#0304781005
(1744106966.480349) can0 10603001#5A45354830363031
(1744106966.545345) can0 10003001#AA030B00492C7A00
(1744106966.545480) can0 10103001#00000B3C03030100
(1744106966.545634) can0 10103001#0302783A657A7A7A
(1744106966.545749) can0 10203001#9B7A7A7A7A3986
(1744106966.546459) can0 10003001#AA037800D42C7B00
(1744106966.546613) can0 10103001#00000B3C03030100
(1744106966.546747) can0 10103001#03017B797B67DFFC
(1744106966.546887) can0 10103001#9B3A2AB59E848484
(1744106966.547021) can0 10103001#6B84047A7BAD77A3
(1744106966.547163) can0 10103001#77C577AA77A877A9
(1744106966.547298) can0 10103001#77A877BC77A877A8
(1744106966.547452) can0 10103001#77A977A877AB77AA
(1744106966.547587) can0 10103001#77A9777B7BA377C5
(1744106966.547721) can0 10103001#77AB777A7968696F
(1744106966.547868) can0 10103001#6F4D3BE77B7B15EF
(1744106966.548003) can0 10103001#7B7BD3527B7B7B7B
(1744106966.548136) can0 10103001#7B848484847B7B79
(1744106966.548271) can0 10103001#7B5B7B7B7B7B7B7B
(1744106966.548425) can0 10103001#7B7B7B7BF67A7A7A
(1744106966.548560) can0 10103001#7B7B7B7B68697B7B
(1744106966.548701) can0 10103001#7B7B68697B7B7B7B
(1744106966.548817) can0 10203001#7B7BC220
(1744106966.581200) can0 10603001#5A45354830363031
(1744106966.616157) can0 10003001#AA030100CB2C7C00
(1744106966.616311) can0 10103001#00000B3C03000100
(1744106966.616426) can0 10203001#03047DDC03
(1744106966.645860) can0 10003001#AA030100CB2C7D00
(1744106966.646008) can0 10103001#00000B3C03080100
(1744106966.646111) can0 10203001#01507D40CA
(1744106966.646265) can0 10003001#AA037E00AA2C7E00
(1744106966.646419) can0 10103001#00000B3C03210100
(1744106966.646553) can0 10103001#031A334F4E4C244D
(1744106966.646689) can0 10103001#3C4A243B4B364E48
(1744106966.646834) can0 10103001#4E4F7E7E7E7EF37F
(1744106966.646983) can0 10103001#7F7FB87E7E7E7F7E
(1744106966.647124) can0 10103001#7E7E7E7E7E7E7F62
(1744106966.647272) can0 10103001#74B37E7E9B818181
(1744106966.647414) can0 10103001#6C7E7E3EE27E7E10
(1744106966.647561) can0 10103001#EA7E7ED6577E7E7E
(1744106966.647695) can0 10103001#7E7E7EA6727E7EC0
(1744106966.647853) can0 10103001#727E7E6D6C6A6A7E
(1744106966.647989) can0 10103001#7E7E7E7E81818181
(1744106966.648143) can0 10103001#2A767E7E7E1A7E7E
(1744106966.648278) can0 10103001#7E7E7E7E7E7E7E7E
(1744106966.648434) can0 10103001#527F7E7E7E7E7E7E
(1744106966.648569) can0 10103001#7E7E7E7E7E7E7E7E
(1744106966.648724) can0 10103001#7E7E7E7E7E7E7E7E
(1744106966.648821) can0 10203001#8B72
(1744106966.648963) can0 10003001#AA037E00AA2C7F00
(1744106966.649097) can0 10103001#00000B3C03030100
(1744106966.649252) can0 10103001#031A324E4F4D254C
(1744106966.649385) can0 10103001#3D4B253A4A374F49
(1744106966.649527) can0 10103001#4F4E7F7F7F7FF27E
(1744106966.649675) can0 10103001#7E7EB97F7F7F7E7F
(1744106966.649834) can0 10103001#7F7F7F7F7F7F7E63
(1744106966.649969) can0 10103001#75B27F7F9A808080
(1744106966.650105) can0 10103001#6D7F7F3FE37F7F11
(1744106966.650259) can0 10103001#EB7F7FD7567F7F7F
(1744106966.650394) can0 10103001#7F7F7FA7737F7FC1
(1744106966.650549) can0 10103001#737F7F6C6D6B6B7F
(1744106966.650684) can0 10103001#7F7F7F7F80808080
(1744106966.650840) can0 10103001#2B777F7F7F1B7F7F
(1744106966.650976) can0 10103001#7F7F7F7F7F7F7F7F
(1744106966.651125) can0 10103001#537E7F7F7F7F7F7F
(1744106966.651267) can0 10103001#7F7F7F7F7F7F7F7F
(1744106966.651422) can0 10103001#7F7F7F7F7F7F7F7F
(1744106966.651506) can0 10203001#DD0B
(1744106966.651656) can0 00430308#07AA020100A02C0B
(1744106966.651821) can0 00830308#070000000B3C0308
(1744106966.651950) can0 00C30308#0501500BFF500000
(1744106966.681351) can0 10603001#5A45354830363031
(1744106966.745397) can0 10003001#AA037800D42C8000
(1744106966.745550) can0 10103001#00000B3C03030100
(1744106966.745685) can0 10103001#03018082809C2407
(1744106966.745838) can0 10103001#60C1D14E84808080
(1744106966.745971) can0 10103001#907FFF8180568C57
(1744106966.746113) can0 10103001#8C3F8C518C538C51
(1744106966.746266) can0 10103001#8C538C478C538C53
(1744106966.746401) can0 10103001#8C528C548C518C51
(1744106966.746535) can0 10103001#8C518C8080578C3F
(1744106966.746677) can0 10103001#8C508C8182939294
(1744106966.746825) can0 10103001#94B6C01C8080EE14
(1744106966.746966) can0 10103001#808028A980808080
(1744106966.747121) can0 10103001#8080808080808082
(1744106966.747255) can0 10103001#8080808080808080
(1744106966.747410) can0 10103001#808080800D818181
(1744106966.747563) can0 10103001#8080808093928080
(1744106966.747697) can0 10103001#8080939280808080
(1744106966.747825) can0 10203001#80807AF2
(1744106966.782310) can0 10603001#5A45354830363031
(1744106966.815166) can0 10003001#AA030100CB2C8100
(1744106966.815315) can0 10103001#00000B3C03000100
(1744106966.815437) can0 10203001#0304804E3E
(1744106966.843830) can0 10003001#AA030B00492C8200
(1744106966.843964) can0 10103001#00000B3C03030100
(1744106966.844118) can0 10103001#030280C29D828282
(1744106966.844252) can0 10203001#6382828282AA7C
(1744106966.882690) can0 10603001#5A45354830363031
(1744106966.944431) can0 10003001#AA037800D42C8300
(1744106966.944580) can0 10103001#00000B3C03030100
(1744106966.944714) can0 10103001#03018381839F2304
(1744106966.944871) can0 10103001#63C2D24D457C7C7C
(1744106966.945013) can0 10103001#937CFC8283568F54
(1744106966.945139) can0 10103001#8F3C8F528F518F51
(1744106966.945281) can0 10103001#8F578F448F508F57
(1744106966.945422) can0 10103001#8F518F508F528F51
(1744106966.945569) can0 10103001#8F528F8383548F3C
(1744106966.945710) can0 10103001#8F538F8281909197
(1744106966.945846) can0 10103001#97B5C31F8383ED17
(1744106966.946000) can0 10103001#83832BAA83838383
(1744106966.946134) can0 10103001#837E7C7C7C838381
(1744106966.946283) can0 10103001#83A3838383838383
(1744106966.946424) can0 10103001#838383830E828282
(1744106966.946578) can0 10103001#8383838390918383
(1744106966.946732) can0 10103001#8383909183838383
(1744106966.946834) can0 10203001#83831888
(1744106966.982842) can0 10603001#5A45354830363031
(1744106967.013857) can0 10003001#AA030100CB2C8400
(1744106967.013990) can0 10103001#00000B3C03000100
(1744106967.014112) can0 10203001#0304858238
(1744106967.083436) can0 10603001#5A45354830363031
(1744106967.142325) can0 10003001#AA030B00492C8500
(1744106967.142479) can0 10103001#00000B3C03030100
(1744106967.142612) can0 10103001#030287C59A858585
(1744106967.142747) can0 10203001#648585858531E2
(1744106967.143357) can0 10003001#AA030100CB2C8600
(1744106967.143510) can0 10103001#00000B3C03080100
(1744106967.143629) can0 10203001#0150865B33
(1744106967.143764) can0 10003001#AA037800D42C8700
(1744106967.143924) can0 10103001#00000B3C03030100
(1744106967.144059) can0 10103001#03018785879B2700
(1744106967.144194) can0 10103001#67C6D64983878787
(1744106967.144348) can0 10103001#9778F88687518B50
(1744106967.144482) can0 10103001#8B398B568B548B56
(1744106967.144623) can0 10103001#8B538B4F8B538B54
(1744106967.144757) can0 10103001#8B578B548B568B48
(1744106967.144900) can0 10103001#8B4A8B8787508B39
(1744106967.145034) can0 10103001#8B578B8685949593
(1744106967.145169) can0 10103001#93B1C71B8787E913
(1744106967.145304) can0 10103001#87872FAE87878787
(1744106967.145459) can0 10103001#8787878787878785
(1744106967.145593) can0 10103001#87A7878787878787
(1744106967.145735) can0 10103001#878787870A868686
(1744106967.145874) can0 10103001#8787878794958787
(1744106967.146008) can0 10103001#8787949587878787
(1744106967.146112) can0 10203001#87877F31
(1744106967.146266) can0 10003001#AA037E00AA2C8800
(1744106967.146415) can0 10103001#00000B3C03210100
(1744106967.146556) can0 10103001#031AC5B9B8BAD2BB
(1744106967.146691) can0 10103001#CABCD2CDBDC0B8BE
(1744106967.146842) can0 10103001#B8B9888888880589
(1744106967.146961) can0 10103001#89894E8888888988
(1744106967.147103) can0 10103001#8888888888888994
(1744106967.147257) can0 10103001#884588888C888888
(1744106967.147392) can0 10103001#9A8888C8148888E6
(1744106967.147527) can0 10103001#1C888820A1888888
(1744106967.147668) can0 10103001#8888885F84888836
(1744106967.147842) can0 10103001#8488889B9A9C9C88
(1744106967.147958) can0 10103001#8888888888888888
(1744106967.148091) can0 10103001#DC80888888EC8888
(1744106967.148233) can0 10103001#8888888888888888
(1744106967.148368) can0 10103001#A489888888888888
(1744106967.148522) can0 10103001#8888888888888888
(1744106967.148656) can0 10103001#8888888888888888
(1744106967.148748) can0 10203001#D52A
(1744106967.148887) can0 10003001#AA037E00AA2C8900
(1744106967.149041) can0 10103001#00000B3C03030100
(1744106967.149176) can0 10103001#031AC4B8B9BBD3BA
(1744106967.149330) can0 10103001#CBBDD3CCBCC1B9BF
(1744106967.149465) can0 10103001#B9B8898989890488
(1744106967.149600) can0 10103001#88884F8989898889
(1744106967.149734) can0 10103001#8989898989898895
(1744106967.149874) can0 10103001#894489898D898989
(1744106967.150015) can0 10103001#9B8989C9158989E7
(1744106967.150150) can0 10103001#1D898921A0898989
(1744106967.150300) can0 10103001#8989895E85898937
(1744106967.150436) can0 10103001#8589899A9B9D9D89
(1744106967.150577) can0 10103001#8989898989898989
(1744106967.150712) can0 10103001#DD81898989ED8989
(1744106967.150868) can0 10103001#8989898989898989
(1744106967.150990) can0 10103001#A588898989898989
(1744106967.151144) can0 10103001#8989898989898989
(1744106967.151279) can0 10103001#8989898989898989
(1744106967.151360) can0 10203001#8353
(1744106967.151520) can0 00430308#07AA020100A02C0C
(1744106967.151655) can0 00830308#070000000B3C0308
(1744106967.151842) can0 00C30308#0501500CA4E60000
(1744106967.183844) can0 10603001#5A45354830363031
(1744106967.213151) can0 10003001#AA030100CB2C8A00
(1744106967.213298) can0 10103001#00000B3C03000100
(1744106967.213419) can0 10203001#03048B1572
(1744106967.284668) can0 10603001#5A45354830363031
(1744106967.342416) can0 10003001#AA037800D42C8B00
(1744106967.342563) can0 10103001#00000B3C03030100
(1744106967.342704) can0 10103001#03018B898B97140C
(1744106967.342850) can0 10103001#6BCADA456E747474
(1744106967.342978) can0 10103001#9B74F48A8B5D875C
(1744106967.343112) can0 10103001#8736875B8758875A
(1744106967.343266) can0 10103001#875F874C87588758
(1744106967.343401) can0 10103001#875B875F875A8759
(1744106967.343536) can0 10103001#8759878B8B5C8736
(1744106967.343671) can0 10103001#875B878A8998999F
(1744106967.343850) can0 10103001#9FB9CB178B8BE51F
(1744106967.343966) can0 10103001#8B8B23A28B8B8B8B
(1744106967.344100) can0 10103001#8B747474748B8B89
(1744106967.344235) can0 10103001#8BAB8B8B8B8B8B8B
(1744106967.344370) can0 10103001#8B8B8B8B068A8A8A
(1744106967.344503) can0 10103001#8B8B8B8B98998B8B
(1744106967.344644) can0 10103001#8B8B98998B8B8B8B
(1744106967.344767) can0 10203001#8B8BD6EB
(1744106967.384872) can0 10603001#5A45354830363031
(1744106967.411854) can0 10003001#AA030100CB2C8C00
(1744106967.411988) can0 10103001#00000B3C03000100
(1744106967.412104) can0 10203001#03048D9CB6
(1744106967.440854) can0 10003001#AA030B00492C8D00
(1744106967.440995) can0 10103001#00000B3C03030100
(1744106967.441136) can0 10103001#03028FCD928D8D8D
(1744106967.441270) can0 10203001#6C8D8D8D8D7745
(1744106967.485664) can0 10603001#5A45354830363031
(1744106967.541399) can0 10003001#AA037800D42C8E00
(1744106967.541552) can0 10103001#00000B3C03030100
(1744106967.541687) can0 10103001#03018E8C8E921109
(1744106967.541859) can0 10103001#6ECFDF408A8E8E8E
(1744106967.541978) can0 10103001#9E71F18F8E588259
(1744106967.542120) can0 10103001#8230825F825D825C
(1744106967.542267) can0 10103001#825A8249825A825D
(1744106967.542409) can0 10103001#825E825D825F825C
(1744106967.542556) can0 10103001#825F828E8E598230
(1744106967.542697) can0 10103001#825E828F8C9D9C9A
(1744106967.542859) can0 10103001#9AB8CE128E8EE01A
(1744106967.542968) can0 10103001#8E8E26A78E8E8E8E
(1744106967.543102) can0 10103001#8E8E8E8E8E8E8E8C
(1744106967.543256) can0 10103001#8EAE8E8E8E8E8E8E
(1744106967.543391) can0 10103001#8E8E8E8E038F8F8F
(1744106967.543531) can0 10103001#8E8E8E8E9D9C8E8E
(1744106967.543666) can0 10103001#8E8E9D9C8E8E8E8E
(1744106967.543788) can0 10203001#8E8E8E3E
(1744106967.586179) can0 10603001#5A45354830363031
(1744106967.611161) can0 10003001#AA030100CB2C8F00
(1744106967.611314) can0 10103001#00000B3C03000100
(1744106967.611436) can0 10203001#03048ED974
(1744106967.640928) can0 10003001#AA030100CB2C9000
(1744106967.641081) can0 10103001#00000B3C03080100
(1744106967.641175) can0 10203001#015090EDAB
(1744106967.641336) can0 10003001#AA037E00AA2C9100
(1744106967.641489) can0 10103001#00000B3C03210100
(1744106967.641624) can0 10103001#031ADCA0A1A3CBA2
(1744106967.641758) can0 10103001#D3A5CBD4A4D9A1A7
(1744106967.641901) can0 10103001#A1A0919191911C90
(1744106967.642035) can0 10103001#9090579191919091
(1744106967.642170) can0 10103001#919191919191908D
(1744106967.642323) can0 10103001#9B5C919195919191
(1744106967.642459) can0 10103001#839191D10D9191FF
(1744106967.642599) can0 10103001#05919139B8919191
(1744106967.642734) can0 10103001#919191469D91912F
(1744106967.642871) can0 10103001#9D91918283858591
(1744106967.643012) can0 10103001#9191919191919191
(1744106967.643160) can0 10103001#C599919191F59191
(1744106967.643302) can0 10103001#9191919191919191
(1744106967.643429) can0 10103001#BD90919191919191
(1744106967.643570) can0 10103001#9191919191919191
(1744106967.643705) can0 10103001#9191919191919191
(1744106967.643863) can0 10203001#A97C
(1744106967.643947) can0 10003001#AA037E00AA2C9200
(1744106967.644101) can0 10103001#00000B3C03030100
(1744106967.644236) can0 10103001#031ADFA3A2A0C8A1
(1744106967.644371) can0 10103001#D0A6C8D7A7DAA2A4
(1744106967.644519) can0 10103001#A2A3929292921F93
(1744106967.644661) can0 10103001#9393549292929392
(1744106967.644795) can0 10103001#929292929292938E
(1744106967.644939) can0 10103001#985F929296929292
(1744106967.645073) can0 10103001#809292D20E9292FC
(1744106967.645208) can0 10103001#0692923ABB929292
(1744106967.645362) can0 10103001#929292459E92922C
(1744106967.645497) can0 10103001#9E92928180868692
(1744106967.645632) can0 10103001#9292929292929292
(1744106967.645773) can0 10103001#C69A929292F69292
(1744106967.645914) can0 10103001#9292929292929292
(1744106967.646049) can0 10103001#BE93929292929292
(1744106967.646202) can0 10103001#9292929292929292
(1744106967.646338) can0 10103001#9292929292929292
(1744106967.646421) can0 10203001#F7F9
(1744106967.646556) can0 00430308#07AA020100A02C0D
(1744106967.646711) can0 00830308#070000000B3C0308
(1744106967.646863) can0 00C30308#0501500D61DA0000
(1744106967.686671) can0 10603001#5A45354830363031
(1744106967.739370) can0 10003001#AA030B00492C9300
(1744106967.739523) can0 10103001#00000B3C03030100
(1744106967.739657) can0 10103001#030291D38C939393
(1744106967.739798) can0 10203001#7293939393CD36
(1744106967.740417) can0 10003001#AA037800D42C9400
(1744106967.740558) can0 10103001#00000B3C03030100
(1744106967.740712) can0 10103001#0301949694880D13
(1744106967.740867) can0 10103001#74D5C55A526B6B6B
(1744106967.740978) can0 10103001#846BEB9594429842
(1744106967.741120) can0 10103001#982B984598479845
(1744106967.741273) can0 10103001#9840985398479840
(1744106967.741408) can0 10103001#9844984798459845
(1744106967.741549) can0 10103001#984698949442982B
(1744106967.741684) can0 10103001#9844989496878680
(1744106967.741867) can0 10103001#80A2D4089494FA00
(1744106967.741976) can0 10103001#94943CBD94949494
(1744106967.742102) can0 10103001#94696B6B6B949496
(1744106967.742244) can0 10103001#94B4949494949494
(1744106967.742385) can0 10103001#9494949419959595
(1744106967.742519) can0 10103001#9494949487869494
(1744106967.742654) can0 10103001#9494878694949494
(1744106967.742777) can0 10203001#94946206
(1744106967.787498) can0 10603001#5A45354830363031
(1744106967.810176) can0 10003001#AA030100CB2C9500
(1744106967.810329) can0 10103001#00000B3C03000100
(1744106967.810432) can0 10203001#0304947E25
(1744106967.887715) can0 10603001#5A45354830363031
(1744106967.939137) can0 10003001#AA037800D42C9600
(1744106967.939285) can0 10103001#00000B3C03030100
(1744106967.939426) can0 10103001#03019694968A0211
(1744106967.939573) can0 10103001#76D7C75831696969
(1744106967.939714) can0 10103001#8669E99796439A41
(1744106967.939875) can0 10103001#9A299A479A459A44
(1744106967.939985) can0 10103001#9A459A5F9A459A45
(1744106967.940126) can0 10103001#9A449A429A469A47
(1744106967.940260) can0 10103001#9A479A9696419A29
(1744106967.940414) can0 10103001#9A469A9794858482
(1744106967.940549) can0 10103001#82A0D60A9696F802
(1744106967.940702) can0 10103001#96963EBF96969696
(1744106967.940875) can0 10103001#966A696969969694
(1744106967.940971) can0 10103001#96B6969696969696
(1744106967.941112) can0 10103001#969696961B979797
(1744106967.941247) can0 10103001#9696969685849696
(1744106967.941382) can0 10103001#9696858496969696
(1744106967.941485) can0 10203001#9696CA9F
(1744106967.987812) can0 10603001#5A45354830363031
(1744106968.009178) can0 10003001#AA030100CB2C9700
(1744106968.009330) can0 10103001#00000B3C03000100
(1744106968.009446) can0 10203001#030496F8A6
(1744106968.037912) can0 10003001#AA030B00492C9800
(1744106968.038065) can0 10103001#00000B3C03030100
(1744106968.038199) can0 10103001#03029AD887989898
(1744106968.038333) can0 10203001#7998989898B35C
(1744106968.088309) can0 10603001#5A45354830363031
(1744106968.138421) can0 10003001#AA030100CB2C9900
(1744106968.138565) can0 10103001#00000B3C03080100
(1744106968.138684) can0 10203001#0150993064
(1744106968.138826) can0 10003001#AA037800D42C9A00
(1744106968.138979) can0 10103001#00000B3C03030100
(1744106968.139120) can0 10103001#03019A989A860E1D
(1744106968.139255) can0 10103001#7ADBCB54B99A9A9A
(1744106968.139390) can0 10103001#8A65E59B9A4C964D
(1744106968.139544) can0 10103001#9627964B9648964B
(1744106968.139678) can0 10103001#96499652964F964E
(1744106968.139811) can0 10103001#96489649964A9648
(1744106968.139954) can0 10103001#964B969A9A4D9627
(1744106968.140095) can0 10103001#964A969B9889888E
(1744106968.140229) can0 10103001#8EA8DA069A9AF40E
(1744106968.140364) can0 10103001#9A9A32B39A9A9A9A
(1744106968.140519) can0 10103001#9A9B9A9A9A9A9A98
(1744106968.140653) can0 10103001#9ABA9A9A9A9A9A9A
(1744106968.140788) can0 10103001#9A9A9A9A179B9B9B
(1744106968.140928) can0 10103001#9A9A9A9A89889A9A
(1744106968.141063) can0 10103001#9A9A89889A9A9A9A
(1744106968.141173) can0 10203001#9A9AE997
(1744106968.141320) can0 10003001#AA037E00AA2C9B00
(1744106968.141454) can0 10103001#00000B3C03210100
(1744106968.141614) can0 10103001#031AD6AAABA9C1A8
(1744106968.141749) can0 10103001#D9AFC1DEAED3ABAD
(1744106968.141884) can0 10103001#ABAA9B9B9B9B169A
(1744106968.142018) can0 10103001#9A9A5D9B9B9B9A9B
(1744106968.142160) can0 10103001#9B9B9B9B9B9B9A87
(1744106968.142294) can0 10103001#91569B9BB89B9B9B
(1744106968.142448) can0 10103001#899B9BDB079B9BF5
(1744106968.142583) can0 10103001#0F9B9B33B29B9B9B
(1744106968.142724) can0 10103001#9B9B9B4C979B9B26
(1744106968.142884) can0 10103001#979B9B88898F8F9B
(1744106968.142999) can0 10103001#9B9B9B9B9B9B9B9B
(1744106968.143148) can0 10103001#CF939B9B9BFF9B9B
(1744106968.143283) can0 10103001#9B9B9B9B9B9B9B9B
(1744106968.143419) can0 10103001#B79A9B9B9B9B9B9B
(1744106968.143559) can0 10103001#9B9B9B9B9B9B9B9B
(1744106968.143693) can0 10103001#9B9B9B9B9B9B9B9B
(1744106968.143797) can0 10203001#9934
(1744106968.143941) can0 10003001#AA037E00AA2C9C00
(1744106968.144076) can0 10103001#00000B3C03030100
(1744106968.144224) can0 10103001#031AD1ADACAEC6AF
(1744106968.144365) can0 10103001#DEA8C6D9A9D4ACAA
(1744106968.144500) can0 10103001#ACAD9C9C9C9C119D
(1744106968.144635) can0 10103001#9D9D5A9C9C9C9D9C
(1744106968.144768) can0 10103001#9C9C9C9C9C9C9D80
(1744106968.144929) can0 10103001#96519C9CBF9C9C9C
(1744106968.145064) can0 10103001#8E9C9CDC009C9CF2
(1744106968.145205) can0 10103001#089C9C34B59C9C9C
(1744106968.145331) can0 10103001#9C9C9C4B909C9C21
(1744106968.145473) can0 10103001#909C9C8F8E88889C
(1744106968.145607) can0 10103001#9C9C9C9C9C9C9C9C
(1744106968.145762) can0 10103001#C8949C9C9CF89C9C
(1744106968.145903) can0 10103001#9C9C9C9C9C9C9C9C
(1744106968.146038) can0 10103001#B09D9C9C9C9C9C9C
(1744106968.146178) can0 10103001#9C9C9C9C9C9C9C9C
(1744106968.146313) can0 10103001#9C9C9C9C9C9C9C9C
(1744106968.146393) can0 10203001#D409
(1744106968.146553) can0 00430308#07AA020100A02C0E
(1744106968.146688) can0 00830308#070000000B3C0308
(1744106968.146884) can0 00C30308#0501500E2E9F0000
(1744106968.188807) can0 10603001#5A45354830363031
(1744106968.208180) can0 10003001#AA030100CB2C9D00
(1744106968.208327) can0 10103001#00000B3C03000100
(1744106968.208448) can0 10203001#03049C60AB
(1744106968.289780) can0 10603001#5A45354830363031
(1744106968.336395) can0 10003001#AA030B00492C9E00
(1744106968.336530) can0 10103001#00000B3C03030100
(1744106968.336664) can0 10103001#03029CDE819E9E9E
(1744106968.336798) can0 10203001#7F9E9E9E9EC086
(1744106968.337478) can0 10003001#AA037800D42C9F00
(1744106968.337632) can0 10103001#00000B3C03030100
(1744106968.337767) can0 10103001#03019F9D9F830B18
(1744106968.337916) can0 10103001#7FDECE519B9F9F9F
(1744106968.338058) can0 10103001#8F60E09E9F499347
(1744106968.338193) can0 10103001#9321934F934C934E
(1744106968.338334) can0 10103001#934C9358934A934B
(1744106968.338469) can0 10103001#934F934C934E934E
(1744106968.338604) can0 10103001#934E939F9F479321
(1744106968.338758) can0 10103001#934F939E9D8C8D8B
(1744106968.338893) can0 10103001#8BA9DF039F9FF10B
(1744106968.339027) can0 10103001#9F9F37B69F9F9F9F
(1744106968.339188) can0 10103001#9F9F9F9F9F9F9F9D
(1744106968.339342) can0 10103001#9FBF9F9F9F9F9F9F
(1744106968.339478) can0 10103001#9F9F9F9F129E9E9E
(1744106968.339628) can0 10103001#9F9F9F9F8C8D9F9F
(1744106968.339764) can0 10103001#9F9F8C8D9F9F9F9F
(1744106968.339892) can0 10203001#9F9F8645
(1744106968.390155) can0 10603001#5A45354830363031
(1744106968.407245) can0 10003001#AA030100CB2CA000
(1744106968.407380) can0 10103001#00000B3C03000100
(1744106968.407502) can0 10203001#0304A1F3C7
(1744106968.490350) can0 10603001#5A45354830363031
(1744106968.536472) can0 10003001#AA037800D42CA100
(1744106968.536613) can0 10103001#00000B3C03030100
(1744106968.536748) can0 10103001#0301A1A3A1BD3226
(1744106968.536901) can0 10103001#41E0F06F445E5E5E
(1744106968.537035) can0 10103001#B15EDEA0A174AD77
(1744106968.537176) can0 10103001#AD1EAD70AD72AD70
(1744106968.537311) can0 10103001#AD72AD66AD72AD75
(1744106968.537446) can0 10103001#AD73AD72AD70AD70
(1744106968.537599) can0 10103001#AD70ADA1A177AD1E
(1744106968.537734) can0 10103001#AD71ADA0A3B2B3B5
(1744106968.537901) can0 10103001#B597E13DA1A1CF35
(1744106968.538010) can0 10103001#A1A10988A1A1A1A1
(1744106968.538143) can0 10103001#A15E5E5E5EA1A1A3
(1744106968.538285) can0 10103001#A181A1A1A1A1A1A1
(1744106968.538439) can0 10103001#A1A1A1A12CA0A0A0
(1744106968.538574) can0 10103001#A1A1A1A1B2B3A1A1
(1744106968.538709) can0 10103001#A1A1B2B3A1A1A1A1
(1744106968.538813) can0 10203001#A1A113D6
(1744106968.590812) can0 10603001#5A45354830363031
(1744106968.606230) can0 10003001#AA030100CB2CA200
(1744106968.606382) can0 10103001#00000B3C03000100
(1744106968.606503) can0 10203001#0304A37544
(1744106968.634905) can0 10003001#AA030B00492CA300
(1744106968.635027) can0 10103001#00000B3C03030100
(1744106968.635176) can0 10103001#0302A1E3BCA3A3A3
(1744106968.635298) can0 10203001#42A3A3A3A35C25
(1744106968.635937) can0 10003001#AA030100CB2CA400
(1744106968.636078) can0 10103001#00000B3C03080100
(1744106968.636189) can0 10203001#0150A4A308
(1744106968.636330) can0 10003001#AA037E00AA2CA500
(1744106968.636484) can0 10103001#00000B3C03210100
(1744106968.636619) can0 10103001#031AE8949597FF96
(1744106968.636754) can0 10103001#E791FFE090ED9593
(1744106968.636911) can0 10103001#9594A5A5A5A528A4
(1744106968.637033) can0 10103001#A4A463A5A5A5A4A5
(1744106968.637188) can0 10103001#A5A5A5A5A5A5A4B9
(1744106968.637321) can0 10103001#A368A5A5405A5A5A
(1744106968.637456) can0 10103001#B7A5A5E539A5A5CB
(1744106968.637597) can0 10103001#31A5A50D8CA5A5A5
(1744106968.637732) can0 10103001#A5A5A573A9A5A51A
(1744106968.637905) can0 10103001#A9A5A5B6B7B1B1A5
(1744106968.638008) can0 10103001#A5A5A5A55A5A5A5A
(1744106968.638161) can0 10103001#F1ADA5A5A5C1A5A5
(1744106968.638296) can0 10103001#A5A5A5A5A5A5A5A5
(1744106968.638431) can0 10103001#89A4A5A5A5A5A5A5
(1744106968.638565) can0 10103001#A5A5A5A5A5A5A5A5
(1744106968.638706) can0 10103001#A5A5A5A5A5A5A5A5
(1744106968.638809) can0 10203001#5BB5
(1744106968.638943) can0 10003001#AA037E00AA2CA600
(1744106968.639103) can0 10103001#00000B3C03030100
(1744106968.639238) can0 10103001#031AEB979694FC95
(1744106968.639373) can0 10103001#E492FCE393EE9690
(1744106968.639507) can0 10103001#9697A6A6A6A62BA7
(1744106968.639643) can0 10103001#A7A760A6A6A6A7A6
(1744106968.639797) can0 10103001#A6A6A6A6A6A6A7BA
(1744106968.639936) can0 10103001#A06BA6A643595959
(1744106968.640077) can0 10103001#B4A6A6E63AA6A6C8
(1744106968.640212) can0 10103001#32A6A60E8FA6A6A6
(1744106968.640347) can0 10103001#A6A6A670AAA6A619
(1744106968.640482) can0 10103001#AAA6A6B5B4B2B2A6
(1744106968.640615) can0 10103001#A6A6A6A659595959
(1744106968.640775) can0 10103001#F2AEA6A6A6C2A6A6
(1744106968.640911) can0 10103001#A6A6A6A6A6A6A6A6
(1744106968.641052) can0 10103001#8AA7A6A6A6A6A6A6
(1744106968.641179) can0 10103001#A6A6A6A6A6A6A6A6
(1744106968.641321) can0 10103001#A6A6A6A6A6A6A6A6
(1744106968.641412) can0 10203001#0530
(1744106968.641559) can0 00430308#07AA020100A02C0F
(1744106968.641700) can0 00830308#070000000B3C0308
(1744106968.641905) can0 00C30308#0501500FEBA30000
(1744106968.691665) can0 10603001#5A45354830363031
(1744106968.735483) can0 10003001#AA037800D42CA700
(1744106968.735608) can0 10103001#00000B3C03030100
(1744106968.735769) can0 10103001#0301A7A5A7BB2B20
(1744106968.735909) can0 10103001#47E6F66900585858
(1744106968.736044) can0 10103001#B758D8A6A772AB71
(1744106968.736178) can0 10103001#AB1AAB76AB74AB76
(1744106968.736320) can0 10103001#AB74AB60AB74AB74
(1744106968.736455) can0 10103001#AB77AB74AB76AB76
(1744106968.736609) can0 10103001#AB76ABA7A771AB1A
(1744106968.736743) can0 10103001#AB77ABA6A5B4B5B3
(1744106968.736909) can0 10103001#B395E73BA7A7C933
(1744106968.737018) can0 10103001#A7A70F8EA7A7A7A7
(1744106968.737153) can0 10103001#A75B585858A7A7A5
(1744106968.737302) can0 10103001#A7A7A7A7A7A7A7A7
(1744106968.737443) can0 10103001#A7A7A7A72AA6A6A6
(1744106968.737578) can0 10103001#A7A7A7A7B4B5A7A7
(1744106968.737713) can0 10103001#A7A7B4B5A7A7A7A7
(1744106968.737817) can0 10203001#A7A71DFE
(1744106968.792288) can0 10603001#5A45354830363031
(1744106968.805231) can0 10003001#AA030100CB2CA800
(1744106968.805365) can0 10103001#00000B3C03000100
(1744106968.805487) can0 10203001#0304A9ED49
(1744106968.892330) can0 10603001#5A45354830363031
(1744106968.933382) can0 10003001#AA030B00492CA900
(1744106968.933535) can0 10103001#00000B3C03030100
(1744106968.933669) can0 10103001#0302ABE9B6A9A9A9
(1744106968.933810) can0 10203001#48A9A9A9A9CA0B
(1744106968.934477) can0 10003001#AA037800D42CAA00
(1744106968.934626) can0 10103001#00000B3C03030100
(1744106968.934768) can0 10103001#0301AAA8AAB6262D
(1744106968.934917) can0 10103001#4AEBFB64AEAAAAAA
(1744106968.935046) can0 10103001#BA55D5ABAA7FA672
(1744106968.935180) can0 10103001#A614A67BA678A67B
(1744106968.935315) can0 10103001#A679A662A67EA679
(1744106968.935470) can0 10103001#A678A679A67BA67B
(1744106968.935604) can0 10103001#A678A6AAAA72A614
(1744106968.935737) can0 10103001#A67AA6ABA8B9B8BE
(1744106968.935918) can0 10103001#BE9CEA36AAAAC43E
(1744106968.936027) can0 10103001#AAAA0283AAAAAAAA
(1744106968.936168) can0 10103001#AAAAAAAAAAAAAAA8
(1744106968.936295) can0 10103001#AA8AAAAAAAAAAAAA
(1744106968.936436) can0 10103001#AAAAAAAA27ABABAB
(1744106968.936571) can0 10103001#AAAAAAAAB9B8AAAA
(1744106968.936712) can0 10103001#AAAAB9B8AAAAAAAA
(1744106968.936828) can0 10203001#AAAA43E1
(1744106968.993149) can0 10603001#5A45354830363031
(1744106969.004162) can0 10003001#AA030100CB2CAB00
(1744106969.004315) can0 10103001#00000B3C03000100
(1744106969.004433) can0 10203001#0304AAA88B
(1744106969.093637) can0 10603001#5A45354830363031
(1744106969.133429) can0 10003001#AA030100CB2CAC00
(1744106969.133582) can0 10103001#00000B3C03080100
(1744106969.133701) can0 10203001#0150ACBD86
(1744106969.133837) can0 10003001#AA037800D42CAD00
(1744106969.133977) can0 10103001#00000B3C03030100
(1744106969.134130) can0 10103001#0301ADAFADB1212A
(1744106969.134265) can0 10103001#4DEC9663A9ADADAD
(1744106969.134407) can0 10103001#BD52D2ACAD78A17A
(1744106969.134542) can0 10103001#A112A17CA17FA17C
(1744106969.134696) can0 10103001#A179A16AA178A17E
(1744106969.134830) can0 10103001#A17FA17EA17DA17C
(1744106969.134970) can0 10103001#A17CA1ADAD7AA112
(1744106969.135105) can0 10103001#A17DA1ACAFBEBFB9
(1744106969.135259) can0 10103001#B99BED31ADADC339
(1744106969.135394) can0 10103001#ADAD0584ADADADAD
(1744106969.135530) can0 10103001#ADADADADADADADAF
(1744106969.135671) can0 10103001#AD8DADADADADADAD
(1744106969.135806) can0 10103001#ADADADAD20ACACAC
(1744106969.135964) can0 10103001#ADADADADBEBFADAD
(1744106969.136099) can0 10103001#ADADBEBFADADADAD
(1744106969.136202) can0 10203001#ADAD1837
(1744106969.136337) can0 10003001#AA037E00AA2CAE00
(1744106969.136485) can0 10103001#00000B3C03210100
(1744106969.136626) can0 10103001#031AE39F9E9CF49D
(1744106969.136761) can0 10103001#EC9AF4EB9BE69E98
(1744106969.136926) can0 10103001#9E9FAEAEAEAE23AF
(1744106969.137045) can0 10103001#AFAF68AEAEAEAFAE
(1744106969.137186) can0 10103001#AEAEAEAEAEAEAFB2
(1744106969.137327) can0 10103001#A963AEAEAAAEAEAE
(1744106969.137462) can0 10103001#BCAEAEEE32AEAEC0
(1744106969.137615) can0 10103001#3AAEAE0687AEAEAE
(1744106969.137750) can0 10103001#AEAEAE79A2AEAE11
(1744106969.137926) can0 10103001#A2AEAEBDBCBABAAE
(1744106969.138023) can0 10103001#AEAEAEAEAEAEAEAE
(1744106969.138172) can0 10103001#FAA6AEAEAECAAEAE
(1744106969.138313) can0 10103001#AEAEAEAEAEAEAEAE
(1744106969.138448) can0 10103001#82AFAEAEAEAEAEAE
(1744106969.138583) can0 10103001#AEAEAEAEAEAEAEAE
(1744106969.138717) can0 10103001#AEAEAEAEAEAEAEAE
(1744106969.138808) can0 10203001#6AE9
(1744106969.138965) can0 10003001#AA037E00AA2CAF00
(1744106969.139099) can0 10103001#00000B3C03030100
(1744106969.139253) can0 10103001#031AE29E9F9DF59C
(1744106969.139389) can0 10103001#ED9BF5EA9AE79F99
(1744106969.139542) can0 10103001#9F9EAFAFAFAF22AE
(1744106969.139677) can0 10103001#AEAE69AFAFAFAEAF
(1744106969.139811) can0 10103001#AFAFAFAFAFAFAEB3
(1744106969.139970) can0 10103001#A862AFAFABAFAFAF
(1744106969.140105) can0 10103001#BDAFAFEF33AFAFC1
(1744106969.140259) can0 10103001#3BAFAF0786AFAFAF
(1744106969.140393) can0 10103001#AFAFAF78A3AFAF10
(1744106969.140548) can0 10103001#A3AFAFBCBDBBBBAF
(1744106969.140682) can0 10103001#AFAFAFAFAFAFAFAF
(1744106969.140836) can0 10103001#FBA7AFAFAFCBAFAF
(1744106969.140977) can0 10103001#AFAFAFAFAFAFAFAF
(1744106969.141131) can0 10103001#83AEAFAFAFAFAFAF
(1744106969.141265) can0 10103001#AFAFAFAFAFAFAFAF
(1744106969.141419) can0 10103001#AFAFAFAFAFAFAFAF
(1744106969.141499) can0 10203001#3C90
(1744106969.141659) can0 10003001#AA032000702CB000
(1744106969.141813) can0 10103001#00000B3C03350100
(1744106969.141952) can0 10103001#3510B1FD818082EA
(1744106969.142086) can0 10103001#83F284EAF585F880
(1744106969.142222) can0 10103001#868081B1BB8CB1B1
(1744106969.142375) can0 10103001#B13DB1B0B1A1B0B0
(1744106969.142478) can0 10203001#B0B0FCC0
(1744106969.142632) can0 00430308#07AA020100A02C10
(1744106969.142773) can0 00830308#070000000B3C0308
(1744106969.142926) can0 00C30308#05015010CEBF0000
(1744106969.193844) can0 10603001#5A45354830363031
(1744106969.203234) can0 10003001#AA030100CB2CB100
(1744106969.203393) can0 10103001#00000B3C03000100
(1744106969.203515) can0 10203001#0304B00FDA
(1744106969.231930) can0 10003001#AA030B00492CB200
(1744106969.232049) can0 10103001#00000B3C03030100
(1744106969.232191) can0 10103001#0302B0F2ADB2B2B2
(1744106969.232326) can0 10203001#53B2B2B2B23B6F
(1744106969.294352) can0 10603001#5A45354830363031
(1744106969.332533) can0 10003001#AA037800D42CB300
(1744106969.332686) can0 10103001#00000B3C03030100
(1744106969.332821) can0 10103001#0301B3B1B3AF3934
(1744106969.332959) can0 10103001#53F2E27D564C4C4C
(1744106969.333093) can0 10103001#A34CCCB2B366BF6B
(1744106969.333248) can0 10103001#BF0DBF63BF60BF61
(1744106969.333390) can0 10103001#BF60BF74BF60BF60
(1744106969.333537) can0 10103001#BF61BF67BF62BF62
(1744106969.333672) can0 10103001#BF60BFB3B36BBF0D
(1744106969.333827) can0 10103001#BF63BFB2B1A0A1A7
(1744106969.333966) can0 10103001#A785F32FB3B3DD27
(1744106969.334101) can0 10103001#B3B31B9AB3B3B3B3
(1744106969.334242) can0 10103001#B34C4C4C4CB3B3B1
(1744106969.334377) can0 10103001#B3B3B3B3B3B3B3B3
(1744106969.334512) can0 10103001#B3B3B3B33EB2B2B2
(1744106969.334666) can0 10103001#B3B3B3B3A0A1B3B3
(1744106969.334799) can0 10103001#B3B3A0A1B3B3B3B3
(1744106969.334935) can0 10203001#B3B30204
(1744106969.394826) can0 10603001#5A45354830363031
(1744106969.402294) can0 10003001#AA030100CB2CB400
(1744106969.402428) can0 10103001#00000B3C03000100
(1744106969.402551) can0 10203001#0304B5C3DC
(1744106969.495705) can0 10603001#5A45354830363031
(1744106969.530502) can0 10003001#AA030B00492CB500
(1744106969.530636) can0 10103001#00000B3C03030100
(1744106969.530770) can0 10103001#0302B7F5AAB5B5B5
(1744106969.530942) can0 10203001#54B5B5B5B5A0F1
(1744106969.531548) can0 10003001#AA037800D42CB600
(1744106969.531681) can0 10103001#00000B3C03030100
(1744106969.531816) can0 10103001#0301B6B4B6AA3C31
(1744106969.531974) can0 10103001#56F7E778B2B6B6B6
(1744106969.532109) can0 10103001#A649C9B7B663BA60
(1744106969.532243) can0 10103001#BA09BA67BA64BA64
(1744106969.532385) can0 10103001#BA65BA7EBA65BA65
(1744106969.532520) can0 10103001#BA64BA65BA67BA67
(1744106969.532655) can0 10103001#BA67BAB6B660BA09
(1744106969.532809) can0 10103001#BA66BAB7B4A5A4A2
(1744106969.532943) can0 10103001#A280F62AB6B6D822
(1744106969.533084) can0 10103001#B6B61E9FB6B6B6B6
(1744106969.533219) can0 10103001#B6B6B6B6B6B6B6B4
(1744106969.533352) can0 10103001#B696B6B6B6B6B6B6
(1744106969.533493) can0 10103001#B6B6B6B63BB7B7B7
(1744106969.533647) can0 10103001#B6B6B6B6A5A4B6B6
(1744106969.533782) can0 10103001#B6B6A5A4B6B6B6B6
(1744106969.533878) can0 10203001#B6B6FE69
(1744106969.595843) can0 10603001#5A45354830363031
(1744106969.601010) can0 10003001#AA030100CB2CB700
(1744106969.601163) can0 10103001#00000B3C03000100
(1744106969.601266) can0 10203001#0304B6861E
(1744106969.630781) can0 10003001#AA037E00AA2CB800
(1744106969.630947) can0 10103001#00000B3C03210100
(1744106969.631075) can0 10103001#031AF589888AE28B
(1744106969.631209) can0 10103001#FA8CE2FD8DF0888E
(1744106969.631345) can0 10103001#8889B8B8B8B835B9
(1744106969.631498) can0 10103001#B9B97EB8B8B8B9B8
(1744106969.631633) can0 10103001#B8B8B8B8B8B8B9A4
(1744106969.631767) can0 10103001#B075B8B8BCB8B8B8
(1744106969.631947) can0 10103001#AAB8B8F824B8B8D6
(1744106969.632063) can0 10103001#2CB8B81091B8B8B8
(1744106969.632198) can0 10103001#B8B8B86EB4B8B807
(1744106969.632333) can0 10103001#B4B8B8ABAAACACB8
(1744106969.632468) can0 10103001#B8B8B8B8B8B8B8B8
(1744106969.632609) can0 10103001#ECB0B8B8B8DCB8B8
(1744106969.632756) can0 10103001#B8B8B8B8B8B8B8B8
(1744106969.632947) can0 10103001#94B9B8B8B8B8B8B8
(1744106969.633030) can0 10103001#B8B8B8B8B8B8B8B8
(1744106969.633165) can0 10103001#B8B8B8B8B8B8B8B8
(1744106969.633256) can0 10203001#DBE9
(1744106969.633405) can0 10003001#AA037E00AA2CB900
(1744106969.633541) can0 10103001#00000B3C03030100
(1744106969.633694) can0 10103001#031AF488898BE38A
(1744106969.633836) can0 10103001#FB8DE3FC8CF1898F
(1744106969.633972) can0 10103001#8988B9B9B9B934B8
(1744106969.634107) can0 10103001#B8B87FB9B9B9B8B9
(1744106969.634260) can0 10103001#B9B9B9B9B9B9B8A5
(1744106969.634395) can0 10103001#B174B9B9BDB9B9B9
(1744106969.634528) can0 10103001#ABB9B9F925B9B9D7
(1744106969.634669) can0 10103001#2DB9B91190B9B9B9
(1744106969.634804) can0 10103001#B9B9B96FB5B9B906
(1744106969.634960) can0 10103001#B5B9B9AAABADADB9
(1744106969.635078) can0 10103001#B9B9B9B9B9B9B9B9
(1744106969.635233) can0 10103001#EDB1B9B9B9DDB9B9
(1744106969.635368) can0 10103001#B9B9B9B9B9B9B9B9
(1744106969.635509) can0 10103001#95B8B9B9B9B9B9B9
(1744106969.635643) can0 10103001#B9B9B9B9B9B9B9B9
(1744106969.635778) can0 10103001#B9B9B9B9B9B9B9B9
(1744106969.635868) can0 10203001#8D90
(1744106969.636023) can0 10003001#AA030100CB2CBA00
(1744106969.636157) can0 10103001#00000B3C03080100
(1744106969.636279) can0 10203001#0150BA0B1E
(1744106969.636433) can0 00430308#07AA020100A02C11
(1744106969.636568) can0 00830308#070000000B3C0308
(1744106969.636718) can0 00C30308#050150110B830000
(1744106969.696725) can0 10603001#5A45354830363031
(1744106969.730600) can0 10003001#AA037800D42CBB00
(1744106969.730753) can0 10103001#00000B3C03030100
(1744106969.730951) can0 10103001#0301BBB9BBA73E3C
(1744106969.731028) can0 10103001#5BFAEA757D444444
(1744106969.731176) can0 10103001#AB44C4BABB6DB76D
(1744106969.731311) can0 10103001#B705B76AB768B76A
(1744106969.731445) can0 10103001#B768B77CB768B768
(1744106969.731586) can0 10103001#B769B768B76BB769
(1744106969.731740) can0 10103001#B76AB7BBBB6DB705
(1744106969.731875) can0 10103001#B76BB7BBB9A8A9AF
(1744106969.732013) can0 10103001#AF8DFB27BBBBD52F
(1744106969.732154) can0 10103001#BBBB1392BBBBBBBB
(1744106969.732289) can0 10103001#BB46444444BBBBB9
(1744106969.732424) can0 10103001#BB9BBBBBBBBBBBBB
(1744106969.732558) can0 10103001#BBBBBBBB36BABABA
(1744106969.732700) can0 10103001#BBBBBBBBA8A9BBBB
(1744106969.732847) can0 10103001#BBBBA8A9BBBBBBBB
(1744106969.732952) can0 10203001#BBBBD3E7
(1744106969.797575) can0 10603001#5A45354830363031
(1744106969.800365) can0 10003001#AA030100CB2CBC00
(1744106969.800516) can0 10103001#00000B3C03000100
(1744106969.800638) can0 10203001#0304BDDD52
(1744106969.829048) can0 10003001#AA030B00492CBD00
(1744106969.829202) can0 10103001#00000B3C03030100
(1744106969.829337) can0 10103001#0302BF9DF3BDBDBD
(1744106969.829472) can0 10203001#5CBDBDBDBD147B
(1744106969.898144) can0 10603001#5A45354830363031
(1744106969.929629) can0 10003001#AA037800D42CBE00
(1744106969.929782) can0 10103001#00000B3C03030100
(1744106969.929959) can0 10103001#0301BEBCBEA23D39
(1744106969.930063) can0 10103001#5EFFEF705B414141
(1744106969.930204) can0 10103001#AE41C1BFBE6BB268
(1744106969.930359) can0 10103001#B200B26FB26CB26F
(1744106969.930494) can0 10103001#B26DB279B26DB26A
(1744106969.930628) can0 10103001#B26CB26AB26FB26F
(1744106969.930770) can0 10103001#B26FB2BEBE68B200
(1744106969.930959) can0 10103001#B26EB2BFBCADACAA
(1744106969.931057) can0 10103001#AA88FE22BEBED02A
(1744106969.931210) can0 10103001#BEBE1697BEBEBEBE
(1744106969.931346) can0 10103001#BE41414141BEBEBC
(1744106969.931493) can0 10103001#BE9EBEBEBEBEBEBE
(1744106969.931635) can0 10103001#BEBEBEBE33BFBFBF
(1744106969.931783) can0 10103001#BEBEBEBEADACBEBE
(1744106969.931959) can0 10103001#BEBEADACBEBEBEBE
(1744106969.932043) can0 10203001#BEBE75E6
(1744106969.997963) can0 10603001#5A45354830363031
(1744106969.999392) can0 10003001#AA030100CB2CBF00
(1744106969.999546) can0 10103001#00000B3C03000100
(1744106969.999669) can0 10203001#0304BE9890
(1744106970.098974) can0 10603001#5A45354830363031
(1744106970.127610) can0 10003001#AA030B00492CC000
(1744106970.127763) can0 10103001#00000B3C03030100
(1744106970.127967) can0 10103001#0302C2E08EC0C0C0
(1744106970.128038) can0 10203001#21C0C0C0C0B4E2
(1744106970.128590) can0 10003001#AA030100CB2CC100
(1744106970.128732) can0 10103001#00000B3C03080100
(1744106970.128847) can0 10203001#0150C1EE86
(1744106970.128993) can0 10003001#AA037800D42CC200
(1744106970.129140) can0 10103001#00000B3C03030100
(1744106970.129282) can0 10103001#0301C2C0C2DE4145
(1744106970.129429) can0 10103001#2283930C273D3D3D
(1744106970.129570) can0 10103001#D23DBDC3C217CE14
(1744106970.129705) can0 10103001#CE7CCE12CE11CE13
(1744106970.129840) can0 10103001#CE11CE0ACE11CE11
(1744106970.129981) can0 10103001#CE10CE11CE12CE13
(1744106970.130114) can0 10103001#CE13CEC2C214CE7C
(1744106970.130268) can0 10103001#CE12CEC3C0D1D0D6
(1744106970.130403) can0 10103001#D6F4825EC2C2AC56
(1744106970.130545) can0 10103001#C2C26AEBC2C2C2C2
(1744106970.130679) can0 10103001#C23D3D3D3DC2C2C0
(1744106970.130815) can0 10103001#C2E2C2C2C2C2C2C2
(1744106970.130968) can0 10103001#C2C2C2C24FC3C3C3
(1744106970.131109) can0 10103001#C2C2C2C2D1D0C2C2
(1744106970.131244) can0 10103001#C2C2D1D0C2C2C2C2
(1744106970.131348) can0 10203001#C2C2C98E
(1744106970.131482) can0 10003001#AA037E00AA2CC300
(1744106970.131636) can0 10103001#00000B3C03210100
(1744106970.131770) can0 10103001#031A8EF2F3F199F0
(1744106970.131968) can0 10103001#81F79986F68BF3F5
(1744106970.132065) can0 10103001#F3F2C3C3C3C34EC2
(1744106970.132200) can0 10103001#C2C205C3C3C3C2C3
(1744106970.132350) can0 10103001#C3C3C3C3C3C3C2DF
(1744106970.132485) can0 10103001#C60EC3C3263C3C3C
(1744106970.132621) can0 10103001#D1C3C3835FC3C3AD
(1744106970.132774) can0 10103001#57C3C36BEAC3C3C3
(1744106970.132968) can0 10103001#C3C3C315CFC3C37D
(1744106970.133045) can0 10103001#CFC3C3D0D1D7D7C3
(1744106970.133199) can0 10103001#C3C3C3C33C3C3C3C
(1744106970.133334) can0 10103001#97CBC3C3C3A7C3C3
(1744106970.133467) can0 10103001#C3C3C3C3C3C3C3C3
(1744106970.133608) can0 10103001#EFC2C3C3C3C3C3C3
(1744106970.133762) can0 10103001#C3C3C3C3C3C3C3C3
(1744106970.133897) can0 10103001#C3C3C3C3C3C3C3C3
(1744106970.133984) can0 10203001#C6C7
(1744106970.134126) can0 10003001#AA037E00AA2CC400
(1744106970.134280) can0 10103001#00000B3C03030100
(1744106970.134414) can0 10103001#031A89F5F4F69EF7
(1744106970.134562) can0 10103001#86F09E81F18CF4F2
(1744106970.134703) can0 10103001#F4F5C4C4C4C449C5
(1744106970.134838) can0 10103001#C5C502C4C4C4C5C4
(1744106970.134974) can0 10103001#C4C4C4C4C4C4C5D8
(1744106970.135108) can0 10103001#C109C4C4213B3B3B
(1744106970.135249) can0 10103001#D6C4C48458C4C4AA
(1744106970.135384) can0 10103001#50C4C46CEDC4C4C4
(1744106970.135537) can0 10103001#C4C4C412C8C4C47A
(1744106970.135671) can0 10103001#C8C4C4D7D6D0D0C4
(1744106970.135813) can0 10103001#C4C4C4C43B3B3B3B
(1744106970.135968) can0 10103001#90CCC4C4C4A0C4C4
(1744106970.136084) can0 10103001#C4C4C4C4C4C4C4C4
(1744106970.136225) can0 10103001#E8C5C4C4C4C4C4C4
(1744106970.136371) can0 10103001#C4C4C4C4C4C4C4C4
(1744106970.136513) can0 10103001#C4C4C4C4C4C4C4C4
(1744106970.136597) can0 10203001#8BFA
(1744106970.136745) can0 00430308#07AA020100A02C12
(1744106970.136886) can0 00830308#070000000B3C0308
(1744106970.137025) can0 00C30308#0501501244C60000
(1744106970.198449) can0 10003001#AA030100CB2CC500
(1744106970.198598) can0 10103001#00000B3C03000100
(1744106970.198721) can0 10203001#0304C4BE49
(1744106970.199314) can0 10603001#5A45354830363031
(1744106970.299644) can0 10603001#5A45354830363031
(1744106970.327766) can0 10003001#AA037800D42CC600
(1744106970.327976) can0 10103001#00000B3C03030100
(1744106970.328054) can0 10103001#0301C6C4C6DA4541
(1744106970.328189) can0 10103001#26879708C2C6C6C6
(1744106970.328337) can0 10103001#D639B9C7C613CA10
(1744106970.328479) can0 10103001#CA79CA17CA15CA15
(1744106970.328614) can0 10103001#CA15CA0ECA15CA15
(1744106970.328755) can0 10103001#CA16CA12CA16CA14
(1744106970.328882) can0 10103001#CA17CAC6C610CA79
(1744106970.329027) can0 10103001#CA16CAC7C4D5D4D2
(1744106970.329181) can0 10103001#D2F0865AC6C6A852
(1744106970.329316) can0 10103001#C6C66EEFC6C6C6C6
(1744106970.329450) can0 10103001#C6C6C6C6C6C6C6C4
(1744106970.329592) can0 10103001#C6E6C6C6C6C6C6C6
(1744106970.329726) can0 10103001#C6C6C6C64BC7C7C7
(1744106970.329881) can0 10103001#C6C6C6C6D5D4C6C6
(1744106970.330014) can0 10103001#C6C6D5D4C6C6C6C6
(1744106970.330124) can0 10203001#C6C63A80
(1744106970.397450) can0 10003001#AA030100CB2CC700
(1744106970.397585) can0 10103001#00000B3C03000100
(1744106970.397704) can0 10203001#0304C638CA
(1744106970.399992) can0 10603001#5A45354830363031
(1744106970.426184) can0 10003001#AA030B00492CC800
(1744106970.426319) can0 10103001#00000B3C03030100
(1744106970.426472) can0 10103001#0302CAE886C8C8C8
(1744106970.426595) can0 10203001#29C8C8C8C8F245
(1744106970.500875) can0 10603001#5A45354830363031
(1744106970.526482) can0 10003001#AA037800D42CC900
(1744106970.526630) can0 10103001#00000B3C03030100
(1744106970.526772) can0 10103001#0301C9CBC9D54A4E
(1744106970.526926) can0 10103001#29889807CDC9C9C9
(1744106970.527048) can0 10103001#D936B6C8C91DC51E
(1744106970.527198) can0 10103001#C577C518C51AC518
(1744106970.527334) can0 10103001#C51AC50EC51CC51A
(1744106970.527476) can0 10103001#C519C51AC519C518
(1744106970.527611) can0 10103001#C518C5C9C91EC577
(1744106970.527745) can0 10103001#C519C5C8CBDADBDD
(1744106970.527900) can0 10103001#DDFF8955C9C9A75D
(1744106970.528023) can0 10103001#C9C961E0C9C9C9C9
(1744106970.528177) can0 10103001#C9C9C9C9C9C9C9CB
(1744106970.528310) can0 10103001#C9C9C9C9C9C9C9C9
(1744106970.528464) can0 10103001#C9C9C9C944C8C8C8
(1744106970.528599) can0 10103001#C9C9C9C9DADBC9C9
(1744106970.528734) can0 10103001#C9C9DADBC9C9C9C9
(1744106970.528838) can0 10203001#C9C9470E
(1744106970.596573) can0 10003001#AA030100CB2CCA00
(1744106970.596708) can0 10103001#00000B3C03000100
(1744106970.596830) can0 10203001#0304CBEA42
(1744106970.601389) can0 10603001#5A45354830363031
(1744106970.626313) can0 10003001#AA030100CB2CCB00
(1744106970.626466) can0 10103001#00000B3C03080100
(1744106970.626569) can0 10203001#0150CB768B
(1744106970.626718) can0 10003001#AA037E00AA2CCC00
(1744106970.626859) can0 10103001#00000B3C03210100
(1744106970.627014) can0 10103001#031A81FDFCFE96FF
(1744106970.627149) can0 10103001#8EF89689F984FCFA
(1744106970.627299) can0 10103001#FCFDCCCCCCCC41CD
(1744106970.627441) can0 10103001#CDCD0ACCCCCCCDCC
(1744106970.627576) can0 10103001#CCCCCCCCCCCCCDD0
(1744106970.627710) can0 10103001#CF01CCCCC8CCCCCC
(1744106970.627845) can0 10103001#DECCCC8C50CCCCA2
(1744106970.627989) can0 10103001#58CCCC64E5CCCCCC
(1744106970.628123) can0 10103001#CCCCCC1BC0CCCC72
(1744106970.628277) can0 10103001#C0CCCCDFDED8D8CC
(1744106970.628411) can0 10103001#CCCCCCCCCCCCCCCC
(1744106970.628545) can0 10103001#98C4CCCCCCA8CCCC
(1744106970.628686) can0 10103001#CCCCCCCCCCCCCCCC
(1744106970.628821) can0 10103001#E0CDCCCCCCCCCCCC
(1744106970.628989) can0 10103001#CCCCCCCCCCCCCCCC
(1744106970.629098) can0 10103001#CCCCCCCCCCCCCCCC
(1744106970.629201) can0 10203001#EB27
(1744106970.629336) can0 10003001#AA037E00AA2CCD00
(1744106970.629489) can0 10103001#00000B3C03030100
(1744106970.629624) can0 10103001#031A80FCFDFF97FE
(1744106970.629778) can0 10103001#8FF99788F885FDFB
(1744106970.629913) can0 10103001#FDFCCDCDCDCD40CC
(1744106970.630049) can0 10103001#CCCC0BCDCDCDCCCD
(1744106970.630191) can0 10103001#CDCDCDCDCDCDCCD1
(1744106970.630338) can0 10103001#CE00CDCDC9CDCDCD
(1744106970.630479) can0 10103001#DFCDCD8D51CDCDA3
(1744106970.630606) can0 10103001#59CDCD65E4CDCDCD
(1744106970.630747) can0 10103001#CDCDCD1AC1CDCD73
(1744106970.630901) can0 10103001#C1CDCDDEDFD9D9CD
(1744106970.631039) can0 10103001#CDCDCDCDCDCDCDCD
(1744106970.631181) can0 10103001#99C5CDCDCDA9CDCD
(1744106970.631315) can0 10103001#CDCDCDCDCDCDCDCD
(1744106970.631450) can0 10103001#E1CCCDCDCDCDCDCD
(1744106970.631584) can0 10103001#CDCDCDCDCDCDCDCD
(1744106970.631733) can0 10103001#CDCDCDCDCDCDCDCD
(1744106970.631824) can0 10203001#BD5E
(1744106970.631989) can0 00430308#07AA020100A02C13
(1744106970.632118) can0 00830308#070000000B3C0308
(1744106970.632267) can0 00C30308#0501501381FA0000
(1744106970.701868) can0 10603001#5A45354830363031
(1744106970.724784) can0 10003001#AA030B00492CCE00
(1744106970.724916) can0 10103001#00000B3C03030100
(1744106970.725057) can0 10103001#0302CCEE80CECECE
(1744106970.725192) can0 10203001#2FCECECECE819F
(1744106970.725817) can0 10003001#AA037800D42CCF00
(1744106970.725993) can0 10103001#00000B3C03030100
(1744106970.726104) can0 10103001#0301CFCDCFD3B148
(1744106970.726258) can0 10103001#2F8E9E0109303030
(1744106970.726400) can0 10103001#DF30B0CECF1AC319
(1744106970.726535) can0 10103001#C370C31EC31CC31D
(1744106970.726662) can0 10103001#C31CC308C31CC31C
(1744106970.726804) can0 10103001#C31DC31DC31EC31E
(1744106970.726993) can0 10103001#C31EC3CFCF19C370
(1744106970.727096) can0 10103001#C31FC3CECDDCDDDB
(1744106970.727231) can0 10103001#DBF98F53CFCFA15B
(1744106970.727386) can0 10103001#CFCF67E6CFCFCFCF
(1744106970.727521) can0 10103001#CF32303030CFCFCD
(1744106970.727676) can0 10103001#CFEFCFCFCFCFCFCF
(1744106970.727809) can0 10103001#CFCFCFCF42CECECE
(1744106970.727994) can0 10103001#CFCFCFCFDCDDCFCF
(1744106970.728103) can0 10103001#CFCFDCDDCFCFCFCF
(1744106970.728207) can0 10203001#CFCF1F0F
(1744106970.795589) can0 10003001#AA030100CB2CD000
(1744106970.795750) can0 10103001#00000B3C03000100
(1744106970.795850) can0 10203001#0304D14D13
(1744106970.802773) can0 10603001#5A45354830363031
(1744106970.902618) can0 10603001#5A45354830363031
(1744106970.924906) can0 10003001#AA037800D42CD100
(1744106970.925046) can0 10103001#00000B3C03030100
(1744106970.925194) can0 10103001#0301D1D3D1CDAF56
(1744106970.925327) can0 10103001#3190801FD5D1D1D1
(1744106970.925469) can0 10103001#C12EAED0D104DD07
(1744106970.925623) can0 10103001#DD6DDD1CDD00DD1F
(1744106970.925758) can0 10103001#DD01DD14DD01DD1E
(1744106970.925892) can0 10103001#DD1FDD1EDD1CDD1E
(1744106970.926033) can0 10103001#DD1FDDD1D107DD6D
(1744106970.926175) can0 10103001#DD1CDDD0D3C2C3C5
(1744106970.926322) can0 10103001#C5E0914DD1D1BF45
(1744106970.926458) can0 10103001#D1D179F8D1D1D1D1
(1744106970.926599) can0 10103001#D1D1D1D1D1D1D1D3
(1744106970.926734) can0 10103001#D1D1D1D1D1D1D1D1
(1744106970.926868) can0 10103001#D1D1D1D15CD0D0D0
(1744106970.927009) can0 10103001#D1D1D1D1C2C3D1D1
(1744106970.927144) can0 10103001#D1D1C2C3D1D1D1D1
(1744106970.927266) can0 10203001#D1D13256
(1744106970.994671) can0 10003001#AA030100CB2CD200
(1744106970.994820) can0 10103001#00000B3C03000100
(1744106970.994930) can0 10203001#0304D3CB90
(1744106971.003481) can0 10603001#5A45354830363031
(1744106971.023362) can0 10003001#AA030B00492CD300
(1744106971.023515) can0 10103001#00000B3C03030100
(1744106971.023650) can0 10103001#0302D1F39DD3D3D3
(1744106971.023785) can0 10203001#32D3D3D3D30321
(1744106971.103706) can0 10603001#5A45354830363031
(1744106971.123917) can0 10003001#AA030100CB2CD400
(1744106971.124061) can0 10103001#00000B3C03080100
(1744106971.124182) can0 10203001#0150D41DDC
(1744106971.124336) can0 10003001#AA037800D42CD500
(1744106971.124463) can0 10103001#00000B3C03030100
(1744106971.124604) can0 10103001#0301D5D7D5C9AB52
(1744106971.124758) can0 10103001#3594841BF6D5D5D5
(1744106971.124893) can0 10103001#C52AAAD4D503D90D
(1744106971.125035) can0 10103001#D96AD904D906D904
(1744106971.125170) can0 10103001#D906D912D906D906
(1744106971.125324) can0 10103001#D907D906D904D907
(1744106971.125459) can0 10103001#D904D9D5D50DD96A
(1744106971.125607) can0 10103001#D905D9D4D7C6C7C1
(1744106971.125748) can0 10103001#C1E39549D5D5BB41
(1744106971.125883) can0 10103001#D5D57DFCD5D5D5D5
(1744106971.126042) can0 10103001#D5D4D5D5D5D5D5D7
(1744106971.126161) can0 10103001#D5D5D5D5D5D5D5D5
(1744106971.126316) can0 10103001#D5D5D5D558D4D4D4
(1744106971.126450) can0 10103001#D5D5D5D5C6C7D5D5
(1744106971.126585) can0 10103001#D5D5C6C7D5D5D5D5
(1744106971.126689) can0 10203001#D5D57837
(1744106971.126843) can0 10003001#AA037E00AA2CD600
(1744106971.127010) can0 10103001#00000B3C03210100
(1744106971.127119) can0 10103001#031A9BE7E6E48CE5
(1744106971.127268) can0 10103001#94E28C93E39EE6E0
(1744106971.127410) can0 10103001#E6E7D6D6D6D65BD7
(1744106971.127544) can0 10103001#D7D710D6D6D6D7D6
(1744106971.127698) can0 10103001#D6D6D6D6D6D6D7CA
(1744106971.127833) can0 10103001#DD1BD6D6F5D6D6D6
(1744106971.128010) can0 10103001#C4D6D6964AD6D6B8
(1744106971.128107) can0 10103001#42D6D67EFFD6D6D6
(1744106971.128241) can0 10103001#D6D6D60EDAD6D669
(1744106971.128395) can0 10103001#DAD6D6C5C4C2C2D6
(1744106971.128530) can0 10103001#D6D6D6D6D6D6D6D6
(1744106971.128672) can0 10103001#82DED6D6D6B2D6D6
(1744106971.128806) can0 10103001#D6D6D6D6D6D6D6D6
(1744106971.128940) can0 10103001#FAD7D6D6D6D6D6D6
(1744106971.129080) can0 10103001#D6D6D6D6D6D6D6D6
(1744106971.129233) can0 10103001#D6D6D6D6D6D6D6D6
(1744106971.129324) can0 10203001#E96C
(1744106971.129457) can0 10003001#AA037E00AA2CD700
(1744106971.129611) can0 10103001#00000B3C03030100
(1744106971.129746) can0 10103001#031A9AE6E7E58DE4
(1744106971.129900) can0 10103001#95E38D92E29FE7E1
(1744106971.130042) can0 10103001#E7E6D7D7D7D75AD6
(1744106971.130177) can0 10103001#D6D611D7D7D7D6D7
(1744106971.130330) can0 10103001#D7D7D7D7D7D7D6CB
(1744106971.130465) can0 10103001#DC1AD7D7F4D7D7D7
(1744106971.130600) can0 10103001#C5D7D7974BD7D7B9
(1744106971.130753) can0 10103001#43D7D77FFED7D7D7
(1744106971.130888) can0 10103001#D7D7D70FDBD7D768
(1744106971.131026) can0 10103001#DBD7D7C4C5C3C3D7
(1744106971.131186) can0 10103001#D7D7D7D7D7D7D7D7
(1744106971.131321) can0 10103001#83DFD7D7D7B3D7D7
(1744106971.131475) can0 10103001#D7D7D7D7D7D7D7D7
(1744106971.131610) can0 10103001#FBD6D7D7D7D7D7D7
(1744106971.131764) can0 10103001#D7D7D7D7D7D7D7D7
(1744106971.131911) can0 10103001#D7D7D7D7D7D7D7D7
(1744106971.132010) can0 10203001#BF15
(1744106971.132136) can0 00430308#07AA020100A02C14
(1744106971.132297) can0 00830308#070000000B3C0308
(1744106971.132431) can0 00C30308#05015014DA4C0000
(1744106971.193756) can0 10003001#AA030100CB2CD800
(1744106971.193905) can0 10103001#00000B3C03000100
(1744106971.194032) can0 10203001#0304D9539D
(1744106971.204235) can0 10603001#5A45354830363031
(1744106971.305069) can0 10603001#5A45354830363031
(1744106971.321927) can0 10003001#AA030B00492CD900
(1744106971.322062) can0 10103001#00000B3C03030100
(1744106971.322217) can0 10103001#0302DBF997D9D9D9
(1744106971.322351) can0 10203001#38D9D9D9D9950F
(1744106971.323026) can0 10003001#AA037800D42CDA00
(1744106971.323160) can0 10103001#00000B3C03030100
(1744106971.323314) can0 10103001#0301DAD8DAC6A45D
(1744106971.323450) can0 10103001#3A9B8B14DEDADADA
(1744106971.323584) can0 10103001#CA25A5DBDA0FD60D
(1744106971.323726) can0 10103001#D665D60BD609D608
(1744106971.323879) can0 10103001#D609D61DD609D609
(1744106971.324018) can0 10103001#D60AD609D60BD608
(1744106971.324153) can0 10103001#D60BD6DADA0DD665
(1744106971.324288) can0 10103001#D60AD6DBD8C9C8CE
(1744106971.324441) can0 10103001#CEEC9A46DADAB44E
(1744106971.324576) can0 10103001#DADA72F3DADADADA
(1744106971.324710) can0 10103001#DADADADADADADAD8
(1744106971.324851) can0 10103001#DAFADADADADADADA
(1744106971.325018) can0 10103001#DADADADA57DBDBDB
(1744106971.325140) can0 10103001#DADADADAC9C8DADA
(1744106971.325274) can0 10103001#DADAC9C8DADADADA
(1744106971.325384) can0 10203001#DADA9B37
(1744106971.392790) can0 10003001#AA030100CB2CDB00
(1744106971.392943) can0 10103001#00000B3C03000100
(1744106971.393066) can0 10203001#0304DA165F
(1744106971.405238) can0 10603001#5A45354830363031
(1744106971.506109) can0 10603001#5A45354830363031
(1744106971.521764) can0 10003001#AA037800D42CDC00
(1744106971.521913) can0 10103001#00000B3C03030100
(1744106971.522058) can0 10103001#0301DCDEDCC0A05B
(1744106971.522212) can0 10103001#3C9D8D1239232323
(1744106971.522346) can0 10103001#CC23A3DDDC09D00B
(1744106971.522480) can0 10103001#D062D00DD00ED00D
(1744106971.522635) can0 10103001#D00FD015D008D00F
(1744106971.522770) can0 10103001#D00CD008D00DD00D
(1744106971.522924) can0 10103001#D00DD0DCDC0BD062
(1744106971.523065) can0 10103001#D00CD0DDDECFCEC8
(1744106971.523200) can0 10103001#C8EA9C40DCDCB248
(1744106971.523334) can0 10103001#DCDC74F5DCDCDCDC
(1744106971.523469) can0 10103001#DC23232323DCDCDE
(1744106971.523602) can0 10103001#DCFCDCDCDCDCDCDC
(1744106971.523743) can0 10103001#DCDCDCDC51DDDDDD
(1744106971.523897) can0 10103001#DCDCDCDCCFCEDCDC
(1744106971.524040) can0 10103001#DCDCCFCEDCDCDCDC
(1744106971.524135) can0 10203001#DCDCC597
(1744106971.591513) can0 10003001#AA030100CB2CDD00
(1744106971.591667) can0 10103001#00000B3C03000100
(1744106971.591788) can0 10203001#0304DC9F9B
(1744106971.606329) can0 10603001#5A45354830363031
(1744106971.620590) can0 10003001#AA030B00492CDE00
(1744106971.620724) can0 10103001#00000B3C03030100
(1744106971.620878) can0 10103001#0302DCFE90DEDEDE
(1744106971.621031) can0 10203001#3FDEDEDEDE0E91
(1744106971.621540) can0 10003001#AA030100CB2CDF00
(1744106971.621694) can0 10103001#00000B3C03080100
(1744106971.621809) can0 10203001#0150DF4690
(1744106971.621944) can0 10003001#AA037E00AA2CE000
(1744106971.622101) can0 10103001#00000B3C03210100
(1744106971.622242) can0 10103001#031AADD1D0D2BAD3
(1744106971.622376) can0 10103001#A2D4BAA5D5A8D0D6
(1744106971.622530) can0 10103001#D0D1E0E0E0E06DE1
(1744106971.622665) can0 10103001#E1E126E0E0E0E1E0
(1744106971.622819) can0 10103001#E0E0E0E0E0E0E1FC
(1744106971.622953) can0 10103001#E62DE0E0051F1F1F
(1744106971.623107) can0 10103001#F2E0E0A07CE0E08E
(1744106971.623261) can0 10103001#74E0E048C9E0E0E0
(1744106971.623397) can0 10103001#E0E0E037ECE0E05E
(1744106971.623550) can0 10103001#ECE0E0F3F2F4F4E0
(1744106971.623684) can0 10103001#E0E0E0E01F1F1F1F
(1744106971.623839) can0 10103001#B4E8E0E0E084E0E0
(1744106971.624031) can0 10103001#E0E0E0E0E0E0E0E0
(1744106971.624127) can0 10103001#CCE1E0E0E0E0E0E0
(1744106971.624274) can0 10103001#E0E0E0E0E0E0E0E0
(1744106971.624415) can0 10103001#E0E0E0E0E0E0E0E0
(1744106971.624499) can0 10203001#A531
(1744106971.624653) can0 10003001#AA037E00AA2CE100
(1744106971.624802) can0 10103001#00000B3C03030100
(1744106971.624943) can0 10103001#031AACD0D1D3BBD2
(1744106971.625081) can0 10103001#A3D5BBA4D4A9D1D7
(1744106971.625216) can0 10103001#D1D0E1E1E1E16CE0
(1744106971.625350) can0 10103001#E0E027E1E1E1E0E1
(1744106971.625505) can0 10103001#E1E1E1E1E1E1E0FD
(1744106971.625646) can0 10103001#E72CE1E1041E1E1E
(1744106971.625793) can0 10103001#F3E1E1A17DE1E18F
(1744106971.625928) can0 10103001#75E1E149C8E1E1E1
(1744106971.626069) can0 10103001#E1E1E136EDE1E15F
(1744106971.626204) can0 10103001#EDE1E1F2F3F5F5E1
(1744106971.626345) can0 10103001#E1E1E1E11E1E1E1E
(1744106971.626494) can0 10103001#B5E9E1E1E185E1E1
(1744106971.626629) can0 10103001#E1E1E1E1E1E1E1E1
(1744106971.626771) can0 10103001#CDE0E1E1E1E1E1E1
(1744106971.626906) can0 10103001#E1E1E1E1E1E1E1E1
(1744106971.627039) can0 10103001#E1E1E1E1E1E1E1E1
(1744106971.627130) can0 10203001#F348
(1744106971.627284) can0 00430308#07AA020100A02C15
(1744106971.627438) can0 00830308#070000000B3C0308
(1744106971.627574) can0 00C30308#050150151F700000
(1744106971.707166) can0 10603001#5A45354830363031
(1744106971.721140) can0 10003001#AA037800D42CE200
(1744106971.721272) can0 10103001#00000B3C03030100
(1744106971.721420) can0 10103001#0301E2E0E2FE9565
(1744106971.721561) can0 10103001#02A3B32C241D1D1D
(1744106971.721696) can0 10103001#F21D9DE3E237EE35
(1744106971.721850) can0 10103001#EE5FEE33EE30EE33
(1744106971.722035) can0 10103001#EE31EE25EE31EE31
(1744106971.722119) can0 10103001#EE32EE36EE33EE33
(1744106971.722254) can0 10103001#EE33EEE2E235EE5F
(1744106971.722407) can0 10103001#EE32EEE3E0F1F0F6
(1744106971.722548) can0 10103001#F6D0A27EE2E28C76
(1744106971.722683) can0 10103001#E2E24ACBE2E2E2E2
(1744106971.722837) can0 10103001#E21F1D1D1DE2E2E0
(1744106971.722972) can0 10103001#E2C2E2E2E2E2E2E2
(1744106971.723106) can0 10103001#E2E2E2E26FE3E3E3
(1744106971.723248) can0 10103001#E2E2E2E2F1F0E2E2
(1744106971.723383) can0 10103001#E2E2F1F0E2E2E2E2
(1744106971.723505) can0 10203001#E2E20D94
(1744106971.790896) can0 10003001#AA030100CB2CE300
(1744106971.791057) can0 10103001#00000B3C03000100
(1744106971.791160) can0 10203001#0304E24935
(1744106971.807799) can0 10603001#5A45354830363031
(1744106971.907853) can0 10603001#5A45354830363031
(1744106971.919089) can0 10003001#AA030B00492CE400
(1744106971.919229) can0 10103001#00000B3C03030100
(1744106971.919364) can0 10103001#0302E6C4AAE4E4E4
(1744106971.919497) can0 10203001#05E4E4E4E409AC
(1744106971.920177) can0 10003001#AA037800D42CE500
(1744106971.920324) can0 10103001#00000B3C03030100
(1744106971.920466) can0 10103001#0301E5E7E5F99262
(1744106971.920616) can0 10103001#05A4B42BE1E5E5E5
(1744106971.920751) can0 10103001#F51A9AE4E533E932
(1744106971.920886) can0 10103001#E95BE934E936E936
(1744106971.921043) can0 10103001#E936E922E931E936
(1744106971.921166) can0 10103001#E937E936E934E92A
(1744106971.921301) can0 10103001#E928E9E5E532E95B
(1744106971.921455) can0 10103001#E935E9E4E7F6F7F1
(1744106971.921590) can0 10103001#F1D3A579E5E58B71
(1744106971.921723) can0 10103001#E5E54DCCE5E5E5E5
(1744106971.921865) can0 10103001#E5E5E5E5E5E5E5E7
(1744106971.922043) can0 10103001#E5C5E5E5E5E5E5E5
(1744106971.922134) can0 10103001#E5E5E5E568E4E4E4
(1744106971.922283) can0 10103001#E5E5E5E5F6F7E5E5
(1744106971.922424) can0 10103001#E5E5F6F7E5E5E5E5
(1744106971.922528) can0 10203001#E5E5A0AA
(1744106971.989943) can0 10003001#AA030100CB2CE600
(1744106971.990085) can0 10103001#00000B3C03000100
(1744106971.990200) can0 10203001#0304E78533
(1744106972.008397) can0 10603001#5A45354830363031
(1744106972.109266) can0 10603001#5A45354830363031
(1744106972.119155) can0 10003001#AA030100CB2CE700
(1744106972.119313) can0 10103001#00000B3C03080100
(1744106972.119428) can0 10203001#0150E719FA
(1744106972.119569) can0 10003001#AA037800D42CE800
(1744106972.119712) can0 10103001#00000B3C03030100
(1744106972.119854) can0 10103001#0301E8EAE8F49F6F
(1744106972.120052) can0 10103001#08A9B9260D171717
(1744106972.120142) can0 10103001#F81797E9E83EE43E
(1744106972.120277) can0 10103001#E456E439E43BE439
(1744106972.120431) can0 10103001#E43AE420E43BE43C
(1744106972.120573) can0 10103001#E438E43BE438E43A
(1744106972.120707) can0 10103001#E43AE4E8E83EE456
(1744106972.120856) can0 10103001#E438E4E8EAFBFAFC
(1744106972.121052) can0 10103001#FCDEA874E8E8867C
(1744106972.121130) can0 10103001#E8E840C1E8E8E8E8
(1744106972.121284) can0 10103001#E817171717E8E8EA
(1744106972.121418) can0 10103001#E8C8E8E8E8E8E8E8
(1744106972.121554) can0 10103001#E8E8E8E865E9E9E9
(1744106972.121689) can0 10103001#E8E8E8E8FBFAE8E8
(1744106972.121831) can0 10103001#E8E8FBFAE8E8E8E8
(1744106972.121946) can0 10203001#E8E8B7DA
(1744106972.122090) can0 10003001#AA037E00AA2CE900
(1744106972.122244) can0 10103001#00000B3C03210100
(1744106972.122379) can0 10103001#031AA4D8D9DBB3DA
(1744106972.122513) can0 10103001#ABDDB3ACDCA1D9DF
(1744106972.122654) can0 10103001#D9D8E9E9E9E964E8
(1744106972.122802) can0 10103001#E8E82FE9E9E9E8E9
(1744106972.122944) can0 10103001#E9E9E9E9E9E9E8F5
(1744106972.123075) can0 10103001#EE24E9E90C161616
(1744106972.123217) can0 10103001#FBE9E9A975E9E987
(1744106972.123353) can0 10103001#7DE9E941C0E9E9E9
(1744106972.123490) can0 10103001#E9E9E93FE5E9E957
(1744106972.123642) can0 10103001#E5E9E9FAFBFDFDE9
(1744106972.123777) can0 10103001#E9E9E9E916161616
(1744106972.123914) can0 10103001#BDE1E9E9E98DE9E9
(1744106972.124052) can0 10103001#E9E9E9E9E9E9E9E9
(1744106972.124186) can0 10103001#C5E8E9E9E9E9E9E9
(1744106972.124327) can0 10103001#E9E9E9E9E9E9E9E9
(1744106972.124468) can0 10103001#E9E9E9E9E9E9E9E9
(1744106972.124572) can0 10203001#7A53
(1744106972.124706) can0 10003001#AA037E00AA2CEA00
(1744106972.124861) can0 10103001#00000B3C03030100
(1744106972.125052) can0 10103001#031AA7DBDAD8B0D9
(1744106972.125130) can0 10103001#A8DEB0AFDFA2DADC
(1744106972.125284) can0 10103001#DADBEAEAEAEA67EB
(1744106972.125419) can0 10103001#EBEB2CEAEAEAEBEA
(1744106972.125554) can0 10103001#EAEAEAEAEAEAEBF6
(1744106972.125696) can0 10103001#ED27EAEA0F151515
(1744106972.125845) can0 10103001#F8EAEAAA76EAEA84
(1744106972.125980) can0 10103001#7EEAEA42C3EAEAEA
(1744106972.126122) can0 10103001#EAEAEA3CE6EAEA54
(1744106972.126257) can0 10103001#E6EAEAF9F8FEFEEA
(1744106972.126392) can0 10103001#EAEAEAEA15151515
(1744106972.126534) can0 10103001#BEE2EAEAEA8EEAEA
(1744106972.126683) can0 10103001#EAEAEAEAEAEAEAEA
(1744106972.126823) can0 10103001#C6EBEAEAEAEAEAEA
(1744106972.126958) can0 10103001#EAEAEAEAEAEAEAEA
(1744106972.127096) can0 10103001#EAEAEAEAEAEAEAEA
(1744106972.127187) can0 10203001#24D6
(1744106972.127322) can0 00430308#07AA020100A02C16
(1744106972.127471) can0 00830308#070000000B3C0308
(1744106972.127613) can0 00C30308#0501501650350000
(1744106972.188971) can0 10003001#AA030100CB2CEB00
(1744106972.189125) can0 10103001#00000B3C03000100
(1744106972.189244) can0 10203001#0304EA57BB
(1744106972.209735) can0 10603001#5A45354830363031
(1744106972.217666) can0 10003001#AA030B00492CEC00
(1744106972.217819) can0 10103001#00000B3C03030100
(1744106972.217953) can0 10103001#0302EECCA2ECECEC
(1744106972.218075) can0 10203001#0DECECECEC4F0B
(1744106972.310381) can0 10603001#5A45354830363031
(1744106972.318267) can0 10003001#AA037800D42CED00
(1744106972.318412) can0 10103001#00000B3C03030100
(1744106972.318553) can0 10103001#0301EDEFEDF1986A
(1744106972.318687) can0 10103001#0DACBC2308121212
(1744106972.318842) can0 10103001#FD1292ECED3BE13A
(1744106972.318976) can0 10103001#E152E13CE13EE13F
(1744106972.319117) can0 10103001#E13EE12AE13EE13E
(1744106972.319252) can0 10103001#E13EE13EE13CE13C
(1744106972.319387) can0 10103001#E13CE1EDED3AE152
(1744106972.319541) can0 10103001#E13DE1ECEFFEFFF9
(1744106972.319675) can0 10103001#F9DBAD71EDED8379
(1744106972.319816) can0 10103001#EDED45C4EDEDEDED
(1744106972.319951) can0 10103001#ED12121212EDEDEF
(1744106972.320092) can0 10103001#EDCDEDEDEDEDEDED
(1744106972.320246) can0 10103001#EDEDEDED60ECECEC
(1744106972.320381) can0 10103001#EDEDEDEDFEFFEDED
(1744106972.320515) can0 10103001#EDEDFEFFEDEDEDED
(1744106972.320638) can0 10203001#EDEDCAA0
(1744106972.388063) can0 10003001#AA030100CB2CEE00
(1744106972.388178) can0 10103001#00000B3C03000100
(1744106972.388301) can0 10203001#0304EF9BBD
(1744106972.410776) can0 10603001#5A45354830363031
(1744106972.511286) can0 10603001#5A45354830363031
(1744106972.516189) can0 10003001#AA030B00492CEF00
(1744106972.516338) can0 10103001#00000B3C03030100
(1744106972.516479) can0 10103001#0302EDCFA1EFEFEF
(1744106972.516614) can0 10203001#0EEFEFEFEF77C6
(1744106972.517285) can0 10003001#AA037800D42CF000
(1744106972.517435) can0 10103001#00000B3C03030100
(1744106972.517577) can0 10103001#0301F0F2F0EC8077
(1744106972.517731) can0 10103001#10B1A13E360F0F0F
(1744106972.517866) can0 10103001#E00F8FF1F026FC26
(1744106972.518069) can0 10103001#FC4FFC21FC23FC22
(1744106972.518153) can0 10103001#FC23FC39FC23FC23
(1744106972.518308) can0 10103001#FC22FC23FC20FC21
(1744106972.518443) can0 10103001#FC21FCF0F026FC4F
(1744106972.518592) can0 10103001#FC20FCF0F2E3E2E4
(1744106972.518734) can0 10103001#E4C6B06CF0F09E64
(1744106972.518868) can0 10103001#F0F058D9F0F0F0F0
(1744106972.519069) can0 10103001#F00D0F0F0FF0F0F2
(1744106972.519157) can0 10103001#F0D0F0F0F0F0F0F0
(1744106972.519293) can0 10103001#F0F0F0F07DF1F1F1
(1744106972.519447) can0 10103001#F0F0F0F0E3E2F0F0
(1744106972.519581) can0 10103001#F0F0E3E2F0F0F0F0
(1744106972.519685) can0 10203001#F0F02EB1
(1744106972.587072) can0 10003001#AA030100CB2CF100
(1744106972.587187) can0 10103001#00000B3C03000100
(1744106972.587309) can0 10203001#0304F0F0EA
(1744106972.611438) can0 10603001#5A45354830363031
(1744106972.616740) can0 10003001#AA030100CB2CF200
(1744106972.616887) can0 10103001#00000B3C03080100
(1744106972.617009) can0 10203001#0150F2EAA0
(1744106972.617145) can0 10003001#AA037E00AA2CF300
(1744106972.617300) can0 10103001#00000B3C03210100
(1744106972.617441) can0 10103001#031ABEC2C3C1A9C0
(1744106972.617575) can0 10103001#B1C7A9B6C6BBC3C5
(1744106972.617729) can0 10103001#C3C2F3F3F3F37EF2
(1744106972.617864) can0 10103001#F2F235F3F3F3F2F3
(1744106972.618073) can0 10103001#F3F3F3F3F3F3F2EF
(1744106972.618151) can0 10103001#F93EF3F3350C0C0C
(1744106972.618299) can0 10103001#E1F3F3B36FF3F39D
(1744106972.618441) can0 10103001#67F3F35BDAF3F3F3
(1744106972.618576) can0 10103001#F3F3F325FFF3F34C
(1744106972.618730) can0 10103001#FFF3F3E0E1E7E7F3
(1744106972.618872) can0 10103001#F3F3F3F30E0C0C0C
(1744106972.619014) can0 10103001#A7FBF3F3F397F3F3
(1744106972.619156) can0 10103001#F3F3F3F3F3F3F3F3
(1744106972.619310) can0 10103001#DFF2F3F3F3F3F3F3
(1744106972.619446) can0 10103001#F3F3F3F3F3F3F3F3
(1744106972.619594) can0 10103001#F3F3F3F3F3F3F3F3
(1744106972.619684) can0 10203001#9C77
(1744106972.619838) can0 10003001#AA037E00AA2CF400
(1744106972.619964) can0 10103001#00000B3C03030100
(1744106972.620130) can0 10103001#031AB9C5C4C6AEC7
(1744106972.620265) can0 10103001#B6C0AEB1C1BCC4C2
(1744106972.620400) can0 10103001#C4C5F4F4F4F479F5
(1744106972.620534) can0 10103001#F5F532F4F4F4F5F4
(1744106972.620689) can0 10103001#F4F4F4F4F4F4F5E8
(1744106972.620824) can0 10103001#FE39F4F4320B0B0B
(1744106972.620958) can0 10103001#E6F4F4B468F4F49A
(1744106972.621098) can0 10103001#60F4F45CDDF4F4F4
(1744106972.621239) can0 10103001#F4F4F422F8F4F44B
(1744106972.621393) can0 10103001#F8F4F4E7E6E0E0F4
(1744106972.621528) can0 10103001#F4F4F4F4090B0B0B
(1744106972.621662) can0 10103001#A0FCF4F4F490F4F4
(1744106972.621797) can0 10103001#F4F4F4F4F4F4F4F4
(1744106972.621951) can0 10103001#D8F5F4F4F4F4F4F4
(1744106972.622092) can0 10103001#F4F4F4F4F4F4F4F4
(1744106972.622219) can0 10103001#F4F4F4F4F4F4F4F4
(1744106972.622316) can0 10203001#D14A
(1744106972.622451) can0 00430308#07AA020100A02C17
(1744106972.622605) can0 00830308#070000000B3C0308
(1744106972.622739) can0 00C30308#0501501795090000
(1744106972.711939) can0 10603001#5A45354830363031
(1744106972.716316) can0 10003001#AA037800D42CF500
(1744106972.716448) can0 10103001#00000B3C03030100
(1744106972.716596) can0 10103001#0301F5F7F5E99E72
(1744106972.716737) can0 10103001#15B4A43B520A0A0A
(1744106972.716878) can0 10103001#E50A8AF4F520F923
(1744106972.717077) can0 10103001#F94BF924F926F924
(1744106972.717158) can0 10103001#F926F932F926F926
(1744106972.717319) can0 10103001#F927F926F924F924
(1744106972.717454) can0 10103001#F924F9F5F523F94B
(1744106972.717589) can0 10103001#F925F9F4F7E6E7E1
(1744106972.717743) can0 10103001#E1C3B569F5F59B61
(1744106972.717878) can0 10103001#F5F55DDCF5F5F5F5
(1744106972.718013) can0 10103001#F5090A0A0AF5F5F7
(1744106972.718173) can0 10103001#F5D5F5F5F5F5F5F5
(1744106972.718299) can0 10103001#F5F5F5F578F4F4F4
(1744106972.718446) can0 10103001#F5F5F5F5E6E7F5F5
(1744106972.718593) can0 10103001#F5F5E6E7F5F5F5F5
(1744106972.718696) can0 10203001#F5F5BC44
(1744106972.786081) can0 10003001#AA030100CB2CF600
(1744106972.786183) can0 10103001#00000B3C03000100
(1744106972.786306) can0 10203001#0304F7BA6F
