(1743787520.466465) can0 00461403#07AA021700892CBF
(1743787520.466611) can0 00861403#07971900014B1403
(1743787520.466759) can0 00C61403#070330BFBCBFBFBF
(1743787520.466916) can0 01061403#07BFBFBFBFBFBFBF
(1743787520.467071) can0 01461403#07BFBFBFBFBFBFBF
(1743787520.467207) can0 01861403#06BFBFBFBF8B06
(1743787520.467362) can0 00461406#07AA021700892CC0
(1743787520.467510) can0 00861406#07971900014B1406
(1743787520.467660) can0 00C61406#070330C0C3C0C0C0
(1743787520.467815) can0 01061406#07C0C0C0C0C0C0C0
(1743787520.467972) can0 01461406#07C0C0C0C0C0C0C0
(1743787520.468108) can0 01861406#06C0C0C0C07B8B
(1743787520.468259) can0 10014001#AA031700E22C8EE5
(1743787520.468415) can0 10114001#0300014B14060101
(1743787520.468551) can0 10114001#03308E8D8E8E8E8E
(1743787520.468705) can0 10114001#8E8E8E8E8E8E8E8E
(1743787520.468902) can0 10114001#8E8E8E8E8E8E8E8E
(1743787520.468974) can0 10214001#8E95E0
(1743787520.477903) can0 10614001#1AB14E49F769B095
(1743787520.540003) can0 00431403#07AA020100A02CC1
(1743787520.540151) can0 00831403#07971900014B1403
(1743787520.540287) can0 00C31403#050150C1644B
(1743787520.540454) can0 00431406#07AA020100A02CC2
(1743787520.540609) can0 00831406#07971900014B1406
(1743787520.540744) can0 00C31406#050150C22BC2
(1743787520.578554) can0 10614001#1AB14E49F769B095
(1743787520.586797) can0 00431406#07AA0202009F2CC3
(1743787520.586958) can0 00831406#07971900014B1406
(1743787520.587113) can0 00C31406#060310C1C7411C
(1743787520.637050) can0 00441406#07AA020500F42CC4
(1743787520.637198) can0 00841406#07971900014B1406
(1743787520.637353) can0 00C41406#070313C4C4C4C4C4
(1743787520.637471) can0 01041406#022B57
(1743787520.650140) can0 00431403#07AA020100A02CC5
(1743787520.650307) can0 00831403#07971900014B1403
(1743787520.650424) can0 00C31403#050150C570B8
(1743787520.650591) can0 00431406#07AA020100A02CC6
(1743787520.650746) can0 00831406#07971900014B1406
(1743787520.650909) can0 00C31406#050150C63F31
(1743787520.656851) can0 00451406#07AA020C00492CC7
(1743787520.657012) can0 00851406#07971900014B1406
(1743787520.657160) can0 00C51406#070323D7E0C7C7C7
(1743787520.657296) can0 01051406#07A3C7C6C6C7C7C7
(1743787520.657418) can0 01451406#0227A0
(1743787520.679995) can0 10614001#1AB14E49F769B095
(1743787520.726489) can0 00461403#07AA021700892CC8
(1743787520.726656) can0 00861403#07971900014B1403
(1743787520.726799) can0 00C61403#070330C8CBC8C8C8
(1743787520.726951) can0 01061403#07C8C8C8C8C8C8C8
(1743787520.727106) can0 01461403#07C8C8C8C8C8C8C8
(1743787520.727242) can0 01861403#06C8C8C8C8BFD6
(1743787520.727397) can0 00461406#07AA021700892CC9
(1743787520.727545) can0 00861406#07971900014B1406
(1743787520.727700) can0 00C61406#070330C9CAC9C9C9
(1743787520.727848) can0 01061406#07C9C9C9C9C9C9C9
(1743787520.727989) can0 01461406#07C9C9C9C9C9C9C9
(1743787520.728139) can0 01861406#06C9C9C9C918DD
(1743787520.728294) can0 10014001#AA031700E22C8FE5
(1743787520.728449) can0 10114001#0300014B14060101
(1743787520.728604) can0 10114001#03308F8C8F8F8F8F
(1743787520.728747) can0 10114001#8F8F8F8F8F8F8F8F
(1743787520.728912) can0 10114001#8F8F8F8F8F8F8F8F
(1743787520.728996) can0 10214001#8F6E2B
(1743787520.729247) can0 004D1403#07AA024500AF2DCA
(1743787520.729402) can0 008D1403#07971900014B1403
(1743787520.729551) can0 00CD1403#07032FCB8FCA829D
(1743787520.729706) can0 010D1403#07FFFB908182FE99
(1743787520.729913) can0 014D1403#078CFF9AFAF8FCF9
(1743787520.730009) can0 018D1403#0781CACBCACBCDC9
(1743787520.730164) can0 01CD1403#07CACFC8CBCACFCA
(1743787520.730299) can0 020D1403#07CACACACACAC9CA
(1743787520.730454) can0 024D1403#07CA2EC6CA353535
(1743787520.730597) can0 028D1403#07C5D0CACACACA92
(1743787520.730759) can0 02CD1403#07C8CACACACACACA
(1743787520.730912) can0 030D1403#07CACACACACACACA
(1743787520.731016) can0 034D1403#03CAD770
(1743787520.731151) can0 004D1406#07AA024500AF2DCB
(1743787520.731306) can0 008D1406#07971900014B1406
(1743787520.731461) can0 00CD1406#07032FCA8ECB839C
(1743787520.731597) can0 010D1406#07FEFA918083FF98
(1743787520.731747) can0 014D1406#078DFE9BFBF9FDF8
(1743787520.731912) can0 018D1406#0780CBCACBCACCC8
(1743787520.732041) can0 01CD1406#07CBCEC9CACBCECB
(1743787520.732190) can0 020D1406#07CBCBCBCBCBC8CB
(1743787520.732341) can0 024D1406#07CB2FC7CB343434
(1743787520.732496) can0 028D1406#07C4D1CBCBCBCB93
(1743787520.732651) can0 02CD1406#07C9CBCBCBCBCBCB
(1743787520.732800) can0 030D1406#07CBCBCBCBCBCBCB
(1743787520.732913) can0 034D1406#03CB98AF
(1743787520.733061) can0 10014001#AA034500C42D90E5
(1743787520.733197) can0 10114001#0300014B14030101
(1743787520.733352) can0 10114001#032F91D590D8C7A5
(1743787520.733501) can0 10114001#A1CADBD8A4C3D6A5
(1743787520.733656) can0 10114001#C0A0A2A6A3DB9091
(1743787520.733811) can0 10114001#9091979390959291
(1743787520.733951) can0 10114001#9095909090909090
(1743787520.734100) can0 10114001#939090749C906F6F
(1743787520.734256) can0 10114001#6F9F8A90909090C8
(1743787520.734411) can0 10114001#9290909090909090
(1743787520.734547) can0 10114001#909090909090905C
(1743787520.734650) can0 10214001#D8
(1743787520.753599) can0 00431403#07AA020100A02CCC
(1743787520.753766) can0 00831403#07971900014B1403
(1743787520.753913) can0 00C31403#050150CC9E22
(1743787520.754047) can0 00431406#07AA020100A02CCD
(1743787520.754209) can0 00831406#07971900014B1406
(1743787520.754344) can0 00C31406#050150CD5BD2
(1743787520.780606) can0 10614001#1AB14E49F769B095
(1743787520.864490) can0 00431403#07AA020100A02CCE
(1743787520.864645) can0 00831403#07971900014B1403
(1743787520.864781) can0 00C31403#050150CE145B
(1743787520.864956) can0 00431406#07AA020100A02CCF
(1743787520.865091) can0 00831406#07971900014B1406
(1743787520.865227) can0 00C31406#050150CFD1AB
(1743787520.881591) can0 10614001#1AB14E49F769B095
(1743787520.887951) can0 00431406#07AA0202009F2CD0
(1743787520.888100) can0 00831406#07971900014B1406
(1743787520.888242) can0 00C31406#060310D2D4C81A
(1743787520.888410) can0 00441406#07AA020500F42CD1
(1743787520.888545) can0 00841406#07971900014B1406
(1743787520.888695) can0 00C41406#070313D1D1D1D1D1
(1743787520.888818) can0 01041406#02290C
(1743787520.927921) can0 00431406#07AA020100A02CD2
(1743787520.928055) can0 00831406#07971900014B1406
(1743787520.928191) can0 00C31406#050327D3393E
(1743787520.965992) can0 00431403#07AA020100A02CD3
(1743787520.966160) can0 00831403#07971900014B1403
(1743787520.966276) can0 00C31403#050150D3BB3E
(1743787520.966441) can0 00431406#07AA020100A02CD4
(1743787520.966596) can0 00831406#07971900014B1406
(1743787520.966732) can0 00C31406#050150D4E044
(1743787520.977742) can0 00461403#07AA021700892CD5
(1743787520.977922) can0 00861403#07971900014B1403
(1743787520.978051) can0 00C61403#070330D5D6D5D5D5
(1743787520.978200) can0 01061403#07D5D5D5D5D5D5D5
(1743787520.978335) can0 01461403#07D5D5D5D5D5D5D5
(1743787520.978490) can0 01861403#06D5D5D5D58015
(1743787520.978645) can0 00461406#07AA021700892CD6
(1743787520.978794) can0 00861406#07971900014B1406
(1743787520.978954) can0 00C61406#070330D6D5D6D6D6
(1743787520.979080) can0 01061406#07D6D6D6D6D6D6D6
(1743787520.979242) can0 01461406#07D6D6D6D6D6D6D6
(1743787520.979378) can0 01861406#06D6D6D6D650C9
(1743787520.979545) can0 10014001#AA031700E22C91E5
(1743787520.979695) can0 10114001#0300014B14060101
(1743787520.979831) can0 10114001#0330919291919191
(1743787520.979992) can0 10114001#9191919191919191
(1743787520.980141) can0 10114001#9191919191919191
(1743787520.980244) can0 10214001#9102F3
(1743787520.983441) can0 10614001#1AB14E49F769B095
(1743787521.076491) can0 00431403#07AA020100A02CD7
(1743787521.076657) can0 00831403#07971900014B1403
(1743787521.076776) can0 00C31403#050150D7AFCD
(1743787521.076951) can0 00431406#07AA020100A02CD8
(1743787521.077100) can0 00831406#07971900014B1406
(1743787521.077223) can0 00C31406#050150D8DF11
(1743787521.083638) can0 10614001#1AB14E49F769B095
(1743787521.148486) can0 00441406#07AA020500F42CD9
(1743787521.148653) can0 00841406#07971900014B1406
(1743787521.148801) can0 00C41406#070313D9D9D9D9D9
(1743787521.148928) can0 01041406#02456F
(1743787521.157980) can0 00451406#07AA020C00492CDA
(1743787521.158154) can0 00851406#07971900014B1406
(1743787521.158302) can0 00C51406#070323CAFDDADADA
(1743787521.158437) can0 01051406#07BEDADBDBDADADA
(1743787521.158560) can0 01451406#02D163
(1743787521.177187) can0 00431403#07AA020100A02CDB
(1743787521.177353) can0 00831403#07971900014B1403
(1743787521.177473) can0 00C31403#050150DB9098
(1743787521.177641) can0 00431406#07AA020100A02CDC
(1743787521.177796) can0 00831406#07971900014B1406
(1743787521.177930) can0 00C31406#050150DCCBE2
(1743787521.185033) can0 10614001#1AB14E49F769B095
(1743787521.189385) can0 00431406#07AA0202009F2CDD
(1743787521.189540) can0 00831406#07971900014B1406
(1743787521.189675) can0 00C31406#060310DFD9E09C
(1743787521.229690) can0 00461403#07AA021700892CDE
(1743787521.229845) can0 00861403#07971900014B1403
(1743787521.229983) can0 00C61403#070330DEDDDEDEDE
(1743787521.230138) can0 01061403#07DEDEDEDEDEDEDE
(1743787521.230292) can0 01461403#07DEDEDEDEDEDEDE
(1743787521.230428) can0 01861403#06DEDEDEDE9494
(1743787521.230596) can0 00461406#07AA021700892CDF
(1743787521.230744) can0 00861406#07971900014B1406
(1743787521.230932) can0 00C61406#070330DFDCDFDFDF
(1743787521.231055) can0 01061406#07DFDFDFDFDFDFDF
(1743787521.231204) can0 01461406#07DFDFDFDFDFDFDF
(1743787521.231339) can0 01861406#06DFDFDFDF339F
(1743787521.231494) can0 10014001#AA031700E22C92E5
(1743787521.231648) can0 10114001#0300014B14060101
(1743787521.231797) can0 10114001#0330929192929292
(1743787521.231940) can0 10114001#9292929292929292
(1743787521.232095) can0 10114001#9292929292929292
(1743787521.232199) can0 10214001#920CEF
(1743787521.232347) can0 004D1403#07AA024500AF2DE0
(1743787521.232502) can0 008D1403#07971900014B1403
(1743787521.232638) can0 00CD1403#07032FE1A5E0A8B7
(1743787521.232793) can0 010D1403#07D5D1BAABA8D4B3
(1743787521.232951) can0 014D1403#07A6D5B0D0D2D6D3
(1743787521.233093) can0 018D1403#07ABE0E1E0E1E7E3
(1743787521.233235) can0 01CD1403#07E0E5E2E1E0E5E0
(1743787521.233403) can0 020D1403#07E0E0E0E0E0E3E0
(1743787521.233558) can0 024D1403#07E004ECE01F1F1F
(1743787521.233693) can0 028D1403#07EFFAE0E0E0E0B8
(1743787521.233849) can0 02CD1403#07E2E0E0E0E0E0E0
(1743787521.234003) can0 030D1403#07E0E0E0E0E0E0E0
(1743787521.234106) can0 034D1403#03E0E425
(1743787521.234293) can0 004D1406#07AA024500AF2DE1
(1743787521.234441) can0 008D1406#07971900014B1406
(1743787521.234596) can0 00CD1406#07032FE0A4E1A9B6
(1743787521.234751) can0 010D1406#07D4D0BBAAA9D5B2
(1743787521.234932) can0 014D1406#07A7D4B1D1D3D7D2
(1743787521.235041) can0 018D1406#07AAE1E0E1E0E6E2
(1743787521.235189) can0 01CD1406#07E1E4E3E0E1E4E1
(1743787521.235344) can0 020D1406#07E1E1E1E1E1E2E1
(1743787521.235494) can0 024D1406#07E105EDE11E1E1E
(1743787521.235649) can0 028D1406#07EEFBE1E1E1E1B9
(1743787521.235804) can0 02CD1406#07E3E1E1E1E1E1E1
(1743787521.235957) can0 030D1406#07E1E1E1E1E1E1E1
(1743787521.236061) can0 034D1406#03E1ABFA
(1743787521.236248) can0 10014001#AA034500C42D93E5
(1743787521.236396) can0 10114001#0300014B14030101
(1743787521.236538) can0 10114001#032F92D693DBC4A6
(1743787521.236688) can0 10114001#A2C9D8DBA7C0D5A6
(1743787521.236843) can0 10114001#C3A3A1A5A0D89392
(1743787521.236996) can0 10114001#9392949093969192
(1743787521.237131) can0 10114001#9396939393939393
(1743787521.237282) can0 10114001#909393779F936C6C
(1743787521.237438) can0 10114001#6C9C8993939393CB
(1743787521.237592) can0 10114001#9193939393939393
(1743787521.237741) can0 10114001#9393939393939303
(1743787521.237832) can0 10214001#C0
(1743787521.279683) can0 00431403#07AA020100A02CE2
(1743787521.279850) can0 00831403#07971900014B1403
(1743787521.279972) can0 00C31403#050150E28116
(1743787521.280282) can0 00431406#07AA020100A02CE3
(1743787521.280443) can0 00831406#07971900014B1406
(1743787521.280579) can0 00C31406#050150E344E6
(1743787521.285934) can0 10614001#1AB14E49F769B095
(1743787521.319028) can0 10014001#AA13BD01DD2DAF3E
(1743787521.319202) can0 10114001#0000024B35010101
(1743787521.319338) can0 10114001#1401A7AFBFAFB7AF
(1743787521.319506) can0 10114001#8FAF87AF9FAF97EF
(1743787521.319642) can0 10114001#EFAFE7AFFFAFF7AB
(1743787521.319797) can0 10114001#CFABC7AEDFACD7A9
(1743787521.319948) can0 10114001#2FAE49AD27AE25B3
(1743787521.320103) can0 10114001#3FAEAC37AEC10FAE
(1743787521.320237) can0 10114001#7BAD07AE72AD1FAE
(1743787521.320392) can0 10114001#33B417AEAC6FAED7
(1743787521.320541) can0 10114001#67AE65AD7FAEA977
(1743787521.320695) can0 10114001#AE52AC4FAEAF47AE
(1743787521.320846) can0 10114001#AF5FAEAF57AEAF2F
(1743787521.320987) can0 10114001#ADAF27AD33B03FAD
(1743787521.321141) can0 10114001#7BAD37ADAF0FAD39
(1743787521.321296) can0 10114001#BC07AD55AD1FAD49
(1743787521.321444) can0 10114001#AE17ADAF6FAD5CAC
(1743787521.321599) can0 10114001#7FADAF77ADBE4FAD
(1743787521.321735) can0 10114001#AF47ADAF5FAD6D21
(1743787521.321935) can0 10114001#AE57ADAF2FAC6F91
(1743787521.322039) can0 10114001#27ACAF3FACAF37AC
(1743787521.322194) can0 10114001#AF0FACCB07ACAE1F
(1743787521.322342) can0 10114001#ACAF17ACAF6FAC1D
(1743787521.322497) can0 10114001#AD67ACA07FAC6F91
(1743787521.322647) can0 10114001#77AC40814FAC4081
(1743787521.322803) can0 10114001#47ACAF5FAC49AE57
(1743787521.322935) can0 10114001#AC75932FABAF27AB
(1743787521.323096) can0 10114001#AF3FAB6F9137AB6F
(1743787521.323245) can0 10114001#910FABAA07ABAF1F
(1743787521.323400) can0 10114001#ABAF17ABAF6FABAF
(1743787521.323536) can0 10114001#67ABAF7FABAF77AB
(1743787521.323685) can0 10114001#AF4FABAA47ABA75F
(1743787521.323834) can0 10114001#ABAF57AB6F912FAA
(1743787521.323993) can0 10114001#AF27AAAF3FAA49AE
(1743787521.324148) can0 10114001#37AA005050505050
(1743787521.324303) can0 10114001#505050AE0FAAAE07
(1743787521.324431) can0 10114001#AA21911FAA679F17
(1743787521.324587) can0 10114001#AA5F813FA9679F37
(1743787521.324741) can0 10114001#A96F910FA9AE07A9
(1743787521.324935) can0 10114001#13AC1FA90E704DB4
(1743787521.325045) can0 10114001#17A9AE6FA9775D35
(1743787521.325200) can0 10114001#30AC67A92F18137F
(1743787521.325336) can0 10114001#AE7FA96F7E2D7755
(1743787521.325484) can0 10114001#50505050AE77A9AE
(1743787521.325634) can0 10114001#4FA9AF47A97EAE5F
(1743787521.325795) can0 10114001#A9AF37A8E40FA89A
(1743787521.325949) can0 10114001#6FA86F9167A8AF77
(1743787521.326084) can0 10114001#A85EF64FA8A947A8
(1743787521.326234) can0 10114001#AC5AA8BC60E7E51F
(1743787521.326390) can0 10114001#A78B6FA71F505050
(1743787521.326545) can0 10114001#5050505050AE67A7
(1743787521.326693) can0 10114001#AF77A7AF4FA7AF47
(1743787521.326848) can0 10114001#A725AC5FA7AF57A7
(1743787521.326987) can0 10114001#AE2FA6AF27A6AF3F
(1743787521.327142) can0 10114001#A6AF37A6AF0FA6AF
(1743787521.327296) can0 10114001#07A6AF1FA6AF6FA6
(1743787521.327446) can0 10114001#A567A62F036F10A9
(1743787521.327601) can0 10114001#7FA6AF77A63FB3F6
(1743787521.327686) can0 10214001#CA
(1743787521.385126) can0 00431403#07AA020100A02CE4
(1743787521.385284) can0 00831403#07971900014B1403
(1743787521.385420) can0 00C31403#050150E41F9C
(1743787521.385594) can0 00431406#07AA020100A02CE5
(1743787521.385742) can0 00831406#07971900014B1406
(1743787521.385865) can0 00C31406#050150E5DA6C
(1743787521.387091) can0 10614001#1AB14E49F769B095
(1743787521.404330) can0 00441406#07AA020500F42CE6
(1743787521.404484) can0 00841406#07971900014B1406
(1743787521.404633) can0 00C41406#070313E6E6E6E6E6
(1743787521.404737) can0 01041406#024382
(1743787521.434779) can0 00431406#07AA020100A02CE7
(1743787521.434939) can0 00831406#07971900014B1406
(1743787521.435073) can0 00C31406#050327E617E5
(1743787521.438683) can0 10014001#AA030000DE2D94E5
(1743787521.438837) can0 10114001#0300014B14030100
(1743787521.438959) can0 10214001#01057A06
(1743787521.484473) can0 00461403#07AA021700892CE8
(1743787521.484647) can0 00861403#07971900014B1403
(1743787521.484796) can0 00C61403#070330E8EBE8E8E8
(1743787521.484941) can0 01061403#07E8E8E8E8E8E8E8
(1743787521.485084) can0 01461403#07E8E8E8E8E8E8E8
(1743787521.485225) can0 01861403#06E8E8E8E8DD21
(1743787521.485393) can0 00461406#07AA021700892CE9
(1743787521.485548) can0 00861406#07971900014B1406
(1743787521.485676) can0 00C61406#070330E9EAE9E9E9
(1743787521.485838) can0 01061406#07E9E9E9E9E9E9E9
(1743787521.485993) can0 01461406#07E9E9E9E9E9E9E9
(1743787521.486129) can0 01861406#06E9E9E9E97A2A
(1743787521.486283) can0 10014001#AA031700E22C95E5
(1743787521.486432) can0 10114001#0300014B14060101
(1743787521.486587) can0 10114001#0330959695959595
(1743787521.486742) can0 10114001#9595959595959595
(1743787521.486941) can0 10114001#9595959595959595
(1743787521.486993) can0 10214001#95EB1C
(1743787521.487148) can0 00431403#07AA020100A02CEA
(1743787521.487284) can0 00831403#07971900014B1403
(1743787521.487418) can0 00C31403#050150EAAAB0
(1743787521.487593) can0 00431406#07AA020100A02CEB
(1743787521.487728) can0 00831406#07971900014B1406
(1743787521.487864) can0 00C31406#050150EB6F40
(1743787521.488942) can0 10614001#1AB14E49F769B095
(1743787521.495077) can0 00431406#07AA0202009F2CEC
(1743787521.495244) can0 00831406#07971900014B1406
(1743787521.495379) can0 00C31406#060310EEE8895B
(1743787521.590031) can0 10614001#1AB14E49F769B095
(1743787521.596324) can0 00431403#07AA020100A02CED
(1743787521.596478) can0 00831403#07971900014B1403
(1743787521.596614) can0 00C31403#050150EDF106
(1743787521.596781) can0 00431406#07AA020100A02CEE
(1743787521.596946) can0 00831406#07971900014B1406
(1743787521.597056) can0 00C31406#050150EEBE8F
(1743787521.656134) can0 00441406#07AA020500F42CEF
(1743787521.656282) can0 00841406#07971900014B1406
(1743787521.656437) can0 00C41406#070313EFEFEFEFEF
(1743787521.656541) can0 01041406#02434D
(1743787521.665628) can0 00451406#07AA020C00492CF0
(1743787521.665777) can0 00851406#07971900014B1406
(1743787521.665949) can0 00C51406#070323E0D7F0F0F0
(1743787521.666091) can0 01051406#0794F0F1F1F0F0F0
(1743787521.666194) can0 01451406#02AC54
(1743787521.690668) can0 10614001#1AB14E49F769B095
(1743787521.698129) can0 00431403#07AA020100A02CF1
(1743787521.698284) can0 00831403#07971900014B1403
(1743787521.698420) can0 00C31403#050150F19B5F
(1743787521.698587) can0 00431406#07AA020100A02CF2
(1743787521.698742) can0 00831406#07971900014B1406
(1743787521.698859) can0 00C31406#050150F2D4D6
(1743787521.735952) can0 00461403#07AA021700892CF3
(1743787521.736070) can0 00861403#07971900014B1403
(1743787521.736232) can0 00C61403#070330F3F0F3F3F3
(1743787521.736400) can0 01061403#07F3F3F3F3F3F3F3
(1743787521.736549) can0 01461403#07F3F3F3F3F3F3F3
(1743787521.736685) can0 01861403#06F3F3F3F378DB
(1743787521.736822) can0 00461406#07AA021700892CF4
(1743787521.736996) can0 00861406#07971900014B1406
(1743787521.737132) can0 00C61406#070330F4F7F4F4F4
(1743787521.737287) can0 01061406#07F4F4F4F4F4F4F4
(1743787521.737435) can0 01461406#07F4F4F4F4F4F4F4
(1743787521.737571) can0 01861406#06F4F4F4F445E9
(1743787521.737745) can0 10014001#AA031700E22C96E5
(1743787521.737888) can0 10114001#0300014B14060101
(1743787521.738035) can0 10114001#0330969596969696
(1743787521.738189) can0 10114001#9696969696969696
(1743787521.738325) can0 10114001#9696969696969696
(1743787521.738437) can0 10214001#96E500
(1743787521.738579) can0 004D1403#07AA024500AF2DF5
(1743787521.738734) can0 008D1403#07971900014B1403
(1743787521.738883) can0 00CD1403#07032FF4B0F5BDA2
(1743787521.739028) can0 010D1403#07C0C4AFBEBDC1A6
(1743787521.739177) can0 014D1403#07B3C0A5C5C7C3C6
(1743787521.739331) can0 018D1403#07BEF5F4F5F4F2F6
(1743787521.739487) can0 01CD1403#07F5F0F7F4F5F0F5
(1743787521.739629) can0 020D1403#07F5F5F5F5F5F6F5
(1743787521.739790) can0 024D1403#07F511F9F50A0A0A
(1743787521.739951) can0 028D1403#07FAEFF5F5F5F5AD
(1743787521.740100) can0 02CD1403#07F7F5F5F5F5F5F5
(1743787521.740228) can0 030D1403#07F5F5F5F5F5F5F5
(1743787521.740358) can0 034D1403#03F57CAF
(1743787521.740539) can0 004D1406#07AA024500AF2DF6
(1743787521.740674) can0 008D1406#07971900014B1406
(1743787521.740829) can0 00CD1406#07032FF7B3F6BEA1
(1743787521.740983) can0 010D1406#07C3C7ACBDBEC2A5
(1743787521.741138) can0 014D1406#07B0C3A6C6C4C0C5
(1743787521.741293) can0 018D1406#07BDF6F7F6F7F1F5
(1743787521.741436) can0 01CD1406#07F6F3F4F7F6F3F6
(1743787521.741578) can0 020D1406#07F6F6F6F6F6F5F6
(1743787521.741734) can0 024D1406#07F612FAF6090909
(1743787521.741882) can0 028D1406#07F9ECF6F6F6F6AE
(1743787521.742022) can0 02CD1406#07F4F6F6F6F6F6F6
(1743787521.742177) can0 030D1406#07F6F6F6F6F6F6F6
(1743787521.742300) can0 034D1406#03F63031
(1743787521.742481) can0 10014001#AA034500C42D97E5
(1743787521.742636) can0 10114001#0300014B14030101
(1743787521.742790) can0 10114001#032F96D297DFC0A2
(1743787521.742951) can0 10114001#A6CDDCDFA3C4D1A2
(1743787521.743081) can0 10114001#C7A7A5A1A4DC9796
(1743787521.743230) can0 10114001#9796909497929596
(1743787521.743386) can0 10114001#9792979797979797
(1743787521.743534) can0 10114001#949797739B976868
(1743787521.743676) can0 10114001#68988D97979797CF
(1743787521.743819) can0 10114001#9597979797979797
(1743787521.743983) can0 10114001#97979797979797D6
(1743787521.744068) can0 10214001#20
(1743787521.791955) can0 10614001#1AB14E49F769B095
(1743787521.796274) can0 00431406#07AA0202009F2CF7
(1743787521.796429) can0 00831406#07971900014B1406
(1743787521.796565) can0 00C31406#060310F5F3E784
(1743787521.802678) can0 00431403#07AA020100A02CF8
(1743787521.802827) can0 00831403#07971900014B1403
(1743787521.802973) can0 00C31403#050150F875C5
(1743787521.803128) can0 00431406#07AA020100A02CF9
(1743787521.803277) can0 00831406#07971900014B1406
(1743787521.803411) can0 00C31406#050150F9B035
(1743787521.893368) can0 10614001#1AB14E49F769B095
(1743787521.906631) can0 00441406#07AA020500F42CFA
(1743787521.906779) can0 00841406#07971900014B1406
(1743787521.906958) can0 00C41406#070313FAFAFAFAFA
(1743787521.907042) can0 01041406#024116
(1743787521.913573) can0 00431403#07AA020100A02CFB
(1743787521.913728) can0 00831403#07971900014B1403
(1743787521.913864) can0 00C31403#050150FB3A80
(1743787521.914023) can0 00431406#07AA020100A02CFC
(1743787521.914171) can0 00831406#07971900014B1406
(1743787521.914306) can0 00C31406#050150FC61FA
(1743787521.937421) can0 00431406#07AA020100A02CFD
(1743787521.937568) can0 00831406#07971900014B1406
(1743787521.937704) can0 00C31406#050327FCE336
(1743787521.986762) can0 00461403#07AA021700892CFE
(1743787521.986961) can0 00861403#07971900014B1403
(1743787521.987071) can0 00C61403#070330FEFDFEFEFE
(1743787521.987220) can0 01061403#07FEFEFEFEFEFEFE
(1743787521.987371) can0 01461403#07FEFEFEFEFEFEFE
(1743787521.987526) can0 01861403#06FEFEFEFEF663
(1743787521.987662) can0 00461406#07AA021700892CFF
(1743787521.987817) can0 00861406#07971900014B1406
(1743787521.987985) can0 00C61406#070330FFFCFFFFFF
(1743787521.988141) can0 01061406#07FFFFFFFFFFFFFF
(1743787521.988296) can0 01461406#07FFFFFFFFFFFFFF
(1743787521.988477) can0 01861406#06FFFFFFFF5168
(1743787521.988632) can0 10014001#AA031700E22C98E5
(1743787521.988787) can0 10114001#0300014B14060101
(1743787521.988961) can0 10114001#0330989B98989898
(1743787521.989077) can0 10114001#9898989898989898
(1743787521.989227) can0 10114001#9898989898989898
(1743787521.989331) can0 10214001#9828A7
(1743787521.994717) can0 10614001#1AB14E49F769B095
(1743787522.014820) can0 00431403#07AA020100A02C00
(1743787522.014970) can0 00831403#07981900014B1403
(1743787522.015113) can0 00C31403#050150006D14
(1743787522.015280) can0 00431406#07AA020100A02C01
(1743787522.015435) can0 00831406#07981900014B1406
(1743787522.015551) can0 00C31406#05015001A8E4
(1743787522.096266) can0 10614001#1AB14E49F769B095
(1743787522.097669) can0 00431406#07AA0202009F2C02
(1743787522.097818) can0 00831406#07981900014B1406
(1743787522.097973) can0 00C31406#06031000061F8A
(1743787522.125472) can0 00431403#07AA020100A02C03
(1743787522.125626) can0 00831403#07981900014B1403
(1743787522.125762) can0 00C31403#050150032251
(1743787522.125966) can0 00431406#07AA020100A02C04
(1743787522.126083) can0 00831406#07981900014B1406
(1743787522.126205) can0 00C31406#05015004792B
(1743787522.167129) can0 00451406#07AA020C00492C05
(1743787522.167283) can0 00851406#07981900014B1406
(1743787522.167418) can0 00C51406#0703231522050505
(1743787522.167573) can0 01051406#0761050404050505
(1743787522.167676) can0 01451406#021CB7
(1743787522.167826) can0 00441406#07AA020500F42C06
(1743787522.167987) can0 00841406#07981900014B1406
(1743787522.168122) can0 00C41406#0703130606060606
(1743787522.168226) can0 01041406#02536D
(1743787522.196969) can0 10614001#1AB14E49F769B095
(1743787522.225873) can0 00431403#07AA020100A02C07
(1743787522.226015) can0 00831403#07981900014B1403
(1743787522.226150) can0 00C31403#0501500736A2
(1743787522.226318) can0 00431406#07AA020100A02C08
(1743787522.226473) can0 00831406#07981900014B1406
(1743787522.226609) can0 00C31406#05015008467E
(1743787522.247458) can0 00461403#07AA021700892C09
(1743787522.247607) can0 00861403#07981900014B1403
(1743787522.247762) can0 00C61403#070330090A090909
(1743787522.247971) can0 01061403#0709090909090909
(1743787522.248068) can0 01461403#0709090909090909
(1743787522.248203) can0 01861403#0609090909494A
(1743787522.248358) can0 00461406#07AA021700892C0A
(1743787522.248513) can0 00861406#07981900014B1406
(1743787522.248661) can0 00C61406#0703300A090A0A0A
(1743787522.248816) can0 01061406#070A0A0A0A0A0A0A
(1743787522.248971) can0 01461406#070A0A0A0A0A0A0A
(1743787522.249107) can0 01861406#060A0A0A0A9996
(1743787522.249261) can0 10014001#AA031700E22C99E5
(1743787522.249411) can0 10114001#0300014B14060101
(1743787522.249566) can0 10114001#0330999A99999999
(1743787522.249702) can0 10114001#9999999999999999
(1743787522.249870) can0 10114001#9999999999999999
(1743787522.249979) can0 10214001#99D36C
(1743787522.250167) can0 004D1403#07AA024500AF2D0B
(1743787522.250321) can0 008D1403#07981900014B1403
(1743787522.250470) can0 00CD1403#07032F0A4E0B435C
(1743787522.250625) can0 010D1403#073E3A5140433F58
(1743787522.250760) can0 014D1403#074D3E5B3B393D38
(1743787522.250909) can0 018D1403#07400B0A0B0A0C08
(1743787522.251067) can0 01CD1403#070B0E090A0B0E0B
(1743787522.251217) can0 020D1403#070B0B0B0B0B080B
(1743787522.251359) can0 024D1403#070BEF070BF4F4F4
(1743787522.251507) can0 028D1403#0704110B0B0B0B53
(1743787522.251662) can0 02CD1403#07090B0B0B0B0B0B
(1743787522.251812) can0 030D1403#070B0B0B0B0B0B0B
(1743787522.251971) can0 034D1403#030B5A07
(1743787522.252075) can0 004D1406#07AA024500AF2D0C
(1743787522.252223) can0 008D1406#07981900014B1406
(1743787522.252378) can0 00CD1406#07032F0D490C445B
(1743787522.252514) can0 010D1406#07393D564744385F
(1743787522.252669) can0 014D1406#074A395C3C3E3A3F
(1743787522.252817) can0 018D1406#07470C0D0C0D0B0F
(1743787522.252971) can0 01CD1406#070C090E0D0C090C
(1743787522.253131) can0 020D1406#070C0C0C0C0C0F0C
(1743787522.253267) can0 024D1406#070CE8000CF3F3F3
(1743787522.253416) can0 028D1406#0703160C0C0C0C54
(1743787522.253566) can0 02CD1406#070E0C0C0C0C0C0C
(1743787522.253722) can0 030D1406#070C0C0C0C0C0C0C
(1743787522.253845) can0 034D1406#030C101B
(1743787522.254017) can0 10014001#AA034500C42D9AE5
(1743787522.254171) can0 10114001#0300014B14030101
(1743787522.254319) can0 10114001#032F9BDF9AD2CDAF
(1743787522.254474) can0 10114001#ABC0D1D2AEC9DCAF
(1743787522.254610) can0 10114001#CAAAA8ACA9D19A9B
(1743787522.254759) can0 10114001#9A9B9D999A9F989B
(1743787522.254971) can0 10114001#9A9F9A9A9A9A9A9A
(1743787522.255069) can0 10114001#999A9A7E969A6565
(1743787522.255217) can0 10114001#6595809A9A9A9AC2
(1743787522.255367) can0 10114001#989A9A9A9A9A9A9A
(1743787522.255522) can0 10114001#9A9A9A9A9A9A9A9E
(1743787522.255613) can0 10214001#89
(1743787522.298408) can0 10614001#1AB14E49F769B095
(1743787522.327109) can0 00431403#07AA020100A02C0D
(1743787522.327276) can0 00831403#07981900014B1403
(1743787522.327393) can0 00C31403#0501500D977D
(1743787522.327567) can0 00431406#07AA020100A02C0E
(1743787522.327709) can0 00831406#07981900014B1406
(1743787522.327851) can0 00C31406#0501500ED8F4
(1743787522.399323) can0 10614001#1AB14E49F769B095
(1743787522.407663) can0 00431406#07AA0202009F2C0F
(1743787522.407806) can0 00831406#07981900014B1406
(1743787522.407977) can0 00C31406#0603100D0B370C
(1743787522.427613) can0 00441406#07AA020500F42C10
(1743787522.427767) can0 00841406#07981900014B1406
(1743787522.427915) can0 00C41406#0703131010101010
(1743787522.428022) can0 01041406#02E682
(1743787522.428261) can0 00431403#07AA020100A02C11
(1743787522.428428) can0 00831403#07981900014B1403
(1743787522.428540) can0 00C31403#05015011FD24
(1743787522.428714) can0 00431406#07AA020100A02C12
(1743787522.428869) can0 00831406#07981900014B1406
(1743787522.429010) can0 00C31406#05015012B2AD
(1743787522.439705) can0 00431403#07AA020000B52D13
(1743787522.439873) can0 00831403#07981900014B1403
(1743787522.439998) can0 00C31403#040105C806
(1743787522.448120) can0 00431406#07AA020100A02C14
(1743787522.448274) can0 00831406#07981900014B1406
(1743787522.448410) can0 00C31406#050327156BD7
(1743787522.498244) can0 00461403#07AA021700892C15
(1743787522.498418) can0 00861403#07981900014B1403
(1743787522.498560) can0 00C61403#0703301516151515
(1743787522.498702) can0 01061403#0715151515151515
(1743787522.498857) can0 01461403#0715151515151515
(1743787522.498993) can0 01861403#0615151515CC42
(1743787522.499160) can0 00461406#07AA021700892C16
(1743787522.499316) can0 00861406#07981900014B1406
(1743787522.499451) can0 00C61406#0703301615161616
(1743787522.499606) can0 01061406#0716161616161616
(1743787522.499761) can0 01461406#0716161616161616
(1743787522.499897) can0 01861406#06161616161C9E
(1743787522.500070) can0 10014001#AA031700E22C9BE5
(1743787522.500206) can0 10114001#0300014B14060101
(1743787522.500356) can0 10114001#03309B989B9B9B9B
(1743787522.500511) can0 10114001#9B9B9B9B9B9B9B9B
(1743787522.500659) can0 10114001#9B9B9B9B9B9B9B9B
(1743787522.500769) can0 10214001#9B26BB
(1743787522.501403) can0 10614001#1AB14E49F769B095
(1743787522.530559) can0 00431403#07AA020100A02C17
(1743787522.530713) can0 00831403#07981900014B1403
(1743787522.530849) can0 00C31403#0501501763AE
(1743787522.531020) can0 00431406#07AA020100A02C18
(1743787522.531169) can0 00831406#07981900014B1406
(1743787522.531311) can0 00C31406#050150181372
(1743787522.602350) can0 10614001#1AB14E49F769B095
(1743787522.641063) can0 00431403#07AA020100A02C19
(1743787522.641218) can0 00831403#07981900014B1403
(1743787522.641341) can0 00C31403#05015019D682
(1743787522.641509) can0 00431406#07AA020100A02C1A
(1743787522.641652) can0 00831406#07981900014B1406
(1743787522.641794) can0 00C31406#0501501A990B
(1743787522.668513) can0 00451406#07AA020C00492C1B
(1743787522.668661) can0 00851406#07981900014B1406
(1743787522.668803) can0 00C51406#0703230B3C1B1B1B
(1743787522.668987) can0 01051406#077F1B1A1A1B1B1B
(1743787522.669059) can0 01451406#02F14D
(1743787522.678808) can0 00441406#07AA020500F42C1C
(1743787522.678988) can0 00841406#07981900014B1406
(1743787522.679116) can0 00C41406#0703131C1C1C1C1C
(1743787522.679220) can0 01041406#023CD0
(1743787522.703751) can0 10614001#1AB14E49F769B095
(1743787522.709142) can0 00431406#07AA0202009F2C1D
(1743787522.709304) can0 00831406#07981900014B1406
(1743787522.709452) can0 00C31406#0603101F198399
(1743787522.749458) can0 00461403#07AA021700892C1E
(1743787522.749612) can0 00861403#07981900014B1403
(1743787522.749761) can0 00C61403#0703301E1D1E1E1E
(1743787522.749916) can0 01061403#071E1E1E1E1E1E1E
(1743787522.750054) can0 01461403#071E1E1E1E1E1E1E
(1743787522.750189) can0 01861403#061E1E1E1ED8C3
(1743787522.750363) can0 00461406#07AA021700892C1F
(1743787522.750511) can0 00861406#07981900014B1406
(1743787522.750666) can0 00C61406#0703301F1C1F1F1F
(1743787522.750817) can0 01061406#071F1F1F1F1F1F1F
(1743787522.750990) can0 01461406#071F1F1F1F1F1F1F
(1743787522.751113) can0 01861406#061F1F1F1F7FC8
(1743787522.751261) can0 10014001#AA031700E22C9CE5
(1743787522.751416) can0 10114001#0300014B14060101
(1743787522.751552) can0 10114001#03309C9F9C9C9C9C
(1743787522.751707) can0 10114001#9C9C9C9C9C9C9C9C
(1743787522.751856) can0 10114001#9C9C9C9C9C9C9C9C
(1743787522.751990) can0 10214001#9CC148
(1743787522.752112) can0 004D1403#07AA024500AF2D20
(1743787522.752267) can0 008D1403#07981900014B1403
(1743787522.752403) can0 00CD1403#07032F2165206877
(1743787522.752553) can0 010D1403#0715117A6B681473
(1743787522.752709) can0 014D1403#0766157010121613
(1743787522.752864) can0 018D1403#076B202120212723
(1743787522.753016) can0 01CD1403#0720252221202520
(1743787522.753171) can0 020D1403#0720202020202320
(1743787522.753307) can0 024D1403#0720C42C20DFDFDF
(1743787522.753462) can0 028D1403#072F3B2020202078
(1743787522.753610) can0 02CD1403#0722202020202020
(1743787522.753760) can0 030D1403#0720202020202020
(1743787522.753870) can0 034D1403#0320F903
(1743787522.754061) can0 004D1406#07AA024500AF2D21
(1743787522.754209) can0 008D1406#07981900014B1406
(1743787522.754360) can0 00CD1406#07032F2064216976
(1743787522.754516) can0 010D1406#0714107B6A691572
(1743787522.754652) can0 014D1406#0767147111131712
(1743787522.754806) can0 018D1406#076A212021202622
(1743787522.754990) can0 01CD1406#0721242320212421
(1743787522.755113) can0 020D1406#0721212121212221
(1743787522.755262) can0 024D1406#0721C52D21DEDEDE
(1743787522.755397) can0 028D1406#072E3A2121212179
(1743787522.755547) can0 02CD1406#0723212121212121
(1743787522.755708) can0 030D1406#0721212121212121
(1743787522.755825) can0 034D1406#0321B6DC
(1743787522.756016) can0 10014001#AA034500C42D9DE5
(1743787522.756166) can0 10114001#0300014B14030101
(1743787522.756321) can0 10114001#032F9CD89DD5CAA8
(1743787522.756457) can0 10114001#ACC7D6D5A9CEDBA8
(1743787522.756612) can0 10114001#CDADAFABAED69D9C
(1743787522.756760) can0 10114001#9D9C9A9E9D989F9C
(1743787522.756915) can0 10114001#9D989D9D9D9D9D9D
(1743787522.757054) can0 10114001#9E9D9D79919D6262
(1743787522.757209) can0 10114001#6292869D9D9D9DC5
(1743787522.757359) can0 10114001#9F9D9D9D9D9D9D9D
(1743787522.757514) can0 10114001#9D9D9D9D9D9D9D04
(1743787522.757598) can0 10214001#A0
(1743787522.757753) can0 00431403#07AA020100A02C22
(1743787522.757905) can0 00831403#07981900014B1403
(1743787522.758048) can0 00C31403#050150224D75
(1743787522.758197) can0 00431406#07AA020100A02C23
(1743787522.758351) can0 00831406#07981900014B1406
(1743787522.758487) can0 00C31406#050150238885
(1743787522.804345) can0 10614001#1AB14E49F769B095
(1743787522.857501) can0 00431403#07AA020100A02C24
(1743787522.857655) can0 00831403#07981900014B1403
(1743787522.857791) can0 00C31403#05015024D3FF
(1743787522.857995) can0 00431406#07AA020100A02C25
(1743787522.858111) can0 00831406#07981900014B1406
(1743787522.858230) can0 00C31406#05015025160F
(1743787522.905696) can0 10614001#1AB14E49F769B095
(1743787522.935664) can0 00441406#07AA020500F42C26
(1743787522.935799) can0 00841406#07981900014B1406
(1743787522.935998) can0 00C41406#0703132626262626
(1743787522.936076) can0 01041406#02E0A0
(1743787522.956543) can0 00431406#07AA020100A02C27
(1743787522.956711) can0 00831406#07981900014B1406
(1743787522.956845) can0 00C31406#05032726DB86
(1743787522.968486) can0 00431403#07AA020100A02C28
(1743787522.968659) can0 00831403#07981900014B1403
(1743787522.968795) can0 00C31403#05015028ECAA
(1743787522.968999) can0 00431406#07AA020100A02C29
(1743787522.969096) can0 00831406#07981900014B1406
(1743787522.969238) can0 00C31406#05015029295A
(1743787523.006443) can0 00461403#07AA021700892C2A
(1743787523.006610) can0 00861403#07981900014B1403
(1743787523.006746) can0 00C61403#0703302A292A2A2A
(1743787523.006900) can0 01061403#072A2A2A2A2A2A2A
(1743787523.007039) can0 01461403#072A2A2A2A2A2A2A
(1743787523.007188) can0 01861403#062A2A2A2AE6A1
(1743787523.007343) can0 00461406#07AA021700892C2B
(1743787523.007498) can0 00861406#07981900014B1406
(1743787523.007653) can0 00C61406#0703302B282B2B2B
(1743787523.007795) can0 01061406#072B2B2B2B2B2B2B
(1743787523.008000) can0 01461406#072B2B2B2B2B2B2B
(1743787523.008091) can0 01861406#062B2B2B2B41AA
(1743787523.008246) can0 10014001#AA031700E22C9EE5
(1743787523.008394) can0 10114001#0300014B14060101
(1743787523.008549) can0 10114001#03309E9D9E9E9E9E
(1743787523.008704) can0 10114001#9E9E9E9E9E9E9E9E
(1743787523.008852) can0 10114001#9E9E9E9E9E9E9E9E
(1743787523.009000) can0 10214001#9E349F
(1743787523.009596) can0 10614001#1AB14E49F769B095
(1743787523.015904) can0 00431406#07AA0202009F2C2C
(1743787523.016065) can0 00831406#07981900014B1406
(1743787523.016192) can0 00C31406#0603102E28EA5E
(1743787523.070497) can0 00431403#07AA020100A02C2D
(1743787523.070644) can0 00831403#07981900014B1403
(1743787523.070787) can0 00C31403#0501502D3D65
(1743787523.071003) can0 00431406#07AA020100A02C2E
(1743787523.071106) can0 00831406#07981900014B1406
(1743787523.071223) can0 00C31406#0501502E72EC
(1743787523.110844) can0 10614001#1AB14E49F769B095
(1743787523.176092) can0 00451406#07AA020C00492C2F
(1743787523.176253) can0 00851406#07981900014B1406
(1743787523.176388) can0 00C51406#0703233F082F2F2F
(1743787523.176537) can0 01051406#074B2F2E2E2F2F2F
(1743787523.176656) can0 01451406#026180
(1743787523.180097) can0 00431403#07AA020100A02C30
(1743787523.180251) can0 00831403#07981900014B1403
(1743787523.180387) can0 00C31403#050150309200
(1743787523.180555) can0 00431406#07AA020100A02C31
(1743787523.180709) can0 00831406#07981900014B1406
(1743787523.180845) can0 00C31406#0501503157F0
(1743787523.196835) can0 00441406#07AA020500F42C32
(1743787523.197007) can0 00841406#07981900014B1406
(1743787523.197149) can0 00C41406#0703133232323232
(1743787523.197265) can0 01041406#028E57
(1743787523.212438) can0 10614001#1AB14E49F769B095
(1743787523.257080) can0 004D1403#07AA024500AF2D33
(1743787523.257255) can0 008D1403#07981900014B1403
(1743787523.257390) can0 00CD1403#07032F3276337B64
(1743787523.257546) can0 010D1403#07060269787B0760
(1743787523.257694) can0 014D1403#0775066303010500
(1743787523.257849) can0 018D1403#0778333233323430
(1743787523.258011) can0 01CD1403#0733363132333633
(1743787523.258139) can0 020D1403#0733333333333033
(1743787523.258289) can0 024D1403#0733D73F33CCCCCC
(1743787523.258444) can0 028D1403#073C29333333336B
(1743787523.258599) can0 02CD1403#0731333333333333
(1743787523.258754) can0 030D1403#0733333333333333
(1743787523.258850) can0 034D1403#0333749B
(1743787523.259010) can0 004D1406#07AA024500AF2D34
(1743787523.259146) can0 008D1406#07981900014B1406
(1743787523.259301) can0 00CD1406#07032F3571347C63
(1743787523.259456) can0 010D1406#0701056E7F7C0067
(1743787523.259604) can0 014D1406#0772016404060207
(1743787523.259759) can0 018D1406#077F343534353337
(1743787523.259895) can0 01CD1406#0734313635343134
(1743787523.260049) can0 020D1406#0734343434343734
(1743787523.260203) can0 024D1406#0734D03834CBCBCB
(1743787523.260339) can0 028D1406#073B2E343434346C
(1743787523.260494) can0 02CD1406#0736343434343434
(1743787523.260645) can0 030D1406#0734343434343434
(1743787523.260769) can0 034D1406#03343E87
(1743787523.260949) can0 10014001#AA034500C42D9FE5
(1743787523.261106) can0 10114001#0300014B14030101
(1743787523.261261) can0 10114001#032F9EDA9FD7C8AA
(1743787523.261397) can0 10114001#AEC5D4D7ABCCD9AA
(1743787523.261546) can0 10114001#CFAFADA9ACD49F9E
(1743787523.261701) can0 10114001#9F9E989C9F9A9D9E
(1743787523.261851) can0 10114001#9F9A9F9F9F9F9F9F
(1743787523.262011) can0 10114001#9C9F9F7B939F6060
(1743787523.262146) can0 10114001#6090859F9F9F9FC7
(1743787523.262302) can0 10114001#9D9F9F9F9F9F9F9F
(1743787523.262451) can0 10114001#9F9F9F9F9F9F9F7F
(1743787523.262542) can0 10214001#A1
(1743787523.266593) can0 00461403#07AA021700892C35
(1743787523.266741) can0 00861403#07981900014B1403
(1743787523.266896) can0 00C61403#0703303536353535
(1743787523.267055) can0 01061403#0735353535353535
(1743787523.267191) can0 01461403#0735353535353535
(1743787523.267340) can0 01861403#0635353535AEB5
(1743787523.267489) can0 00461406#07AA021700892C36
(1743787523.267644) can0 00861406#07981900014B1406
(1743787523.267799) can0 00C61406#0703303635363636
(1743787523.268010) can0 01061406#0736363636363636
(1743787523.268100) can0 01461406#0736363636363636
(1743787523.268243) can0 01861406#06363636367E69
(1743787523.268391) can0 10014001#AA031700E22CA0E5
(1743787523.268558) can0 10114001#0300014B14060101
(1743787523.268701) can0 10114001#0330A0A3A0A0A0A0
(1743787523.268849) can0 10114001#A0A0A0A0A0A0A0A0
(1743787523.269010) can0 10114001#A0A0A0A0A0A0A0A0
(1743787523.269114) can0 10214001#A01AB8
(1743787523.281800) can0 00431403#07AA020100A02C37
(1743787523.282011) can0 00831403#07981900014B1403
(1743787523.282089) can0 00C31403#05015037C9B6
(1743787523.282263) can0 00431406#07AA020100A02C38
(1743787523.282390) can0 00831406#07981900014B1406
(1743787523.282533) can0 00C31406#05015038B96A
(1743787523.313102) can0 10614001#1AB14E49F769B095
(1743787523.325935) can0 00431406#07AA0202009F2C39
(1743787523.326096) can0 00831406#07981900014B1406
(1743787523.326232) can0 00C31406#0603103B3DE8F2
(1743787523.391035) can0 00431403#07AA020100A02C3A
(1743787523.391189) can0 00831403#07981900014B1403
(1743787523.391316) can0 00C31403#0501503A33DF
(1743787523.391490) can0 00431406#07AA020100A02C3B
(1743787523.391645) can0 00831406#07981900014B1406
(1743787523.391781) can0 00C31406#0501503BF62F
(1743787523.414836) can0 10614001#1AB14E49F769B095
(1743787523.440088) can0 10014001#AA030000DE2DA1E5
(1743787523.440243) can0 10114001#0300014B14030100
(1743787523.440365) can0 10214001#0105364A
(1743787523.457044) can0 00441406#07AA020500F42C3C
(1743787523.457192) can0 00841406#07981900014B1406
(1743787523.457347) can0 00C41406#0703133C3C3C3C3C
(1743787523.457450) can0 01041406#028F1D
(1743787523.457600) can0 00431406#07AA020100A02C3D
(1743787523.457755) can0 00831406#07981900014B1406
(1743787523.457877) can0 00C31406#0503273C2F55
(1743787523.493033) can0 00431403#07AA020100A02C3E
(1743787523.493182) can0 00831403#07981900014B1403
(1743787523.493324) can0 00C31403#0501503E272C
(1743787523.493492) can0 00431406#07AA020100A02C3F
(1743787523.493640) can0 00831406#07981900014B1406
(1743787523.493776) can0 00C31406#0501503FE2DC
(1743787523.516693) can0 10614001#1AB14E49F769B095
(1743787523.517193) can0 00461403#07AA021700892C40
(1743787523.517342) can0 00861403#07981900014B1403
(1743787523.517491) can0 00C61403#0703304043404040
(1743787523.517646) can0 01061403#0740404040404040
(1743787523.517801) can0 01461403#0740404040404040
(1743787523.517937) can0 01861403#0640404040EDB2
(1743787523.518090) can0 00461406#07AA021700892C41
(1743787523.518246) can0 00861406#07981900014B1406
(1743787523.518381) can0 00C61406#0703304142414141
(1743787523.518549) can0 01061406#0741414141414141
(1743787523.518691) can0 01461406#0741414141414141
(1743787523.518839) can0 01861406#06414141414AB9
(1743787523.519020) can0 10014001#AA031700E22CA2E5
(1743787523.519149) can0 10114001#0300014B14060101
(1743787523.519276) can0 10114001#0330A2A1A2A2A2A2
(1743787523.519437) can0 10114001#A2A2A2A2A2A2A2A2
(1743787523.519586) can0 10114001#A2A2A2A2A2A2A2A2
(1743787523.519690) can0 10214001#A2EF6F
(1743787523.602232) can0 00431403#07AA020100A02C42
(1743787523.602387) can0 00831403#07981900014B1403
(1743787523.602523) can0 00C31403#05015042B35C
(1743787523.602690) can0 00431406#07AA020100A02C43
(1743787523.602845) can0 00831406#07981900014B1406
(1743787523.603023) can0 00C31406#0501504376AC
(1743787523.617280) can0 10614001#1AB14E49F769B095
(1743787523.637173) can0 00431406#07AA0202009F2C44
(1743787523.637337) can0 00831406#07981900014B1406
(1743787523.637473) can0 00C31406#0603104640A52F
(1743787523.686847) can0 00451406#07AA020C00492C45
(1743787523.687027) can0 00851406#07981900014B1406
(1743787523.687131) can0 00C51406#0703235562454545
(1743787523.687287) can0 01051406#0721454444454545
(1743787523.687390) can0 01451406#0251B5
(1743787523.713086) can0 00431403#07AA020100A02C46
(1743787523.713240) can0 00831403#07981900014B1403
(1743787523.713376) can0 00C31403#05015046A7AF
(1743787523.713544) can0 00431406#07AA020100A02C47
(1743787523.713679) can0 00831406#07981900014B1406
(1743787523.713814) can0 00C31406#05015047625F
(1743787523.716880) can0 00441406#07AA020500F42C48
(1743787523.717047) can0 00841406#07981900014B1406
(1743787523.717189) can0 00C41406#0703134848484848
(1743787523.717301) can0 01041406#0237FC
(1743787523.719131) can0 10614001#1AB14E49F769B095
(1743787523.767223) can0 004D1403#07AA024500AF2D49
(1743787523.767390) can0 008D1403#07981900014B1403
(1743787523.767544) can0 00CD1403#07032F480C49011E
(1743787523.767680) can0 010D1403#077C781302017D1A
(1743787523.767828) can0 014D1403#070F7C19797B7F7A
(1743787523.768030) can0 018D1403#0702494849484E4A
(1743787523.768133) can0 01CD1403#07494C4B48494C49
(1743787523.768270) can0 020D1403#0749494949494A49
(1743787523.768424) can0 024D1403#0749AD4549B6B6B6
(1743787523.768579) can0 028D1403#0746534949494911
(1743787523.768722) can0 02CD1403#074B494949494949
(1743787523.768884) can0 030D1403#0749494949494949
(1743787523.769030) can0 034D1403#034927E6
(1743787523.769140) can0 004D1406#07AA024500AF2D4A
(1743787523.769295) can0 008D1406#07981900014B1406
(1743787523.769443) can0 00CD1406#07032F4B0F4A021D
(1743787523.769598) can0 010D1406#077F7B1001027E19
(1743787523.769734) can0 014D1406#070C7F1A7A787C79
(1743787523.769885) can0 018D1406#07014A4B4A4B4D49
(1743787523.770042) can0 01CD1406#074A4F484B4A4F4A
(1743787523.770178) can0 020D1406#074A4A4A4A4A494A
(1743787523.770333) can0 024D1406#074AAE464AB5B5B5
(1743787523.770482) can0 028D1406#0745504A4A4A4A12
(1743787523.770638) can0 02CD1406#07484A4A4A4A4A4A
(1743787523.770793) can0 030D1406#074A4A4A4A4A4A4A
(1743787523.770910) can0 034D1406#034A6B78
(1743787523.771100) can0 10014001#AA034500C42DA3E5
(1743787523.771236) can0 10114001#0300014B14030101
(1743787523.771391) can0 10114001#032FA2E6A3EBF496
(1743787523.771539) can0 10114001#92F9E8EB97F0E596
(1743787523.771689) can0 10114001#F393919590E8A3A2
(1743787523.771844) can0 10114001#A3A2A4A0A3A6A1A2
(1743787523.772030) can0 10114001#A3A6A3A3A3A3A3A3
(1743787523.772134) can0 10114001#A0A3A347AFA35C5C
(1743787523.772285) can0 10114001#5CACB9A3A3A3A3FB
(1743787523.772440) can0 10114001#A1A3A3A3A3A3A3A3
(1743787523.772595) can0 10114001#A3A3A3A3A3A3A3F0
(1743787523.772679) can0 10214001#05
(1743787523.777171) can0 00461403#07AA021700892C4B
(1743787523.777345) can0 00861403#07981900014B1403
(1743787523.777493) can0 00C61403#0703304B484B4B4B
(1743787523.777648) can0 01061403#074B4B4B4B4B4B4B
(1743787523.777783) can0 01461403#074B4B4B4B4B4B4B
(1743787523.777938) can0 01861403#064B4B4B4BF933
(1743787523.778094) can0 00461406#07AA021700892C4C
(1743787523.778249) can0 00861406#07981900014B1406
(1743787523.778376) can0 00C61406#0703304C4F4C4C4C
(1743787523.778532) can0 01061406#074C4C4C4C4C4C4C
(1743787523.778686) can0 01461406#074C4C4C4C4C4C4C
(1743787523.778841) can0 01861406#064C4C4C4CC401
(1743787523.779030) can0 10014001#AA031700E22CA4E5
(1743787523.779147) can0 10114001#0300014B14060101
(1743787523.779282) can0 10114001#0330A4A7A4A4A4A4
(1743787523.779437) can0 10114001#A4A4A4A4A4A4A4A4
(1743787523.779587) can0 10114001#A4A4A4A4A4A4A4A4
(1743787523.779690) can0 10214001#A4F357
(1743787523.820839) can0 10614001#1AB14E49F769B095
(1743787523.823193) can0 00431403#07AA020100A02C4D
(1743787523.823341) can0 00831403#07981900014B1403
(1743787523.823463) can0 00C31403#0501504DC34C
(1743787523.823631) can0 00431406#07AA020100A02C4E
(1743787523.823786) can0 00831406#07981900014B1406
(1743787523.823921) can0 00C31406#0501504E8CC5
(1743787523.921684) can0 10614001#1AB14E49F769B095
(1743787523.924081) can0 00431403#07AA020100A02C4F
(1743787523.924230) can0 00831403#07981900014B1403
(1743787523.924372) can0 00C31403#0501504F4935
(1743787523.924540) can0 00431406#07AA020100A02C50
(1743787523.924694) can0 00831406#07981900014B1406
(1743787523.924806) can0 00C31406#050150506CE5
(1743787523.940485) can0 00431406#07AA0202009F2C51
(1743787523.940633) can0 00831406#07981900014B1406
(1743787523.940775) can0 00C31406#0603105355A783
(1743787523.959729) can0 00431406#07AA020100A02C52
(1743787523.959883) can0 00831406#07981900014B1406
(1743787523.960037) can0 00C31406#05032753A16C
(1743787523.969940) can0 00441406#07AA020500F42C53
(1743787523.970091) can0 00841406#07981900014B1406
(1743787523.970233) can0 00C41406#0703135353535353
(1743787523.970337) can0 01041406#0234ED
(1743787524.023041) can0 10614001#1AB14E49F769B095
(1743787524.029921) can0 00461403#07AA021700892C54
(1743787524.030078) can0 00861403#07981900014B1403
(1743787524.030233) can0 00C61403#0703305457545454
(1743787524.030388) can0 01061403#0754545454545454
(1743787524.030536) can0 01461403#0754545454545454
(1743787524.030672) can0 01861403#0654545454B127
(1743787524.030827) can0 00461406#07AA021700892C55
(1743787524.030981) can0 00861406#07981900014B1406
(1743787524.031135) can0 00C61406#0703305556555555
(1743787524.031290) can0 01061406#0755555555555555
(1743787524.031426) can0 01461406#0755555555555555
(1743787524.031581) can0 01861406#0655555555162C
(1743787524.031730) can0 10014001#AA031700E22CA5E5
(1743787524.031886) can0 10114001#0300014B14060101
(1743787524.032040) can0 10114001#0330A5A6A5A5A5A5
(1743787524.032175) can0 10114001#A5A5A5A5A5A5A5A5
(1743787524.032330) can0 10114001#A5A5A5A5A5A5A5A5
(1743787524.032434) can0 10214001#A5089C
(1743787524.034374) can0 00431403#07AA020100A02C56
(1743787524.034528) can0 00831403#07981900014B1403
(1743787524.034663) can0 00C31403#05015056F2A3
(1743787524.034830) can0 00431406#07AA020100A02C57
(1743787524.035040) can0 00831406#07981900014B1406
(1743787524.035118) can0 00C31406#050150573753
(1743787524.124369) can0 10614001#1AB14E49F769B095
(1743787524.144237) can0 00431403#07AA020100A02C58
(1743787524.144385) can0 00831403#07981900014B1403
(1743787524.144527) can0 00C31403#05015058478F
(1743787524.144675) can0 00431406#07AA020100A02C59
(1743787524.144830) can0 00831406#07981900014B1406
(1743787524.144966) can0 00C31406#05015059827F
(1743787524.190277) can0 00451406#07AA020C00492C5A
(1743787524.190426) can0 00851406#07981900014B1406
(1743787524.190581) can0 00C51406#0703234A7D5A5A5A
(1743787524.190736) can0 01051406#073E5A5B5B5A5A5A
(1743787524.190839) can0 01451406#02B498
(1743787524.224822) can0 10614001#1AB14E49F769B095
(1743787524.230707) can0 00441406#07AA020500F42C5B
(1743787524.230881) can0 00841406#07981900014B1406
(1743787524.231047) can0 00C41406#0703135B5B5B5B5B
(1743787524.231138) can0 01041406#02588E
(1743787524.250631) can0 00431406#07AA0202009F2C5C
(1743787524.250780) can0 00831406#07981900014B1406
(1743787524.250915) can0 00C31406#0603105E588F05
(1743787524.254126) can0 00431403#07AA020100A02C5D
(1743787524.254280) can0 00831403#07981900014B1403
(1743787524.254403) can0 00C31403#0501505D9640
(1743787524.254570) can0 00431406#07AA020100A02C5E
(1743787524.254722) can0 00831406#07981900014B1406
(1743787524.254858) can0 00C31406#0501505ED9C9
(1743787524.270614) can0 004D1403#07AA024500AF2D5F
(1743787524.270781) can0 008D1403#07981900014B1403
(1743787524.270916) can0 00CD1403#07032F5E1A5F1708
(1743787524.271075) can0 010D1403#076A6E0514176B0C
(1743787524.271229) can0 014D1403#07196A0F6F6D696C
(1743787524.271365) can0 018D1403#07145F5E5F5E585C
(1743787524.271530) can0 01CD1403#075F5A5D5E5F5A5F
(1743787524.271666) can0 020D1403#075F5F5F5F5F5C5F
(1743787524.271821) can0 024D1403#075FBB535FA0A0A0
(1743787524.271976) can0 028D1403#0750455F5F5F5F07
(1743787524.272126) can0 02CD1403#075D5F5F5F5F5F5F
(1743787524.272281) can0 030D1403#075F5F5F5F5F5F5F
(1743787524.272385) can0 034D1403#035F3CAD
(1743787524.272540) can0 004D1406#07AA024500AF2D60
(1743787524.272689) can0 008D1406#07981900014B1406
(1743787524.272831) can0 00CD1406#07032F6125602837
(1743787524.272980) can0 010D1406#0755513A2B285433
(1743787524.273139) can0 014D1406#0726553050525653
(1743787524.273273) can0 018D1406#072B606160616763
(1743787524.273428) can0 01CD1406#0760656261606560
(1743787524.273577) can0 020D1406#0760606060606360
(1743787524.273732) can0 024D1406#0760846C609F9F9F
(1743787524.273883) can0 028D1406#076F7A6060606038
(1743787524.274049) can0 02CD1406#0762606060606060
(1743787524.274172) can0 030D1406#0760606060606060
(1743787524.274295) can0 034D1406#0360582D
(1743787524.274482) can0 10014001#AA034500C42DA6E5
(1743787524.274630) can0 10114001#0300014B14030101
(1743787524.274785) can0 10114001#032FA7E3A6EEF193
(1743787524.274921) can0 10114001#97FCEDEE92F5E093
(1743787524.275073) can0 10114001#F696949095EDA6A7
(1743787524.275234) can0 10114001#A6A7A1A5A6A3A4A7
(1743787524.275369) can0 10114001#A6A3A6A6A6A6A6A6
(1743787524.275518) can0 10114001#A5A6A642AAA65959
(1743787524.275668) can0 10114001#59A9BCA6A6A6A6FE
(1743787524.275823) can0 10114001#A4A6A6A6A6A6A6A6
(1743787524.275978) can0 10114001#A6A6A6A6A6A6A611
(1743787524.276068) can0 10214001#2D
(1743787524.290377) can0 00461403#07AA021700892C61
(1743787524.290531) can0 00861403#07981900014B1403
(1743787524.290686) can0 00C61403#0703306162616161
(1743787524.290835) can0 01061403#0761616161616161
(1743787524.290969) can0 01461403#0761616161616161
(1743787524.291114) can0 01861403#0661616161358E
(1743787524.291282) can0 00461406#07AA021700892C62
(1743787524.291430) can0 00861406#07981900014B1406
(1743787524.291581) can0 00C61406#0703306261626262
(1743787524.291737) can0 01061406#0762626262626262
(1743787524.291872) can0 01461406#0762626262626262
(1743787524.292050) can0 01861406#0662626262E552
(1743787524.292179) can0 10014001#AA031700E22CA7E5
(1743787524.292334) can0 10114001#0300014B14060101
(1743787524.292470) can0 10114001#0330A7A4A7A7A7A7
(1743787524.292625) can0 10114001#A7A7A7A7A7A7A7A7
(1743787524.292767) can0 10114001#A7A7A7A7A7A7A7A7
(1743787524.292877) can0 10214001#A7FD4B
(1743787524.326270) can0 10614001#1AB14E49F769B095
(1743787524.355418) can0 00431403#07AA020100A02C63
(1743787524.355583) can0 00831403#07981900014B1403
(1743787524.355706) can0 00C31403#05015063DC78
(1743787524.355874) can0 00431406#07AA020100A02C64
(1743787524.356052) can0 00831406#07981900014B1406
(1743787524.356169) can0 00C31406#050150648702
(1743787524.427421) can0 10614001#1AB14E49F769B095
(1743787524.441056) can0 00431403#07AA020000B52D65
(1743787524.441179) can0 00831403#07981900014B1403
(1743787524.441298) can0 00C31403#0401052A32
(1743787524.456268) can0 00431403#07AA020100A02C66
(1743787524.456435) can0 00831403#07981900014B1403
(1743787524.456558) can0 00C31403#050150660DB7
(1743787524.456724) can0 00431406#07AA020100A02C67
(1743787524.456880) can0 00831406#07981900014B1406
(1743787524.457056) can0 00C31406#05015067C847
(1743787524.462960) can0 00431406#07AA020100A02C68
(1743787524.463133) can0 00831406#07981900014B1406
(1743787524.463269) can0 00C31406#05032769FFA7
(1743787524.482775) can0 00441406#07AA020500F42C69
(1743787524.482929) can0 00841406#07981900014B1406
(1743787524.483081) can0 00C41406#0703136969696969
(1743787524.483191) can0 01041406#02E89D
(1743787524.528060) can0 10614001#1AB14E49F769B095
(1743787524.542560) can0 00461403#07AA021700892C6A
(1743787524.542709) can0 00861403#07981900014B1403
(1743787524.542864) can0 00C61403#0703306A696A6A6A
(1743787524.543060) can0 01061403#076A6A6A6A6A6A6A
(1743787524.543157) can0 01461403#076A6A6A6A6A6A6A
(1743787524.543305) can0 01861403#066A6A6A6A210F
(1743787524.543460) can0 00461406#07AA021700892C6B
(1743787524.543628) can0 00861406#07981900014B1406
(1743787524.543764) can0 00C61406#0703306B686B6B6B
(1743787524.543914) can0 01061406#076B6B6B6B6B6B6B
(1743787524.544072) can0 01461406#076B6B6B6B6B6B6B
(1743787524.544208) can0 01861406#066B6B6B6B8604
(1743787524.544363) can0 10014001#AA031700E22CA8E5
(1743787524.544514) can0 10114001#0300014B14060101
(1743787524.544669) can0 10114001#0330A8ABA8A8A8A8
(1743787524.544824) can0 10114001#A8A8A8A8A8A8A8A8
(1743787524.544960) can0 10114001#A8A8A8A8A8A8A8A8
(1743787524.545079) can0 10214001#A8CB27
(1743787524.552419) can0 00431406#07AA0202009F2C6C
(1743787524.552567) can0 00831406#07981900014B1406
(1743787524.552722) can0 00C31406#0603106E68DB51
(1743787524.557856) can0 00431403#07AA020100A02C6D
(1743787524.558061) can0 00831403#07981900014B1403
(1743787524.558151) can0 00C31403#0501506D6954
(1743787524.558319) can0 00431406#07AA020100A02C6E
(1743787524.558469) can0 00831406#07981900014B1406
(1743787524.558592) can0 00C31406#0501506E26DD
(1743787524.629659) can0 10614001#1AB14E49F769B095
(1743787524.667866) can0 00431403#07AA020100A02C6F
(1743787524.668064) can0 00831403#07981900014B1403
(1743787524.668155) can0 00C31403#0501506FE32D
(1743787524.668323) can0 00431406#07AA020100A02C70
(1743787524.668478) can0 00831406#07981900014B1406
(1743787524.668605) can0 00C31406#05015070C6FD
(1743787524.693149) can0 00451406#07AA020C00492C71
(1743787524.693323) can0 00851406#07981900014B1406
(1743787524.693458) can0 00C51406#0703236156717171
(1743787524.693609) can0 01051406#0715717070717171
(1743787524.693714) can0 01451406#02C178
(1743787524.730708) can0 10614001#1AB14E49F769B095
(1743787524.743068) can0 00441406#07AA020500F42C72
(1743787524.743216) can0 00841406#07981900014B1406
(1743787524.743371) can0 00C41406#0703137272727272
(1743787524.743474) can0 01041406#02EB8C
(1743787524.768351) can0 00431403#07AA020100A02C73
(1743787524.768515) can0 00831403#07981900014B1403
(1743787524.768657) can0 00C31403#050150738974
(1743787524.768825) can0 00431406#07AA020100A02C74
(1743787524.768961) can0 00831406#07981900014B1406
(1743787524.769099) can0 00C31406#05015074D20E
(1743787524.773562) can0 004D1403#07AA024500AF2D75
(1743787524.773711) can0 008D1403#07981900014B1403
(1743787524.773865) can0 00CD1403#07032F7430753D22
(1743787524.774069) can0 010D1403#0740442F3E3D4126
(1743787524.774153) can0 014D1403#0733402545474346
(1743787524.774321) can0 018D1403#073E757475747276
(1743787524.774456) can0 01CD1403#0775707774757075
(1743787524.774606) can0 020D1403#0775757575757675
(1743787524.774761) can0 024D1403#07759179758A8A8A
(1743787524.774916) can0 028D1403#077A6E757575752D
(1743787524.775069) can0 02CD1403#0777757575757575
(1743787524.775205) can0 030D1403#0775757575757575
(1743787524.775329) can0 034D1403#03751F29
(1743787524.775477) can0 004D1406#07AA024500AF2D76
(1743787524.775613) can0 008D1406#07981900014B1406
(1743787524.775768) can0 00CD1406#07032F7733763E21
(1743787524.775922) can0 010D1406#0743472C3D3E4225
(1743787524.776075) can0 014D1406#0730432646444045
(1743787524.776211) can0 018D1406#073D767776777175
(1743787524.776360) can0 01CD1406#0776737477767376
(1743787524.776515) can0 020D1406#0776767676767576
(1743787524.776670) can0 024D1406#0776927A76898989
(1743787524.776806) can0 028D1406#07796D767676762E
(1743787524.776955) can0 02CD1406#0774767676767676
(1743787524.777114) can0 030D1406#0776767676767676
(1743787524.777237) can0 034D1406#037653B7
(1743787524.777417) can0 10014001#AA034500C42DA9E5
(1743787524.777572) can0 10114001#0300014B14030101
(1743787524.777727) can0 10114001#032FA8ECA9E1FE9C
(1743787524.777863) can0 10114001#98F3E2E19DFAEF9C
(1743787524.778070) can0 10114001#F9999B9F9AE2A9A8
(1743787524.778157) can0 10114001#A9A8AEAAA9ACABA8
(1743787524.778319) can0 10114001#A9ACA9A9A9A9A9A9
(1743787524.778467) can0 10114001#AAA9A94DA5A95656
(1743787524.778622) can0 10114001#56A6B2A9A9A9A9F1
(1743787524.778773) can0 10114001#ABA9A9A9A9A9A9A9
(1743787524.778909) can0 10114001#A9A9A9A9A9A9A922
(1743787524.779069) can0 10214001#85
(1743787524.802807) can0 00461403#07AA021700892C77
(1743787524.802961) can0 00861403#07981900014B1403
(1743787524.803114) can0 00C61403#0703307774777777
(1743787524.803251) can0 01061403#0777777777777777
(1743787524.803405) can0 01461403#0777777777777777
(1743787524.803555) can0 01861403#06777777771ECC
(1743787524.803710) can0 00461406#07AA021700892C78
(1743787524.803865) can0 00861406#07981900014B1406
(1743787524.804070) can0 00C61406#070330787B787878
(1743787524.804151) can0 01061406#0778787878787878
(1743787524.804306) can0 01461406#0778787878787878
(1743787524.804461) can0 01861406#0678787878FA63
(1743787524.804609) can0 10014001#AA031700E22CAAE5
(1743787524.804763) can0 10114001#0300014B14060101
(1743787524.804918) can0 10114001#0330AAA9AAAAAAAA
(1743787524.805070) can0 10114001#AAAAAAAAAAAAAAAA
(1743787524.805205) can0 10114001#AAAAAAAAAAAAAAAA
(1743787524.805309) can0 10214001#AA3EF0
(1743787524.831411) can0 10614001#1AB14E49F769B095
(1743787524.862463) can0 00431406#07AA0202009F2C79
(1743787524.862614) can0 00831406#07981900014B1406
(1743787524.862769) can0 00C31406#0603107B7DD9FD
(1743787524.871643) can0 00431403#07AA020100A02C7A
(1743787524.871817) can0 00831403#07981900014B1403
(1743787524.871952) can0 00C31403#0501507A67EE
(1743787524.872104) can0 00431406#07AA020100A02C7B
(1743787524.872259) can0 00831406#07981900014B1406
(1743787524.872395) can0 00C31406#0501507BA21E
(1743787524.932995) can0 10614001#1AB14E49F769B095
(1743787524.965160) can0 00431406#07AA020100A02C7C
(1743787524.965314) can0 00831406#07981900014B1406
(1743787524.965450) can0 00C31406#0503277DBE58
(1743787524.974100) can0 00431403#07AA020100A02C7D
(1743787524.974255) can0 00831403#07981900014B1403
(1743787524.974397) can0 00C31403#0501507D3C58
(1743787524.974565) can0 00431406#07AA020100A02C7E
(1743787524.974713) can0 00831406#07981900014B1406
(1743787524.974849) can0 00C31406#0501507E73D1
(1743787524.996020) can0 00441406#07AA020500F42C7F
(1743787524.996154) can0 00841406#07981900014B1406
(1743787524.996304) can0 00C41406#0703137F7F7F7F7F
(1743787524.996414) can0 01041406#025D72
(1743787525.033553) can0 10614001#1AB14E49F769B095
(1743787525.056260) can0 00461403#07AA021700892C80
(1743787525.056410) can0 00861403#07981900014B1403
(1743787525.056565) can0 00C61403#0703308083808080
(1743787525.056714) can0 01061403#0780808080808080
(1743787525.056868) can0 01461403#0780808080808080
(1743787525.057004) can0 01861403#0680808080A701
(1743787525.057163) can0 00461406#07AA021700892C81
(1743787525.057311) can0 00861406#07981900014B1406
(1743787525.057466) can0 00C61406#0703308182818181
(1743787525.057616) can0 01061406#0781818181818181
(1743787525.057771) can0 01461406#0781818181818181
(1743787525.057907) can0 01861406#0681818181000A
(1743787525.058080) can0 10014001#AA031700E22CABE5
(1743787525.058214) can0 10114001#0300014B14060101
(1743787525.058350) can0 10114001#0330ABA8ABABABAB
(1743787525.058505) can0 10114001#ABABABABABABABAB
(1743787525.058660) can0 10114001#ABABABABABABABAB
(1743787525.058764) can0 10214001#ABC53B
(1743787525.084016) can0 00431403#07AA020100A02C82
(1743787525.084170) can0 00831403#07981900014B1403
(1743787525.084287) can0 00C31403#050150824F0F
(1743787525.084451) can0 00431406#07AA020100A02C83
(1743787525.084613) can0 00831406#07981900014B1406
(1743787525.084749) can0 00C31406#050150838AFF
(1743787525.134896) can0 10614001#1AB14E49F769B095
(1743787525.166695) can0 00431406#07AA0202009F2C84
(1743787525.166864) can0 00831406#07981900014B1406
(1743787525.166999) can0 00C31406#0603108680F63E
(1743787525.194208) can0 00431403#07AA020100A02C85
(1743787525.194362) can0 00831403#07981900014B1403
(1743787525.194497) can0 00C31403#0501508514B9
(1743787525.194665) can0 00431406#07AA020100A02C86
(1743787525.194813) can0 00831406#07981900014B1406
(1743787525.194932) can0 00C31406#050150865B30
(1743787525.196085) can0 00451406#07AA020C00492C87
(1743787525.196214) can0 00851406#07981900014B1406
(1743787525.196356) can0 00C51406#07032397A0878787
(1743787525.196506) can0 01051406#07E3878686878787
(1743787525.196610) can0 01451406#02955D
(1743787525.236599) can0 10614001#1AB14E49F769B095
(1743787525.256453) can0 00441406#07AA020500F42C88
(1743787525.256601) can0 00841406#07981900014B1406
(1743787525.256756) can0 00C41406#0703138888888888
(1743787525.256859) can0 01041406#029BD1
(1743787525.276754) can0 004D1403#07AA024500AF2D89
(1743787525.276904) can0 008D1403#07981900014B1403
(1743787525.277088) can0 00CD1403#07032F88CC89C1DE
(1743787525.277211) can0 010D1403#07BCB8D3C2C1BDDA
(1743787525.277353) can0 014D1403#07CFBCD9B9BBBFBA
(1743787525.277496) can0 018D1403#07C2898889888E8A
(1743787525.277658) can0 01CD1403#07898C8B88898C89
(1743787525.277806) can0 020D1403#0789898989898A89
(1743787525.277962) can0 024D1403#07896D8589767676
(1743787525.278101) can0 028D1403#07869389898989D1
(1743787525.278256) can0 02CD1403#078B898989898989
(1743787525.278404) can0 030D1403#0789898989898989
(1743787525.278527) can0 034D1403#0389A646
(1743787525.278708) can0 004D1406#07AA024500AF2D8A
(1743787525.278862) can0 008D1406#07981900014B1406
(1743787525.279017) can0 00CD1406#07032F8BCF8AC2DD
(1743787525.279159) can0 010D1406#07BFBBD0C1C2BED9
(1743787525.279308) can0 014D1406#07CCBFDABAB8BCB9
(1743787525.279464) can0 018D1406#07C18A8B8A8B8D89
(1743787525.279612) can0 01CD1406#078A8F888B8A8F8A
(1743787525.279754) can0 020D1406#078A8A8A8A8A898A
(1743787525.279902) can0 024D1406#078A6E868A757575
(1743787525.280088) can0 028D1406#0785908A8A8A8AD2
(1743787525.280211) can0 02CD1406#07888A8A8A8A8A8A
(1743787525.280347) can0 030D1406#078A8A8A8A8A8A8A
(1743787525.280466) can0 034D1406#038AEAD8
(1743787525.280666) can0 10014001#AA034500C42DACE5
(1743787525.280801) can0 10114001#0300014B14030101
(1743787525.280956) can0 10114001#032FADE9ACE4FB99
(1743787525.281112) can0 10114001#9DF6E7E498FFEA99
(1743787525.281268) can0 10114001#FC9C9E9A9FE7ACAD
(1743787525.281403) can0 10114001#ACADABAFACA9AEAD
(1743787525.281558) can0 10114001#ACA9ACACACACACAC
(1743787525.281706) can0 10114001#AFACAC48A0AC5353
(1743787525.281861) can0 10114001#53A3B6ACACACACF4
(1743787525.282010) can0 10114001#AEACACACACACACAC
(1743787525.282152) can0 10114001#ACACACACACACACD3
(1743787525.282256) can0 10214001#7C
(1743787525.304141) can0 00431403#07AA020100A02C8B
(1743787525.304314) can0 00831403#07981900014B1403
(1743787525.304431) can0 00C31403#0501508BA195
(1743787525.304595) can0 00431406#07AA020100A02C8C
(1743787525.304751) can0 00831406#07981900014B1406
(1743787525.304893) can0 00C31406#0501508CFAEF
(1743787525.316455) can0 00461403#07AA021700892C8D
(1743787525.316603) can0 00861403#07981900014B1403
(1743787525.316758) can0 00C61403#0703308D8E8D8D8D
(1743787525.316906) can0 01061403#078D8D8D8D8D8D8D
(1743787525.317090) can0 01461403#078D8D8D8D8D8D8D
(1743787525.317193) can0 01861403#068D8D8D8D29B9
(1743787525.317354) can0 00461406#07AA021700892C8E
(1743787525.317503) can0 00861406#07981900014B1406
(1743787525.317658) can0 00C61406#0703308E8D8E8E8E
(1743787525.317809) can0 01061406#078E8E8E8E8E8E8E
(1743787525.317945) can0 01461406#078E8E8E8E8E8E8E
(1743787525.318102) can0 01861406#068E8E8E8EF965
(1743787525.318257) can0 10014001#AA031700E22CADE5
(1743787525.318406) can0 10114001#0300014B14060101
(1743787525.318561) can0 10114001#0330ADAEADADADAD
(1743787525.318696) can0 10114001#ADADADADADADADAD
(1743787525.318851) can0 10114001#ADADADADADADADAD
(1743787525.318962) can0 10214001#ADD903
(1743787525.338091) can0 10614001#1AB14E49F769B095
(1743787525.411786) can0 10014001#AA13CC006D2DB03E
(1743787525.411952) can0 10114001#0000024B35010101
(1743787525.412093) can0 10114001#1404B8B1A0B0A8B1
(1743787525.412248) can0 10114001#90B098B180B088D4
(1743787525.412403) can0 10114001#F0B0F8B0E0B0E8B1
(1743787525.412551) can0 10114001#D0708ED8B0C0B0C8
(1743787525.412686) can0 10114001#54B630B1B438B1B0
(1743787525.412860) can0 10114001#20B1B028B1B010B1
(1743787525.412996) can0 10114001#B018B1B500B13E8E
(1743787525.413151) can0 10114001#08B1B870B1788078
(1743787525.413301) can0 10114001#B1B060B1409E68B1
(1743787525.413443) can0 10114001#788050B1708E58B1
(1743787525.413591) can0 10114001#B140B1B148B10CB3
(1743787525.413746) can0 10114001#30B27709B238B2B3
(1743787525.413897) can0 10114001#20B2FB28B28510B2
(1743787525.414093) can0 10114001#116F52AB18B2B170
(1743787525.414203) can0 10114001#B2B078B2B060B270
(1743787525.414339) can0 10114001#6132684A4F4F4F4F
(1743787525.414494) can0 10114001#B168B2B150B2B058
(1743787525.414642) can0 10114001#B261B140B2B048B2
(1743787525.414797) can0 10114001#B030B3B038B3B020
(1743787525.414952) can0 10114001#B3B010B31F4F4F4F
(1743787525.415101) can0 10114001#4F4F4F4F4FB118B3
(1743787525.415243) can0 10114001#B000B3B008B3B070
(1743787525.415398) can0 10114001#B3B078B3B060B3B0
(1743787525.415547) can0 10114001#68B3B050B3B058B3
(1743787525.415696) can0 10114001#B040B3B048B3B03A
(1743787525.415852) can0 10214001#B4B4C00035B3057B
(1743787525.416006) can0 00431403#07AA020100A02C8F
(1743787525.416145) can0 00831403#07981900014B1403
(1743787525.416280) can0 00C31403#0501508FB566
(1743787525.416454) can0 00431406#07AA020100A02C90
(1743787525.416602) can0 00831406#07981900014B1406
(1743787525.416725) can0 00C31406#0501509090B6
(1743787525.439593) can0 10614001#1AB14E49F769B095
(1743787525.442301) can0 10014001#AA030000DE2DAEE5
(1743787525.442454) can0 10114001#0300014B14030100
(1743787525.442570) can0 10214001#0105225E
(1743787525.468297) can0 00431406#07AA0202009F2C91
(1743787525.468452) can0 00831406#07981900014B1406
(1743787525.468607) can0 00C31406#0603109395F492
(1743787525.468762) can0 00431406#07AA020100A02C92
(1743787525.468910) can0 00831406#07981900014B1406
(1743787525.469033) can0 00C31406#050327935D3F
(1743787525.508105) can0 00441406#07AA020500F42C93
(1743787525.508245) can0 00841406#07981900014B1406
(1743787525.508395) can0 00C41406#0703139393939393
(1743787525.508499) can0 01041406#0298C0
(1743787525.525040) can0 00431403#07AA020100A02C94
(1743787525.525194) can0 00831403#07981900014B1403
(1743787525.525328) can0 00C31403#050150948489
(1743787525.525502) can0 00431406#07AA020100A02C95
(1743787525.525651) can0 00831406#07981900014B1406
(1743787525.525774) can0 00C31406#050150954179
(1743787525.540842) can0 10614001#1AB14E49F769B095
(1743787525.568241) can0 00461403#07AA021700892C96
(1743787525.568395) can0 00861403#07981900014B1403
(1743787525.568550) can0 00C61403#0703309695969696
(1743787525.568699) can0 01061403#0796969696969696
(1743787525.568835) can0 01461403#0796969696969696
(1743787525.568990) can0 01861403#06969696968C43
(1743787525.569144) can0 00461406#07AA021700892C97
(1743787525.569295) can0 00861406#07981900014B1406
(1743787525.569450) can0 00C61406#0703309794979797
(1743787525.569605) can0 01061406#0797979797979797
(1743787525.569741) can0 01461406#0797979797979797
(1743787525.569890) can0 01861406#06979797972B48
(1743787525.570099) can0 10014001#AA031700E22CAFE5
(1743787525.570209) can0 10114001#0300014B14060101
(1743787525.570345) can0 10114001#0330AFACAFAFAFAF
(1743787525.570494) can0 10114001#AFAFAFAFAFAFAFAF
(1743787525.570649) can0 10114001#AFAFAFAFAFAFAFAF
(1743787525.570753) can0 10214001#AF2CD4
(1743787525.634698) can0 00431403#07AA020100A02C98
(1743787525.634847) can0 00831403#07981900014B1403
(1743787525.634970) can0 00C31403#05015098BBDC
(1743787525.635140) can0 00431406#07AA020100A02C99
(1743787525.635295) can0 00831406#07981900014B1406
(1743787525.635431) can0 00C31406#050150997E2C
(1743787525.641352) can0 10614001#1AB14E49F769B095
(1743787525.699151) can0 00451406#07AA020C00492C9A
(1743787525.699298) can0 00851406#07981900014B1406
(1743787525.699447) can0 00C51406#0703238ABD9A9A9A
(1743787525.699609) can0 01051406#07FE9A9B9B9A9A9A
(1743787525.699712) can0 01451406#02639E
(1743787525.742395) can0 10614001#1AB14E49F769B095
(1743787525.744779) can0 00431403#07AA020100A02C9B
(1743787525.744935) can0 00831403#07981900014B1403
(1743787525.745107) can0 00C31403#0501509BF499
(1743787525.745242) can0 00431406#07AA020100A02C9C
(1743787525.745396) can0 00831406#07981900014B1406
(1743787525.745532) can0 00C31406#0501509CAFE3
(1743787525.768998) can0 00441406#07AA020500F42C9D
(1743787525.769152) can0 00841406#07981900014B1406
(1743787525.769301) can0 00C41406#0703139D9D9D9D9D
(1743787525.769411) can0 01041406#02998A
(1743787525.778992) can0 00431406#07AA0202009F2C9E
(1743787525.779153) can0 00831406#07981900014B1406
(1743787525.779279) can0 00C31406#0603109C9AA572
(1743787525.779729) can0 004D1403#07AA024500AF2D9F
(1743787525.779897) can0 008D1403#07981900014B1403
(1743787525.780033) can0 00CD1403#07032F9EDA9FD7C8
(1743787525.780191) can0 010D1403#07AAAEC5D4D7ABCC
(1743787525.780346) can0 014D1403#07D9AACFAFADA9AC
(1743787525.780494) can0 018D1403#07D49F9E9F9E989C
(1743787525.780631) can0 01CD1403#079F9A9D9E9F9A9F
(1743787525.780796) can0 020D1403#079F9F9F9F9F9C9F
(1743787525.780938) can0 024D1403#079F7B939F606060
(1743787525.781108) can0 028D1403#0790859F9F9F9FC7
(1743787525.781244) can0 02CD1403#079D9F9F9F9F9F9F
(1743787525.781396) can0 030D1403#079F9F9F9F9F9F9F
(1743787525.781501) can0 034D1403#039FBD0D
(1743787525.781655) can0 004D1406#07AA024500AF2DA0
(1743787525.781804) can0 008D1406#07981900014B1406
(1743787525.781959) can0 00CD1406#07032FA1E5A0E8F7
(1743787525.782107) can0 010D1406#079591FAEBE894F3
(1743787525.782249) can0 014D1406#07E695F090929693
(1743787525.782404) can0 018D1406#07EBA0A1A0A1A7A3
(1743787525.782552) can0 01CD1406#07A0A5A2A1A0A5A0
(1743787525.782707) can0 020D1406#07A0A0A0A0A0A3A0
(1743787525.782842) can0 024D1406#07A044ACA05F5F5F
(1743787525.782993) can0 028D1406#07AFBAA0A0A0A0F8
(1743787525.783152) can0 02CD1406#07A2A0A0A0A0A0A0
(1743787525.783301) can0 030D1406#07A0A0A0A0A0A0A0
(1743787525.783405) can0 034D1406#03A0D98D
(1743787525.783592) can0 10014001#AA034500C42DB0E5
(1743787525.783746) can0 10114001#0300014B14030101
(1743787525.783895) can0 10114001#032FB1F5B0F8E785
(1743787525.784050) can0 10114001#81EAFBF884E3F685
(1743787525.784202) can0 10114001#E080828683FBB0B1
(1743787525.784338) can0 10114001#B0B1B7B3B0B5B2B1
(1743787525.784493) can0 10114001#B0B5B0B0B0B0B0B0
(1743787525.784648) can0 10114001#B3B0B054BCB04F4F
(1743787525.784791) can0 10114001#4FBFAAB0B0B0B0E8
(1743787525.784934) can0 10114001#B2B0B0B0B0B0B0B0
(1743787525.785108) can0 10114001#B0B0B0B0B0B0B0FE
(1743787525.785192) can0 10214001#5E
(1743787525.828539) can0 00461403#07AA021700892CA1
(1743787525.828706) can0 00861403#07981900014B1403
(1743787525.828842) can0 00C61403#070330A1A2A1A1A1
(1743787525.828990) can0 01061403#07A1A1A1A1A1A1A1
(1743787525.829148) can0 01461403#07A1A1A1A1A1A1A1
(1743787525.829284) can0 01861403#06A1A1A1A17F3D
(1743787525.829439) can0 00461406#07AA021700892CA2
(1743787525.829594) can0 00861406#07981900014B1406
(1743787525.829743) can0 00C61406#070330A2A1A2A2A2
(1743787525.829899) can0 01061406#07A2A2A2A2A2A2A2
(1743787525.830047) can0 01461406#07A2A2A2A2A2A2A2
(1743787525.830186) can0 01861406#06A2A2A2A2AFE1
(1743787525.830341) can0 10014001#AA031700E22CB1E5
(1743787525.830496) can0 10114001#0300014B14060101
(1743787525.830645) can0 10114001#0330B1B2B1B1B1B1
(1743787525.830799) can0 10114001#B1B1B1B1B1B1B1B1
(1743787525.830934) can0 10114001#B1B1B1B1B1B1B1B1
(1743787525.831109) can0 10214001#B1400C
(1743787525.843891) can0 10614001#1AB14E49F769B095
(1743787525.846341) can0 00431403#07AA020100A02CA3
(1743787525.846492) can0 00831403#07981900014B1403
(1743787525.846628) can0 00C31403#050150A3202B
(1743787525.846796) can0 00431406#07AA020100A02CA4
(1743787525.846951) can0 00831406#07981900014B1406
(1743787525.847110) can0 00C31406#050150A47B51
(1743787525.945627) can0 10614001#1AB14E49F769B095
(1743787525.947345) can0 00431403#07AA020100A02CA5
(1743787525.947493) can0 00831403#07981900014B1403
(1743787525.947627) can0 00C31403#050150A5BEA1
(1743787525.947801) can0 00431406#07AA020100A02CA6
(1743787525.947949) can0 00831406#07981900014B1406
(1743787525.948114) can0 00C31406#050150A6F128
(1743787525.979330) can0 00431406#07AA020100A02CA7
(1743787525.979505) can0 00831406#07981900014B1406
(1743787525.979621) can0 00C31406#050327A673E4
(1743787526.019726) can0 00441406#07AA020500F42CA8
(1743787526.019893) can0 00841406#07981900014B1406
(1743787526.020028) can0 00C41406#070313A8A8A8A8A8
(1743787526.020149) can0 01041406#02281C
(1743787526.046541) can0 10614001#1AB14E49F769B095
(1743787526.057226) can0 00431403#07AA020100A02CA9
(1743787526.057380) can0 00831403#07981900014B1403
(1743787526.057523) can0 00C31403#050150A981F4
(1743787526.057690) can0 00431406#07AA020100A02CAA
(1743787526.057833) can0 00831406#07981900014B1406
(1743787526.057964) can0 00C31406#050150AACE7D
(1743787526.080638) can0 00461403#07AA021700892CAB
(1743787526.080786) can0 00861403#07981900014B1403
(1743787526.080941) can0 00C61403#070330ABA8ABABAB
(1743787526.081119) can0 01061403#07ABABABABABABAB
(1743787526.081229) can0 01461403#07ABABABABABABAB
(1743787526.081384) can0 01861403#06ABABABABD177
(1743787526.081534) can0 00461406#07AA021700892CAC
(1743787526.081689) can0 00861406#07981900014B1406
(1743787526.081837) can0 00C61406#070330ACAFACACAC
(1743787526.081993) can0 01061406#07ACACACACACACAC
(1743787526.082127) can0 01461406#07ACACACACACACAC
(1743787526.082270) can0 01861406#06ACACACACEC45
(1743787526.082438) can0 10014001#AA031700E22CB2E5
(1743787526.082592) can0 10114001#0300014B14060101
(1743787526.082728) can0 10114001#0330B2B1B2B2B2B2
(1743787526.082883) can0 10114001#B2B2B2B2B2B2B2B2
(1743787526.083031) can0 10114001#B2B2B2B2B2B2B2B2
(1743787526.083138) can0 10214001#B24E10
(1743787526.083288) can0 00431406#07AA0202009F2CAD
(1743787526.083443) can0 00831406#07981900014B1406
(1743787526.083585) can0 00C31406#060310AFA9B5D3
(1743787526.148533) can0 10614001#1AB14E49F769B095
(1743787526.167333) can0 00431403#07AA020100A02CAE
(1743787526.167487) can0 00831403#07981900014B1403
(1743787526.167610) can0 00C31403#050150AEDA42
(1743787526.167778) can0 00431406#07AA020100A02CAF
(1743787526.167933) can0 00831406#07981900014B1406
(1743787526.168123) can0 00C31406#050150AF1FB2
(1743787526.200476) can0 00451406#07AA020C00492CB0
(1743787526.200624) can0 00851406#07981900014B1406
(1743787526.200789) can0 00C51406#070323A097B0B0B0
(1743787526.200931) can0 01051406#07D4B0B1B1B0B0B0
(1743787526.201035) can0 01451406#021EA9
(1743787526.250382) can0 10614001#1AB14E49F769B095
(1743787526.271227) can0 00441406#07AA020500F42CB1
(1743787526.271382) can0 00841406#07981900014B1406
(1743787526.271536) can0 00C41406#070313B1B1B1B1B1
(1743787526.271640) can0 01041406#02F015
(1743787526.278230) can0 00431403#07AA020100A02CB2
(1743787526.278448) can0 00831403#07981900014B1403
(1743787526.278570) can0 00C31403#050150B2B01B
(1743787526.278930) can0 00431406#07AA020100A02CB3
(1743787526.279127) can0 00831406#07981900014B1406
(1743787526.279217) can0 00C31406#050150B375EB
(1743787526.281934) can0 004D1403#07AA024500AF2DB4
(1743787526.282127) can0 008D1403#07981900014B1403
(1743787526.282379) can0 00CD1403#07032FB5F1B4FCE3
(1743787526.282534) can0 010D1403#078185EEFFFC80E7
(1743787526.282689) can0 014D1403#07F281E484868287
(1743787526.282825) can0 018D1403#07FFB4B5B4B5B3B7
(1743787526.282980) can0 01CD1403#07B4B1B6B5B4B1B4
(1743787526.283133) can0 020D1403#07B4B4B4B4B4B7B4
(1743787526.283269) can0 024D1403#07B450B8B44B4B4B
(1743787526.283436) can0 028D1403#07BBAEB4B4B4B4EC
(1743787526.283716) can0 02CD1403#07B6B4B4B4B4B4B4
(1743787526.283871) can0 030D1403#07B4B4B4B4B4B4B4
(1743787526.284007) can0 034D1403#03B40ED8
(1743787526.284633) can0 004D1406#07AA024500AF2DB5
(1743787526.284782) can0 008D1406#07981900014B1406
(1743787526.284925) can0 00CD1406#07032FB4F0B5FDE2
(1743787526.285127) can0 010D1406#078084EFFEFD81E6
(1743787526.285371) can0 014D1406#07F380E585878386
(1743787526.285526) can0 018D1406#07FEB5B4B5B4B2B6
(1743787526.285681) can0 01CD1406#07B5B0B7B4B5B0B5
(1743787526.285830) can0 020D1406#07B5B5B5B5B5B6B5
(1743787526.285966) can0 024D1406#07B551B9B54A4A4A
(1743787526.286135) can0 028D1406#07BAAFB5B5B5B5ED
(1743787526.286277) can0 02CD1406#07B7B5B5B5B5B5B5
(1743787526.286573) can0 030D1406#07B5B5B5B5B5B5B5
(1743787526.286696) can0 034D1406#03B54107
(1743787526.287328) can0 10014001#AA034500C42DB3E5
(1743787526.287490) can0 10114001#0300014B14030101
(1743787526.287639) can0 10114001#032FB2F6B3FBE486
(1743787526.287794) can0 10114001#82E9F8FB87E0F586
(1743787526.288127) can0 10114001#E383818580F8B3B2
(1743787526.288327) can0 10114001#B3B2B4B0B3B6B1B2
(1743787526.288482) can0 10114001#B3B6B3B3B3B3B3B3
(1743787526.288681) can0 10114001#B0B3B357BFB34C4C
(1743787526.288816) can0 10114001#4CBCA9B3B3B3B3EB
(1743787526.288983) can0 10114001#B1B3B3B3B3B3B3B3
(1743787526.289140) can0 10114001#B3B3B3B3B3B3B3A1
(1743787526.289211) can0 10214001#46
(1743787526.318926) can0 10014001#AA13BE01E22DB13E
(1743787526.319128) can0 10114001#0000024B35010101
(1743787526.319238) can0 10114001#1401B9B1A1B1A9B1
(1743787526.319387) can0 10114001#91B199B181B189F1
(1743787526.319522) can0 10114001#F1B1F9B1E1B1E9B5
(1743787526.319677) can0 10114001#D1B5D9B0C1B2C9B7
(1743787526.319832) can0 10114001#31B056B339B03BAD
(1743787526.319980) can0 10114001#21B0B329B0F711B0
(1743787526.320136) can0 10114001#65B319B051B301B0
(1743787526.320291) can0 10114001#75AA09B0B271B03D
(1743787526.320427) can0 10114001#B079B07BB361B0B7
(1743787526.320581) can0 10114001#69B04CB251B0B159
(1743787526.320732) can0 10114001#B0B141B0B149B0B1
(1743787526.320888) can0 10114001#31B3B139B33AAE21
(1743787526.321036) can0 10114001#B365B329B3B111B3
(1743787526.321192) can0 10114001#3EA219B32EB201B3
(1743787526.321328) can0 10114001#63B009B3B171B342
(1743787526.321483) can0 10114001#B261B3B169B3A051
(1743787526.321638) can0 10114001#B3B159B3B141B373
(1743787526.321793) can0 10114001#3FB049B3B131B271
(1743787526.321920) can0 10114001#8F39B2B121B2B129
(1743787526.322128) can0 10114001#B2B111B2D519B2B0
(1743787526.322232) can0 10114001#01B2B109B2B171B2
(1743787526.322380) can0 10114001#03B379B2BE61B271
(1743787526.322529) can0 10114001#8F69B25E9F51B25E
(1743787526.322691) can0 10114001#9F59B2B141B263B0
(1743787526.322827) can0 10114001#49B25F8D31B5B139
(1743787526.322975) can0 10114001#B5B121B5718F29B5
(1743787526.323129) can0 10114001#718F11B5B419B5B1
(1743787526.323283) can0 10114001#01B5B109B5B171B5
(1743787526.323438) can0 10114001#B179B5B161B5B169
(1743787526.323574) can0 10114001#B5B151B5B459B5B9
(1743787526.323723) can0 10114001#41B5B149B5718F31
(1743787526.323878) can0 10114001#B4B139B4B121B463
(1743787526.324033) can0 10114001#B029B41E4E4E4E4E
(1743787526.324192) can0 10114001#4E4E4E4EB011B4B0
(1743787526.324336) can0 10114001#19B43F8F01B47981
(1743787526.324497) can0 10114001#09B4419F21B77981
(1743787526.324633) can0 10114001#29B7718F11B7B019
(1743787526.324781) can0 10114001#B70DB201B7106E53
(1743787526.324936) can0 10114001#AA09B7B071B76943
(1743787526.325128) can0 10114001#2B2EB279B731060D
(1743787526.325245) can0 10114001#61B061B771603369
(1743787526.325381) can0 10114001#4B4E4E4E4EB069B7
(1743787526.325531) can0 10114001#B051B7B159B760B0
(1743787526.325686) can0 10114001#41B7B129B6FA11B6
(1743787526.325840) can0 10114001#8471B6718F79B6B1
(1743787526.325989) can0 10114001#69B640E851B6B759
(1743787526.326129) can0 10114001#B6B244B6A27EF9FB
(1743787526.326284) can0 10114001#01B99571B9014E4E
(1743787526.326438) can0 10114001#4E4E4E4E4E4EB079
(1743787526.326586) can0 10114001#B9B169B9B151B9B1
(1743787526.326722) can0 10114001#59B93BB241B9B149
(1743787526.326877) can0 10114001#B9B031B8B139B8B1
(1743787526.327032) can0 10114001#21B8B129B8B111B8
(1743787526.327186) can0 10114001#B119B8B101B8B171
(1743787526.327336) can0 10114001#B8BB79B8341D710E
(1743787526.327478) can0 10114001#B761B8B169B821AD
(1743787526.327581) can0 10214001#4ABC
(1743787526.334981) can0 00461403#07AA021700892CB6
(1743787526.335129) can0 00861403#07981900014B1403
(1743787526.335284) can0 00C61403#070330B6B5B6B6B6
(1743787526.335439) can0 01061403#07B6B6B6B6B6B6B6
(1743787526.335574) can0 01461403#07B6B6B6B6B6B6B6
(1743787526.335729) can0 01861403#06B6B6B6B6EEB4
(1743787526.335884) can0 00461406#07AA021700892CB7
(1743787526.336032) can0 00861406#07981900014B1406
(1743787526.336193) can0 00C61406#070330B7B4B7B7B7
(1743787526.336320) can0 01061406#07B7B7B7B7B7B7B7
(1743787526.336481) can0 01461406#07B7B7B7B7B7B7B7
(1743787526.336629) can0 01861406#06B7B7B7B749BF
(1743787526.336784) can0 10014001#AA031700E22CB4E5
(1743787526.336933) can0 10114001#0300014B14060101
(1743787526.337129) can0 10114001#0330B4B7B4B4B4B4
(1743787526.337226) can0 10114001#B4B4B4B4B4B4B4B4
(1743787526.337381) can0 10114001#B4B4B4B4B4B4B4B4
(1743787526.337498) can0 10214001#B45228
(1743787526.351476) can0 10614001#1AB14E49F769B095
(1743787526.384132) can0 00431406#07AA0202009F2CB8
(1743787526.384286) can0 00831406#07981900014B1406
(1743787526.384435) can0 00C31406#060310BABCB77F
(1743787526.385823) can0 00431403#07AA020100A02CB9
(1743787526.385991) can0 00831403#07981900014B1403
(1743787526.386131) can0 00C31403#050150B9D4F8
(1743787526.386282) can0 00431406#07AA020100A02CBA
(1743787526.386437) can0 00831406#07981900014B1406
(1743787526.386573) can0 00C31406#050150BA9B71
(1743787526.444524) can0 00431403#07AA020000B52DBB
(1743787526.444691) can0 00831403#07981900014B1403
(1743787526.444814) can0 00C31403#0401054F6E
(1743787526.452275) can0 10614001#1AB14E49F769B095
(1743787526.486629) can0 00431406#07AA020100A02CBC
(1743787526.486777) can0 00831406#07981900014B1406
(1743787526.486913) can0 00C31406#050327BD420B
(1743787526.487167) can0 00431403#07AA020100A02CBD
(1743787526.487334) can0 00831403#07981900014B1403
(1743787526.487454) can0 00C31403#050150BDC00B
(1743787526.487641) can0 00431406#07AA020100A02CBE
(1743787526.487777) can0 00831406#07981900014B1406
(1743787526.487913) can0 00C31406#050150BE8F82
(1743787526.526329) can0 00441406#07AA020500F42CBF
(1743787526.526483) can0 00841406#07981900014B1406
(1743787526.526632) can0 00C41406#070313BFBFBFBFBF
(1743787526.526736) can0 01041406#02F15F
(1743787526.553253) can0 10614001#1AB14E49F769B095
(1743787526.587184) can0 00461403#07AA021700892CC0
(1743787526.587319) can0 00861403#07981900014B1403
(1743787526.587474) can0 00C61403#070330C0C3C0C0C0
(1743787526.587622) can0 01061403#07C0C0C0C0C0C0C0
(1743787526.587777) can0 01461403#07C0C0C0C0C0C0C0
(1743787526.587926) can0 01861403#06C0C0C0C060AF
(1743787526.588081) can0 00461406#07AA021700892CC1
(1743787526.588222) can0 00861406#07981900014B1406
(1743787526.588371) can0 00C61406#070330C1C2C1C1C1
(1743787526.588525) can0 01061406#07C1C1C1C1C1C1C1
(1743787526.588675) can0 01461406#07C1C1C1C1C1C1C1
(1743787526.588817) can0 01861406#06C1C1C1C1C7A4
(1743787526.588966) can0 10014001#AA031700E22CB5E5
(1743787526.589139) can0 10114001#0300014B14060101
(1743787526.589274) can0 10114001#0330B5B6B5B5B5B5
(1743787526.589429) can0 10114001#B5B5B5B5B5B5B5B5
(1743787526.589565) can0 10114001#B5B5B5B5B5B5B5B5
(1743787526.589688) can0 10214001#B5A9E3
(1743787526.589836) can0 00431403#07AA020100A02CC2
(1743787526.589992) can0 00831403#07981900014B1403
(1743787526.590139) can0 00C31403#050150C21B3E
(1743787526.590281) can0 00431406#07AA020100A02CC3
(1743787526.590430) can0 00831406#07981900014B1406
(1743787526.590572) can0 00C31406#050150C3DECE
(1743787526.654961) can0 10614001#1AB14E49F769B095
(1743787526.687169) can0 00431406#07AA0202009F2CC4
(1743787526.687319) can0 00831406#07981900014B1406
(1743787526.687475) can0 00C31406#060310C6C0C731
(1743787526.700143) can0 00431403#07AA020100A02CC5
(1743787526.700273) can0 00831403#07981900014B1403
(1743787526.700408) can0 00C31403#050150C54088
(1743787526.700563) can0 00431406#07AA020100A02CC6
(1743787526.700730) can0 00831406#07981900014B1406
(1743787526.700853) can0 00C31406#050150C60F01
(1743787526.706917) can0 00451406#07AA020C00492CC7
(1743787526.707143) can0 00851406#07981900014B1406
(1743787526.707221) can0 00C51406#070323D7E0C7C7C7
(1743787526.707376) can0 01051406#07A3C7C6C6C7C7C7
(1743787526.707472) can0 01451406#02D85F
(1743787526.755363) can0 10614001#1AB14E49F769B095
(1743787526.786614) can0 00441406#07AA020500F42CC8
(1743787526.786781) can0 00841406#07981900014B1406
(1743787526.786936) can0 00C41406#070313C8C8C8C8C8
(1743787526.787040) can0 01041406#02FE0A
(1743787526.787422) can0 004D1403#07AA024500AF2DC9
(1743787526.787570) can0 008D1403#07981900014B1403
(1743787526.787720) can0 00CD1403#07032FC88CC9819E
(1743787526.787875) can0 010D1403#07FCF8938281FD9A
(1743787526.788030) can0 014D1403#078FFC99F9FBFFFA
(1743787526.788172) can0 018D1403#0782C9C8C9C8CECA
(1743787526.788315) can0 01CD1403#07C9CCCBC8C9CCC9
(1743787526.788477) can0 020D1403#07C9C9C9C9C9CAC9
(1743787526.788613) can0 024D1403#07C92DC5C9363636
(1743787526.788761) can0 028D1403#07C6D2C9C9C9C991
(1743787526.788916) can0 02CD1403#07CBC9C9C9C9C9C9
(1743787526.789065) can0 030D1403#07C9C9C9C9C9C9C9
(1743787526.789191) can0 034D1403#03C9C837
(1743787526.789326) can0 004D1406#07AA024500AF2DCA
(1743787526.789476) can0 008D1406#07981900014B1406
(1743787526.789631) can0 00CD1406#07032FCB8FCA829D
(1743787526.789786) can0 010D1406#07FFFB908182FE99
(1743787526.789922) can0 014D1406#078CFF9AFAF8FCF9
(1743787526.790071) can0 018D1406#0781CACBCACBCDC9
(1743787526.790230) can0 01CD1406#07CACFC8CBCACFCA
(1743787526.790385) can0 020D1406#07CACACACACAC9CA
(1743787526.790520) can0 024D1406#07CA2EC6CA353535
(1743787526.790669) can0 028D1406#07C5D1CACACACA92
(1743787526.790824) can0 02CD1406#07C8CACACACACACA
(1743787526.790978) can0 030D1406#07CACACACACACACA
(1743787526.791146) can0 034D1406#03CA84A9
(1743787526.791273) can0 10014001#AA034500C42DB6E5
(1743787526.791435) can0 10114001#0300014B14030101
(1743787526.791570) can0 10114001#032FB7F3B6FEE183
(1743787526.791719) can0 10114001#87ECFDFE82E5F083
(1743787526.791870) can0 10114001#E686848085FDB6B7
(1743787526.792026) can0 10114001#B6B7B1B5B6B3B4B7
(1743787526.792185) can0 10114001#B6B3B6B6B6B6B6B6
(1743787526.792321) can0 10114001#B5B6B652BAB64949
(1743787526.792469) can0 10114001#49B9ADB6B6B6B6EE
(1743787526.792624) can0 10114001#B4B6B6B6B6B6B6B6
(1743787526.792779) can0 10114001#B6B6B6B6B6B6B650
(1743787526.792864) can0 10214001#BF
(1743787526.801714) can0 00431403#07AA020100A02CCB
(1743787526.801881) can0 00831403#07981900014B1403
(1743787526.802004) can0 00C31403#050150CBF5A4
(1743787526.802179) can0 00431406#07AA020100A02CCC
(1743787526.802321) can0 00831406#07981900014B1406
(1743787526.802464) can0 00C31406#050150CCAEDE
(1743787526.846821) can0 00461403#07AA021700892CCD
(1743787526.846976) can0 00861403#07981900014B1403
(1743787526.847149) can0 00C61403#070330CDCECDCDCD
(1743787526.847265) can0 01061403#07CDCDCDCDCDCDCD
(1743787526.847414) can0 01461403#07CDCDCDCDCDCDCD
(1743787526.847556) can0 01861403#06CDCDCDCDEE17
(1743787526.847721) can0 00461406#07AA021700892CCE
(1743787526.847876) can0 00861406#07981900014B1406
(1743787526.848011) can0 00C61406#070330CECDCECECE
(1743787526.848168) can0 01061406#07CECECECECECECE
(1743787526.848319) can0 01461406#07CECECECECECECE
(1743787526.848455) can0 01861406#06CECECECE3ECB
(1743787526.848623) can0 10014001#AA031700E22CB7E5
(1743787526.848778) can0 10114001#0300014B14060101
(1743787526.848913) can0 10114001#0330B7B4B7B7B7B7
(1743787526.849068) can0 10114001#B7B7B7B7B7B7B7B7
(1743787526.849206) can0 10114001#B7B7B7B7B7B7B7B7
(1743787526.849329) can0 10214001#B75C34
(1743787526.857165) can0 10614001#1AB14E49F769B095
(1743787526.903817) can0 00431403#07AA020100A02CCF
(1743787526.903965) can0 00831403#07981900014B1403
(1743787526.904151) can0 00C31403#050150CFE157
(1743787526.904270) can0 00431406#07AA020100A02CD0
(1743787526.904426) can0 00831406#07981900014B1406
(1743787526.904542) can0 00C31406#050150D0C487
(1743787526.958313) can0 10614001#1AB14E49F769B095
(1743787526.996719) can0 00431406#07AA0202009F2CD1
(1743787526.996886) can0 00831406#07981900014B1406
(1743787526.997021) can0 00C31406#060310D3D5C59D
(1743787526.997180) can0 00431406#07AA020100A02CD2
(1743787526.997330) can0 00831406#07981900014B1406
(1743787526.997453) can0 00C31406#050327D3090E
(1743787527.013975) can0 00431403#07AA020100A02CD3
(1743787527.014155) can0 00831403#07981900014B1403
(1743787527.014260) can0 00C31403#050150D38B0E
(1743787527.014415) can0 00431406#07AA020100A02CD4
(1743787527.014570) can0 00831406#07981900014B1406
(1743787527.014706) can0 00C31406#050150D4D074
(1743787527.047605) can0 00441406#07AA020500F42CD5
(1743787527.047779) can0 00841406#07981900014B1406
(1743787527.047927) can0 00C41406#070313D5D5D5D5D5
(1743787527.048031) can0 01041406#029032
(1743787527.060303) can0 10614001#1AB14E49F769B095
(1743787527.106902) can0 00461403#07AA021700892CD6
(1743787527.107056) can0 00861403#07981900014B1403
(1743787527.107210) can0 00C61403#070330D6D5D6D6D6
(1743787527.107360) can0 01061403#07D6D6D6D6D6D6D6
(1743787527.107521) can0 01461403#07D6D6D6D6D6D6D6
(1743787527.107657) can0 01861403#06D6D6D6D64BED
(1743787527.107805) can0 00461406#07AA021700892CD7
(1743787527.107960) can0 00861406#07981900014B1406
(1743787527.108159) can0 00C61406#070330D7D4D7D7D7
(1743787527.108262) can0 01061406#07D7D7D7D7D7D7D7
(1743787527.108417) can0 01461406#07D7D7D7D7D7D7D7
(1743787527.108551) can0 01861406#06D7D7D7D7ECE6
(1743787527.108706) can0 10014001#AA031700E22CB8E5
(1743787527.108861) can0 10114001#0300014B14060101
(1743787527.109010) can0 10114001#0330B8BBB8B8B8B8
(1743787527.109167) can0 10114001#B8B8B8B8B8B8B8B8
(1743787527.109303) can0 10114001#B8B8B8B8B8B8B8B8
(1743787527.109426) can0 10214001#B86A58
(1743787527.123666) can0 00431403#07AA020100A02CD8
(1743787527.123814) can0 00831403#07981900014B1403
(1743787527.123949) can0 00C31403#050150D8EFED
(1743787527.124159) can0 00431406#07AA020100A02CD9
(1743787527.124276) can0 00831406#07981900014B1406
(1743787527.124387) can0 00C31406#050150D92A1D
(1743787527.161071) can0 10614001#1AB14E49F769B095
(1743787527.216823) can0 00451406#07AA020C00492CDA
(1743787527.216977) can0 00851406#07981900014B1406
(1743787527.217163) can0 00C51406#070323CAFDDADADA
(1743787527.217260) can0 01051406#07BEDADBDBDADADA
(1743787527.217364) can0 01451406#022E9C
(1743787527.233862) can0 00431403#07AA020100A02CDB
(1743787527.234017) can0 00831403#07981900014B1403
(1743787527.234164) can0 00C31403#050150DBA0A8
(1743787527.234325) can0 00431406#07AA020100A02CDC
(1743787527.234474) can0 00831406#07981900014B1406
(1743787527.234592) can0 00C31406#050150DCFBD2
(1743787527.262447) can0 10614001#1AB14E49F769B095
(1743787527.297570) can0 004D1403#07AA024500AF2DDD
(1743787527.297705) can0 008D1403#07981900014B1403
(1743787527.297856) can0 00CD1403#07032FDC98DD958A
(1743787527.298012) can0 010D1403#07E8EC879695E98E
(1743787527.298166) can0 014D1403#079BE88DEDEFEBEE
(1743787527.298302) can0 018D1403#0796DDDCDDDCDADE
(1743787527.298457) can0 01CD1403#07DDD8DFDCDDD8DD
(1743787527.298606) can0 020D1403#07DDDDDDDDDDDEDD
(1743787527.298760) can0 024D1403#07DD39D1DD222222
(1743787527.298909) can0 028D1403#07D2C6DDDDDDDD85
(1743787527.299058) can0 02CD1403#07DFDDDDDDDDDDDD
(1743787527.299205) can0 030D1403#07DDDDDDDDDDDDDD
(1743787527.299328) can0 034D1403#03DDD03D
(1743787527.299476) can0 004D1406#07AA024500AF2DDE
(1743787527.299612) can0 008D1406#07981900014B1406
(1743787527.299767) can0 00CD1406#07032FDF9BDE9689
(1743787527.299922) can0 010D1406#07EBEF849596EA8D
(1743787527.300057) can0 014D1406#0798EB8EEEECE8ED
(1743787527.300211) can0 018D1406#0795DEDFDEDFD9DD
(1743787527.300366) can0 01CD1406#07DEDBDCDFDEDBDE
(1743787527.300521) can0 020D1406#07DEDEDEDEDEDDDE
(1743787527.300669) can0 024D1406#07DE3AD2DE212121
(1743787527.300804) can0 028D1406#07D1C5DEDEDEDE86
(1743787527.300958) can0 02CD1406#07DCDEDEDEDEDEDE
(1743787527.301166) can0 030D1406#07DEDEDEDEDEDEDE
(1743787527.301231) can0 034D1406#03DE9CA3
(1743787527.301414) can0 10014001#AA034500C42DB9E5
(1743787527.301569) can0 10114001#0300014B14030101
(1743787527.301718) can0 10114001#032FB8FCB9F1EE8C
(1743787527.301873) can0 10114001#88E3F2F18DEAFF8C
(1743787527.302008) can0 10114001#E9898B8F8AF2B9B8
(1743787527.302166) can0 10114001#B9B8BEBAB9BCBBB8
(1743787527.302302) can0 10114001#B9BCB9B9B9B9B9B9
(1743787527.302469) can0 10114001#BAB9B95DB5B94646
(1743787527.302603) can0 10114001#46B6A2B9B9B9B9E1
(1743787527.302758) can0 10114001#BBB9B9B9B9B9B9B9
(1743787527.302913) can0 10114001#B9B9B9B9B9B9B973
(1743787527.302998) can0 10214001#C6
(1743787527.306855) can0 00431406#07AA0202009F2CDF
(1743787527.307010) can0 00831406#07981900014B1406
(1743787527.307166) can0 00C31406#060310DDDBA9EE
(1743787527.307321) can0 00441406#07AA020500F42CE0
(1743787527.307457) can0 00841406#07981900014B1406
(1743787527.307605) can0 00C41406#070313E0E0E0E0E0
(1743787527.307715) can0 01041406#0221A4
(1743787527.344495) can0 00431403#07AA020100A02CE1
(1743787527.344659) can0 00831403#07981900014B1403
(1743787527.344802) can0 00C31403#050150E1FE63
(1743787527.344956) can0 00431406#07AA020100A02CE2
(1743787527.345105) can0 00831406#07981900014B1406
(1743787527.345240) can0 00C31406#050150E2B1EA
(1743787527.363448) can0 10614001#1AB14E49F769B095
(1743787527.367211) can0 00461403#07AA021700892CE3
(1743787527.367362) can0 00861403#07981900014B1403
(1743787527.367510) can0 00C61403#070330E3E0E3E3E3
(1743787527.367684) can0 01061403#07E3E3E3E3E3E3E3
(1743787527.367820) can0 01461403#07E3E3E3E3E3E3E3
(1743787527.367956) can0 01861403#06E3E3E3E3CF44
(1743787527.368106) can0 00461406#07AA021700892CE4
(1743787527.368265) can0 00861406#07981900014B1406
(1743787527.368414) can0 00C61406#070330E4E7E4E4E4
(1743787527.368568) can0 01061406#07E4E4E4E4E4E4E4
(1743787527.368703) can0 01461406#07E4E4E4E4E4E4E4
(1743787527.368858) can0 01861406#06E4E4E4E4F276
(1743787527.369012) can0 10014001#AA031700E22CBAE5
(1743787527.369169) can0 10114001#0300014B14060101
(1743787527.369317) can0 10114001#0330BAB9BABABABA
(1743787527.369453) can0 10114001#BABABABABABABABA
(1743787527.369607) can0 10114001#BABABABABABABABA
(1743787527.369731) can0 10214001#BA9F8F
(1743787527.445793) can0 10014001#AA030000DE2DBBE5
(1743787527.445967) can0 10114001#0300014B14030100
(1743787527.446070) can0 10214001#0105EFAD
(1743787527.454403) can0 00431403#07AA020100A02CE5
(1743787527.454569) can0 00831403#07981900014B1403
(1743787527.454693) can0 00C31403#050150E5EA90
(1743787527.454860) can0 00431406#07AA020100A02CE6
(1743787527.455008) can0 00831406#07981900014B1406
(1743787527.455172) can0 00C31406#050150E6A519
(1743787527.464005) can0 10614001#1AB14E49F769B095
(1743787527.507354) can0 00431406#07AA020100A02CE7
(1743787527.507521) can0 00831406#07981900014B1406
(1743787527.507640) can0 00C31406#050327E627D5
(1743787527.564202) can0 00431403#07AA020100A02CE8
(1743787527.564369) can0 00831403#07981900014B1403
(1743787527.564492) can0 00C31403#050150E810F9
(1743787527.564657) can0 00431406#07AA020100A02CE9
(1743787527.564812) can0 00831406#07981900014B1406
(1743787527.564948) can0 00C31406#050150E9D509
(1743787527.565702) can0 10614001#1AB14E49F769B095
(1743787527.568048) can0 00441406#07AA020500F42CEA
(1743787527.568221) can0 00841406#07981900014B1406
(1743787527.568357) can0 00C41406#070313EAEAEAEAEA
(1743787527.568460) can0 01041406#0296DF
(1743787527.617794) can0 00431406#07AA0202009F2CEB
(1743787527.617967) can0 00831406#07981900014B1406
(1743787527.618103) can0 00C31406#060310E9EF0F76
(1743787527.627759) can0 00461403#07AA021700892CEC
(1743787527.627914) can0 00861403#07981900014B1403
(1743787527.628050) can0 00C61403#070330ECEFECECEC
(1743787527.628224) can0 01061403#07ECECECECECECEC
(1743787527.628360) can0 01461403#07ECECECECECECEC
(1743787527.628495) can0 01861403#06ECECECEC362B
(1743787527.628663) can0 00461406#07AA021700892CED
(1743787527.628798) can0 00861406#07981900014B1406
(1743787527.628963) can0 00C61406#070330EDEEEDEDED
(1743787527.629105) can0 01061406#07EDEDEDEDEDEDED
(1743787527.629262) can0 01461406#07EDEDEDEDEDEDED
(1743787527.629398) can0 01861406#06EDEDEDED9120
(1743787527.629562) can0 10014001#AA031700E22CBCE5
(1743787527.629705) can0 10114001#0300014B14060101
(1743787527.629854) can0 10114001#0330BCBFBCBCBCBC
(1743787527.630009) can0 10114001#BCBCBCBCBCBCBCBC
(1743787527.630179) can0 10114001#BCBCBCBCBCBCBCBC
(1743787527.630269) can0 10214001#BC83B7
(1743787527.666109) can0 10614001#1AB14E49F769B095
(1743787527.674693) can0 00431403#07AA020100A02CEE
(1743787527.674858) can0 00831403#07981900014B1403
(1743787527.674981) can0 00C31403#050150EE8E73
(1743787527.675181) can0 00431406#07AA020100A02CEF
(1743787527.675303) can0 00831406#07981900014B1406
(1743787527.675439) can0 00C31406#050150EF4B83
(1743787527.719241) can0 00451406#07AA020C00492CF0
(1743787527.719408) can0 00851406#07981900014B1406
